** sch_path: /home/andylithia/openmpw/project-reisen-chip1/xschem/ota_wideband.sch
AC Analysis  Sun Oct 30 17:11:03  2022
--------------------------------------------------------------------------------
Index   frequency       vop                             
--------------------------------------------------------------------------------
0	1.000000e+03	1.941797e+00,	1.198019e-05	
1	1.023293e+03	1.941797e+00,	1.225925e-05	
2	1.047129e+03	1.941797e+00,	1.254480e-05	
3	1.071519e+03	1.941797e+00,	1.283701e-05	
4	1.096478e+03	1.941797e+00,	1.313602e-05	
5	1.122018e+03	1.941797e+00,	1.344200e-05	
6	1.148154e+03	1.941797e+00,	1.375510e-05	
7	1.174898e+03	1.941797e+00,	1.407550e-05	
8	1.202264e+03	1.941797e+00,	1.440336e-05	
9	1.230269e+03	1.941797e+00,	1.473886e-05	
10	1.258925e+03	1.941797e+00,	1.508217e-05	
11	1.288250e+03	1.941797e+00,	1.543348e-05	
12	1.318257e+03	1.941797e+00,	1.579297e-05	
13	1.348963e+03	1.941797e+00,	1.616084e-05	
14	1.380384e+03	1.941797e+00,	1.653727e-05	
15	1.412538e+03	1.941797e+00,	1.692247e-05	
16	1.445440e+03	1.941797e+00,	1.731665e-05	
17	1.479108e+03	1.941797e+00,	1.772000e-05	
18	1.513561e+03	1.941797e+00,	1.813276e-05	
19	1.548817e+03	1.941797e+00,	1.855512e-05	
20	1.584893e+03	1.941797e+00,	1.898733e-05	
21	1.621810e+03	1.941797e+00,	1.942960e-05	
22	1.659587e+03	1.941797e+00,	1.988217e-05	
23	1.698244e+03	1.941797e+00,	2.034529e-05	
24	1.737801e+03	1.941797e+00,	2.081919e-05	
25	1.778279e+03	1.941797e+00,	2.130413e-05	
26	1.819701e+03	1.941797e+00,	2.180037e-05	
27	1.862087e+03	1.941797e+00,	2.230816e-05	
28	1.905461e+03	1.941797e+00,	2.282779e-05	
29	1.949845e+03	1.941797e+00,	2.335951e-05	
30	1.995262e+03	1.941797e+00,	2.390363e-05	
31	2.041738e+03	1.941797e+00,	2.446041e-05	
32	2.089296e+03	1.941797e+00,	2.503017e-05	
33	2.137962e+03	1.941797e+00,	2.561320e-05	
34	2.187762e+03	1.941797e+00,	2.620981e-05	
35	2.238721e+03	1.941797e+00,	2.682031e-05	
36	2.290868e+03	1.941797e+00,	2.744504e-05	
37	2.344229e+03	1.941797e+00,	2.808431e-05	
38	2.398833e+03	1.941797e+00,	2.873848e-05	
39	2.454709e+03	1.941797e+00,	2.940789e-05	
40	2.511886e+03	1.941797e+00,	3.009288e-05	
41	2.570396e+03	1.941797e+00,	3.079384e-05	
42	2.630268e+03	1.941797e+00,	3.151112e-05	
43	2.691535e+03	1.941797e+00,	3.224511e-05	
44	2.754229e+03	1.941797e+00,	3.299619e-05	
45	2.818383e+03	1.941797e+00,	3.376477e-05	
46	2.884032e+03	1.941797e+00,	3.455125e-05	
47	2.951209e+03	1.941797e+00,	3.535606e-05	
48	3.019952e+03	1.941797e+00,	3.617960e-05	
49	3.090295e+03	1.941797e+00,	3.702234e-05	
50	3.162278e+03	1.941797e+00,	3.788470e-05	
51	3.235937e+03	1.941797e+00,	3.876714e-05	
52	3.311311e+03	1.941797e+00,	3.967015e-05	
53	3.388442e+03	1.941797e+00,	4.059418e-05	
54	3.467369e+03	1.941797e+00,	4.153974e-05	

Index   frequency       vop                             
--------------------------------------------------------------------------------
55	3.548134e+03	1.941797e+00,	4.250733e-05	
56	3.630781e+03	1.941797e+00,	4.349745e-05	
57	3.715352e+03	1.941797e+00,	4.451064e-05	
58	3.801894e+03	1.941797e+00,	4.554742e-05	
59	3.890451e+03	1.941797e+00,	4.660836e-05	
60	3.981072e+03	1.941797e+00,	4.769401e-05	
61	4.073803e+03	1.941797e+00,	4.880494e-05	
62	4.168694e+03	1.941797e+00,	4.994176e-05	
63	4.265795e+03	1.941797e+00,	5.110505e-05	
64	4.365158e+03	1.941797e+00,	5.229544e-05	
65	4.466836e+03	1.941797e+00,	5.351356e-05	
66	4.570882e+03	1.941797e+00,	5.476005e-05	
67	4.677351e+03	1.941797e+00,	5.603557e-05	
68	4.786301e+03	1.941797e+00,	5.734081e-05	
69	4.897788e+03	1.941797e+00,	5.867645e-05	
70	5.011872e+03	1.941797e+00,	6.004320e-05	
71	5.128614e+03	1.941797e+00,	6.144178e-05	
72	5.248075e+03	1.941797e+00,	6.287295e-05	
73	5.370318e+03	1.941797e+00,	6.433745e-05	
74	5.495409e+03	1.941797e+00,	6.583606e-05	
75	5.623413e+03	1.941797e+00,	6.736958e-05	
76	5.754399e+03	1.941797e+00,	6.893882e-05	
77	5.888437e+03	1.941797e+00,	7.054461e-05	
78	6.025596e+03	1.941797e+00,	7.218780e-05	
79	6.165950e+03	1.941797e+00,	7.386927e-05	
80	6.309573e+03	1.941797e+00,	7.558991e-05	
81	6.456542e+03	1.941797e+00,	7.735062e-05	
82	6.606934e+03	1.941797e+00,	7.915235e-05	
83	6.760830e+03	1.941797e+00,	8.099605e-05	
84	6.918310e+03	1.941797e+00,	8.288269e-05	
85	7.079458e+03	1.941797e+00,	8.481327e-05	
86	7.244360e+03	1.941797e+00,	8.678883e-05	
87	7.413102e+03	1.941797e+00,	8.881040e-05	
88	7.585776e+03	1.941797e+00,	9.087906e-05	
89	7.762471e+03	1.941797e+00,	9.299590e-05	
90	7.943282e+03	1.941797e+00,	9.516206e-05	
91	8.128305e+03	1.941797e+00,	9.737866e-05	
92	8.317638e+03	1.941797e+00,	9.964691e-05	
93	8.511380e+03	1.941797e+00,	1.019680e-04	
94	8.709636e+03	1.941797e+00,	1.043431e-04	
95	8.912509e+03	1.941797e+00,	1.067736e-04	
96	9.120108e+03	1.941797e+00,	1.092607e-04	
97	9.332543e+03	1.941797e+00,	1.118057e-04	
98	9.549926e+03	1.941797e+00,	1.144100e-04	
99	9.772372e+03	1.941797e+00,	1.170749e-04	
100	1.000000e+04	1.941797e+00,	1.198019e-04	
101	1.023293e+04	1.941797e+00,	1.225925e-04	
102	1.047129e+04	1.941797e+00,	1.254480e-04	
103	1.071519e+04	1.941797e+00,	1.283701e-04	
104	1.096478e+04	1.941797e+00,	1.313602e-04	
105	1.122018e+04	1.941797e+00,	1.344200e-04	
106	1.148154e+04	1.941797e+00,	1.375510e-04	
107	1.174898e+04	1.941797e+00,	1.407550e-04	
108	1.202264e+04	1.941797e+00,	1.440336e-04	
109	1.230269e+04	1.941797e+00,	1.473886e-04	
110	1.258925e+04	1.941797e+00,	1.508217e-04	
111	1.288250e+04	1.941797e+00,	1.543348e-04	
112	1.318257e+04	1.941797e+00,	1.579297e-04	

Index   frequency       vop                             
--------------------------------------------------------------------------------
113	1.348963e+04	1.941797e+00,	1.616084e-04	
114	1.380384e+04	1.941797e+00,	1.653727e-04	
115	1.412538e+04	1.941797e+00,	1.692247e-04	
116	1.445440e+04	1.941797e+00,	1.731665e-04	
117	1.479108e+04	1.941797e+00,	1.772000e-04	
118	1.513561e+04	1.941797e+00,	1.813276e-04	
119	1.548817e+04	1.941797e+00,	1.855512e-04	
120	1.584893e+04	1.941797e+00,	1.898733e-04	
121	1.621810e+04	1.941797e+00,	1.942960e-04	
122	1.659587e+04	1.941797e+00,	1.988217e-04	
123	1.698244e+04	1.941797e+00,	2.034529e-04	
124	1.737801e+04	1.941797e+00,	2.081919e-04	
125	1.778279e+04	1.941797e+00,	2.130413e-04	
126	1.819701e+04	1.941797e+00,	2.180037e-04	
127	1.862087e+04	1.941797e+00,	2.230816e-04	
128	1.905461e+04	1.941797e+00,	2.282779e-04	
129	1.949845e+04	1.941797e+00,	2.335951e-04	
130	1.995262e+04	1.941797e+00,	2.390363e-04	
131	2.041738e+04	1.941797e+00,	2.446041e-04	
132	2.089296e+04	1.941797e+00,	2.503017e-04	
133	2.137962e+04	1.941797e+00,	2.561320e-04	
134	2.187762e+04	1.941797e+00,	2.620981e-04	
135	2.238721e+04	1.941797e+00,	2.682031e-04	
136	2.290868e+04	1.941797e+00,	2.744504e-04	
137	2.344229e+04	1.941797e+00,	2.808431e-04	
138	2.398833e+04	1.941797e+00,	2.873848e-04	
139	2.454709e+04	1.941797e+00,	2.940789e-04	
140	2.511886e+04	1.941797e+00,	3.009288e-04	
141	2.570396e+04	1.941797e+00,	3.079384e-04	
142	2.630268e+04	1.941797e+00,	3.151112e-04	
143	2.691535e+04	1.941797e+00,	3.224511e-04	
144	2.754229e+04	1.941797e+00,	3.299619e-04	
145	2.818383e+04	1.941797e+00,	3.376477e-04	
146	2.884032e+04	1.941797e+00,	3.455125e-04	
147	2.951209e+04	1.941797e+00,	3.535605e-04	
148	3.019952e+04	1.941797e+00,	3.617960e-04	
149	3.090295e+04	1.941797e+00,	3.702233e-04	
150	3.162278e+04	1.941797e+00,	3.788469e-04	
151	3.235937e+04	1.941797e+00,	3.876714e-04	
152	3.311311e+04	1.941797e+00,	3.967015e-04	
153	3.388442e+04	1.941797e+00,	4.059418e-04	
154	3.467369e+04	1.941797e+00,	4.153974e-04	
155	3.548134e+04	1.941797e+00,	4.250733e-04	
156	3.630781e+04	1.941797e+00,	4.349745e-04	
157	3.715352e+04	1.941797e+00,	4.451063e-04	
158	3.801894e+04	1.941797e+00,	4.554742e-04	
159	3.890451e+04	1.941797e+00,	4.660836e-04	
160	3.981072e+04	1.941797e+00,	4.769400e-04	
161	4.073803e+04	1.941797e+00,	4.880494e-04	
162	4.168694e+04	1.941797e+00,	4.994175e-04	
163	4.265795e+04	1.941797e+00,	5.110504e-04	
164	4.365158e+04	1.941797e+00,	5.229543e-04	
165	4.466836e+04	1.941797e+00,	5.351355e-04	
166	4.570882e+04	1.941797e+00,	5.476004e-04	
167	4.677351e+04	1.941797e+00,	5.603557e-04	
168	4.786301e+04	1.941797e+00,	5.734080e-04	
169	4.897788e+04	1.941797e+00,	5.867644e-04	
170	5.011872e+04	1.941797e+00,	6.004319e-04	

Index   frequency       vop                             
--------------------------------------------------------------------------------
171	5.128614e+04	1.941797e+00,	6.144177e-04	
172	5.248075e+04	1.941797e+00,	6.287294e-04	
173	5.370318e+04	1.941797e+00,	6.433744e-04	
174	5.495409e+04	1.941797e+00,	6.583605e-04	
175	5.623413e+04	1.941797e+00,	6.736956e-04	
176	5.754399e+04	1.941797e+00,	6.893880e-04	
177	5.888437e+04	1.941797e+00,	7.054459e-04	
178	6.025596e+04	1.941797e+00,	7.218779e-04	
179	6.165950e+04	1.941797e+00,	7.386926e-04	
180	6.309573e+04	1.941797e+00,	7.558989e-04	
181	6.456542e+04	1.941797e+00,	7.735060e-04	
182	6.606934e+04	1.941797e+00,	7.915233e-04	
183	6.760830e+04	1.941797e+00,	8.099602e-04	
184	6.918310e+04	1.941797e+00,	8.288266e-04	
185	7.079458e+04	1.941797e+00,	8.481325e-04	
186	7.244360e+04	1.941797e+00,	8.678880e-04	
187	7.413102e+04	1.941797e+00,	8.881037e-04	
188	7.585776e+04	1.941797e+00,	9.087903e-04	
189	7.762471e+04	1.941797e+00,	9.299587e-04	
190	7.943282e+04	1.941797e+00,	9.516202e-04	
191	8.128305e+04	1.941797e+00,	9.737863e-04	
192	8.317638e+04	1.941797e+00,	9.964686e-04	
193	8.511380e+04	1.941797e+00,	1.019679e-03	
194	8.709636e+04	1.941797e+00,	1.043431e-03	
195	8.912509e+04	1.941797e+00,	1.067735e-03	
196	9.120108e+04	1.941798e+00,	1.092606e-03	
197	9.332543e+04	1.941798e+00,	1.118056e-03	
198	9.549926e+04	1.941798e+00,	1.144099e-03	
199	9.772372e+04	1.941798e+00,	1.170748e-03	
200	1.000000e+05	1.941798e+00,	1.198019e-03	
201	1.023293e+05	1.941798e+00,	1.225924e-03	
202	1.047129e+05	1.941798e+00,	1.254479e-03	
203	1.071519e+05	1.941798e+00,	1.283700e-03	
204	1.096478e+05	1.941798e+00,	1.313601e-03	
205	1.122018e+05	1.941798e+00,	1.344199e-03	
206	1.148154e+05	1.941798e+00,	1.375509e-03	
207	1.174898e+05	1.941798e+00,	1.407549e-03	
208	1.202264e+05	1.941798e+00,	1.440335e-03	
209	1.230269e+05	1.941798e+00,	1.473884e-03	
210	1.258925e+05	1.941798e+00,	1.508216e-03	
211	1.288250e+05	1.941798e+00,	1.543346e-03	
212	1.318257e+05	1.941798e+00,	1.579295e-03	
213	1.348963e+05	1.941799e+00,	1.616082e-03	
214	1.380384e+05	1.941799e+00,	1.653725e-03	
215	1.412538e+05	1.941799e+00,	1.692245e-03	
216	1.445440e+05	1.941799e+00,	1.731663e-03	
217	1.479108e+05	1.941799e+00,	1.771998e-03	
218	1.513561e+05	1.941799e+00,	1.813273e-03	
219	1.548817e+05	1.941799e+00,	1.855510e-03	
220	1.584893e+05	1.941799e+00,	1.898730e-03	
221	1.621810e+05	1.941799e+00,	1.942957e-03	
222	1.659587e+05	1.941799e+00,	1.988214e-03	
223	1.698244e+05	1.941800e+00,	2.034525e-03	
224	1.737801e+05	1.941800e+00,	2.081915e-03	
225	1.778279e+05	1.941800e+00,	2.130409e-03	
226	1.819701e+05	1.941800e+00,	2.180032e-03	
227	1.862087e+05	1.941800e+00,	2.230812e-03	
228	1.905461e+05	1.941800e+00,	2.282774e-03	

Index   frequency       vop                             
--------------------------------------------------------------------------------
229	1.949845e+05	1.941801e+00,	2.335946e-03	
230	1.995262e+05	1.941801e+00,	2.390357e-03	
231	2.041738e+05	1.941801e+00,	2.446035e-03	
232	2.089296e+05	1.941801e+00,	2.503011e-03	
233	2.137962e+05	1.941801e+00,	2.561313e-03	
234	2.187762e+05	1.941802e+00,	2.620973e-03	
235	2.238721e+05	1.941802e+00,	2.682023e-03	
236	2.290868e+05	1.941802e+00,	2.744495e-03	
237	2.344229e+05	1.941802e+00,	2.808422e-03	
238	2.398833e+05	1.941803e+00,	2.873838e-03	
239	2.454709e+05	1.941803e+00,	2.940778e-03	
240	2.511886e+05	1.941803e+00,	3.009277e-03	
241	2.570396e+05	1.941803e+00,	3.079372e-03	
242	2.630268e+05	1.941804e+00,	3.151099e-03	
243	2.691535e+05	1.941804e+00,	3.224497e-03	
244	2.754229e+05	1.941804e+00,	3.299604e-03	
245	2.818383e+05	1.941805e+00,	3.376461e-03	
246	2.884032e+05	1.941805e+00,	3.455108e-03	
247	2.951209e+05	1.941805e+00,	3.535587e-03	
248	3.019952e+05	1.941806e+00,	3.617941e-03	
249	3.090295e+05	1.941806e+00,	3.702213e-03	
250	3.162278e+05	1.941807e+00,	3.788447e-03	
251	3.235937e+05	1.941807e+00,	3.876690e-03	
252	3.311311e+05	1.941808e+00,	3.966989e-03	
253	3.388442e+05	1.941808e+00,	4.059391e-03	
254	3.467369e+05	1.941809e+00,	4.153945e-03	
255	3.548134e+05	1.941809e+00,	4.250701e-03	
256	3.630781e+05	1.941810e+00,	4.349711e-03	
257	3.715352e+05	1.941811e+00,	4.451027e-03	
258	3.801894e+05	1.941811e+00,	4.554703e-03	
259	3.890451e+05	1.941812e+00,	4.660794e-03	
260	3.981072e+05	1.941813e+00,	4.769356e-03	
261	4.073803e+05	1.941813e+00,	4.880446e-03	
262	4.168694e+05	1.941814e+00,	4.994124e-03	
263	4.265795e+05	1.941815e+00,	5.110450e-03	
264	4.365158e+05	1.941816e+00,	5.229485e-03	
265	4.466836e+05	1.941817e+00,	5.351292e-03	
266	4.570882e+05	1.941818e+00,	5.475937e-03	
267	4.677351e+05	1.941819e+00,	5.603485e-03	
268	4.786301e+05	1.941820e+00,	5.734003e-03	
269	4.897788e+05	1.941821e+00,	5.867561e-03	
270	5.011872e+05	1.941822e+00,	6.004230e-03	
271	5.128614e+05	1.941823e+00,	6.144082e-03	
272	5.248075e+05	1.941825e+00,	6.287192e-03	
273	5.370318e+05	1.941826e+00,	6.433634e-03	
274	5.495409e+05	1.941827e+00,	6.583488e-03	
275	5.623413e+05	1.941829e+00,	6.736831e-03	
276	5.754399e+05	1.941830e+00,	6.893746e-03	
277	5.888437e+05	1.941832e+00,	7.054316e-03	
278	6.025596e+05	1.941833e+00,	7.218625e-03	
279	6.165950e+05	1.941835e+00,	7.386760e-03	
280	6.309573e+05	1.941837e+00,	7.558812e-03	
281	6.456542e+05	1.941839e+00,	7.734871e-03	
282	6.606934e+05	1.941841e+00,	7.915030e-03	
283	6.760830e+05	1.941843e+00,	8.099385e-03	
284	6.918310e+05	1.941845e+00,	8.288033e-03	
285	7.079458e+05	1.941847e+00,	8.481075e-03	
286	7.244360e+05	1.941850e+00,	8.678612e-03	

Index   frequency       vop                             
--------------------------------------------------------------------------------
287	7.413102e+05	1.941852e+00,	8.880750e-03	
288	7.585776e+05	1.941855e+00,	9.087595e-03	
289	7.762471e+05	1.941858e+00,	9.299258e-03	
290	7.943282e+05	1.941860e+00,	9.515849e-03	
291	8.128305e+05	1.941863e+00,	9.737485e-03	
292	8.317638e+05	1.941867e+00,	9.964281e-03	
293	8.511380e+05	1.941870e+00,	1.019636e-02	
294	8.709636e+05	1.941873e+00,	1.043384e-02	
295	8.912509e+05	1.941877e+00,	1.067685e-02	
296	9.120108e+05	1.941881e+00,	1.092553e-02	
297	9.332543e+05	1.941885e+00,	1.117999e-02	
298	9.549926e+05	1.941889e+00,	1.144038e-02	
299	9.772372e+05	1.941893e+00,	1.170683e-02	
300	1.000000e+06	1.941898e+00,	1.197948e-02	
301	1.023293e+06	1.941902e+00,	1.225849e-02	
302	1.047129e+06	1.941907e+00,	1.254399e-02	
303	1.071519e+06	1.941913e+00,	1.283613e-02	
304	1.096478e+06	1.941918e+00,	1.313508e-02	
305	1.122018e+06	1.941924e+00,	1.344099e-02	
306	1.148154e+06	1.941930e+00,	1.375403e-02	
307	1.174898e+06	1.941936e+00,	1.407435e-02	
308	1.202264e+06	1.941943e+00,	1.440212e-02	
309	1.230269e+06	1.941950e+00,	1.473753e-02	
310	1.258925e+06	1.941957e+00,	1.508075e-02	
311	1.288250e+06	1.941964e+00,	1.543196e-02	
312	1.318257e+06	1.941972e+00,	1.579134e-02	
313	1.348963e+06	1.941981e+00,	1.615909e-02	
314	1.380384e+06	1.941989e+00,	1.653540e-02	
315	1.412538e+06	1.941998e+00,	1.692047e-02	
316	1.445440e+06	1.942008e+00,	1.731450e-02	
317	1.479108e+06	1.942018e+00,	1.771770e-02	
318	1.513561e+06	1.942028e+00,	1.813029e-02	
319	1.548817e+06	1.942039e+00,	1.855248e-02	
320	1.584893e+06	1.942050e+00,	1.898450e-02	
321	1.621810e+06	1.942062e+00,	1.942657e-02	
322	1.659587e+06	1.942075e+00,	1.987892e-02	
323	1.698244e+06	1.942088e+00,	2.034180e-02	
324	1.737801e+06	1.942102e+00,	2.081546e-02	
325	1.778279e+06	1.942116e+00,	2.130013e-02	
326	1.819701e+06	1.942131e+00,	2.179608e-02	
327	1.862087e+06	1.942147e+00,	2.230357e-02	
328	1.905461e+06	1.942163e+00,	2.282287e-02	
329	1.949845e+06	1.942181e+00,	2.335424e-02	
330	1.995262e+06	1.942199e+00,	2.389798e-02	
331	2.041738e+06	1.942218e+00,	2.445436e-02	
332	2.089296e+06	1.942238e+00,	2.502369e-02	
333	2.137962e+06	1.942258e+00,	2.560625e-02	
334	2.187762e+06	1.942280e+00,	2.620236e-02	
335	2.238721e+06	1.942303e+00,	2.681233e-02	
336	2.290868e+06	1.942327e+00,	2.743649e-02	
337	2.344229e+06	1.942352e+00,	2.807516e-02	
338	2.398833e+06	1.942378e+00,	2.872867e-02	
339	2.454709e+06	1.942405e+00,	2.939737e-02	
340	2.511886e+06	1.942434e+00,	3.008162e-02	
341	2.570396e+06	1.942464e+00,	3.078176e-02	
342	2.630268e+06	1.942495e+00,	3.149818e-02	
343	2.691535e+06	1.942528e+00,	3.223125e-02	
344	2.754229e+06	1.942563e+00,	3.298134e-02	

Index   frequency       vop                             
--------------------------------------------------------------------------------
345	2.818383e+06	1.942599e+00,	3.374886e-02	
346	2.884032e+06	1.942637e+00,	3.453420e-02	
347	2.951209e+06	1.942676e+00,	3.533778e-02	
348	3.019952e+06	1.942718e+00,	3.616003e-02	
349	3.090295e+06	1.942761e+00,	3.700136e-02	
350	3.162278e+06	1.942807e+00,	3.786222e-02	
351	3.235937e+06	1.942854e+00,	3.874306e-02	
352	3.311311e+06	1.942904e+00,	3.964434e-02	
353	3.388442e+06	1.942956e+00,	4.056653e-02	
354	3.467369e+06	1.943011e+00,	4.151011e-02	
355	3.548134e+06	1.943068e+00,	4.247558e-02	
356	3.630781e+06	1.943128e+00,	4.346343e-02	
357	3.715352e+06	1.943191e+00,	4.447419e-02	
358	3.801894e+06	1.943256e+00,	4.550837e-02	
359	3.890451e+06	1.943325e+00,	4.656651e-02	
360	3.981072e+06	1.943397e+00,	4.764917e-02	
361	4.073803e+06	1.943472e+00,	4.875690e-02	
362	4.168694e+06	1.943551e+00,	4.989028e-02	
363	4.265795e+06	1.943634e+00,	5.104989e-02	
364	4.365158e+06	1.943720e+00,	5.223634e-02	
365	4.466836e+06	1.943811e+00,	5.345023e-02	
366	4.570882e+06	1.943906e+00,	5.469219e-02	
367	4.677351e+06	1.944005e+00,	5.596287e-02	
368	4.786301e+06	1.944109e+00,	5.726291e-02	
369	4.897788e+06	1.944218e+00,	5.859298e-02	
370	5.011872e+06	1.944332e+00,	5.995376e-02	
371	5.128614e+06	1.944451e+00,	6.134596e-02	
372	5.248075e+06	1.944576e+00,	6.277027e-02	
373	5.370318e+06	1.944707e+00,	6.422743e-02	
374	5.495409e+06	1.944844e+00,	6.571818e-02	
375	5.623413e+06	1.944987e+00,	6.724328e-02	
376	5.754399e+06	1.945137e+00,	6.880349e-02	
377	5.888437e+06	1.945294e+00,	7.039961e-02	
378	6.025596e+06	1.945459e+00,	7.203245e-02	
379	6.165950e+06	1.945631e+00,	7.370282e-02	
380	6.309573e+06	1.945812e+00,	7.541156e-02	
381	6.456542e+06	1.946001e+00,	7.715954e-02	
382	6.606934e+06	1.946198e+00,	7.894761e-02	
383	6.760830e+06	1.946405e+00,	8.077668e-02	
384	6.918310e+06	1.946622e+00,	8.264765e-02	
385	7.079458e+06	1.946849e+00,	8.456145e-02	
386	7.244360e+06	1.947086e+00,	8.651902e-02	
387	7.413102e+06	1.947335e+00,	8.852132e-02	
388	7.585776e+06	1.947595e+00,	9.056934e-02	
389	7.762471e+06	1.947868e+00,	9.266407e-02	
390	7.943282e+06	1.948153e+00,	9.480653e-02	
391	8.128305e+06	1.948452e+00,	9.699775e-02	
392	8.317638e+06	1.948764e+00,	9.923880e-02	
393	8.511380e+06	1.949092e+00,	1.015307e-01	
394	8.709636e+06	1.949434e+00,	1.038747e-01	
395	8.912509e+06	1.949793e+00,	1.062717e-01	
396	9.120108e+06	1.950168e+00,	1.087230e-01	
397	9.332543e+06	1.950561e+00,	1.112296e-01	
398	9.549926e+06	1.950973e+00,	1.137928e-01	
399	9.772372e+06	1.951403e+00,	1.164137e-01	
400	1.000000e+07	1.951854e+00,	1.190936e-01	
401	1.023293e+07	1.952325e+00,	1.218336e-01	
402	1.047129e+07	1.952819e+00,	1.246350e-01	

Index   frequency       vop                             
--------------------------------------------------------------------------------
403	1.071519e+07	1.953336e+00,	1.274991e-01	
404	1.096478e+07	1.953877e+00,	1.304271e-01	
405	1.122018e+07	1.954443e+00,	1.334204e-01	
406	1.148154e+07	1.955035e+00,	1.364802e-01	
407	1.174898e+07	1.955655e+00,	1.396078e-01	
408	1.202264e+07	1.956304e+00,	1.428047e-01	
409	1.230269e+07	1.956982e+00,	1.460721e-01	
410	1.258925e+07	1.957693e+00,	1.494115e-01	
411	1.288250e+07	1.958436e+00,	1.528242e-01	
412	1.318257e+07	1.959214e+00,	1.563115e-01	
413	1.348963e+07	1.960028e+00,	1.598750e-01	
414	1.380384e+07	1.960880e+00,	1.635160e-01	
415	1.412538e+07	1.961771e+00,	1.672359e-01	
416	1.445440e+07	1.962703e+00,	1.710362e-01	
