** sch_path: /home/andylithia/openmpw/project-reisen-chip1/xschem/ota_wideband.sch
AC Analysis  Sun Oct 30 17:11:03  2022
--------------------------------------------------------------------------------
Index   frequency       vop                             
--------------------------------------------------------------------------------
0	1.000000e+03	2.186582e+00,	8.586588e-06	
1	1.023293e+03	2.186582e+00,	8.786595e-06	
2	1.047129e+03	2.186582e+00,	8.991262e-06	
3	1.071519e+03	2.186582e+00,	9.200695e-06	
4	1.096478e+03	2.186582e+00,	9.415007e-06	
5	1.122018e+03	2.186582e+00,	9.634310e-06	
6	1.148154e+03	2.186582e+00,	9.858722e-06	
7	1.174898e+03	2.186582e+00,	1.008836e-05	
8	1.202264e+03	2.186582e+00,	1.032335e-05	
9	1.230269e+03	2.186582e+00,	1.056381e-05	
10	1.258925e+03	2.186582e+00,	1.080987e-05	
11	1.288250e+03	2.186582e+00,	1.106167e-05	
12	1.318257e+03	2.186582e+00,	1.131933e-05	
13	1.348963e+03	2.186582e+00,	1.158299e-05	
14	1.380384e+03	2.186582e+00,	1.185279e-05	
15	1.412538e+03	2.186582e+00,	1.212888e-05	
16	1.445440e+03	2.186582e+00,	1.241140e-05	
17	1.479108e+03	2.186582e+00,	1.270049e-05	
18	1.513561e+03	2.186582e+00,	1.299633e-05	
19	1.548817e+03	2.186582e+00,	1.329905e-05	
20	1.584893e+03	2.186582e+00,	1.360883e-05	
21	1.621810e+03	2.186582e+00,	1.392582e-05	
22	1.659587e+03	2.186582e+00,	1.425019e-05	
23	1.698244e+03	2.186582e+00,	1.458212e-05	
24	1.737801e+03	2.186582e+00,	1.492178e-05	
25	1.778279e+03	2.186582e+00,	1.526935e-05	
26	1.819701e+03	2.186582e+00,	1.562502e-05	
27	1.862087e+03	2.186582e+00,	1.598898e-05	
28	1.905461e+03	2.186582e+00,	1.636141e-05	
29	1.949845e+03	2.186582e+00,	1.674251e-05	
30	1.995262e+03	2.186582e+00,	1.713250e-05	
31	2.041738e+03	2.186582e+00,	1.753156e-05	
32	2.089296e+03	2.186582e+00,	1.793993e-05	
33	2.137962e+03	2.186582e+00,	1.835780e-05	
34	2.187762e+03	2.186582e+00,	1.878541e-05	
35	2.238721e+03	2.186582e+00,	1.922298e-05	
36	2.290868e+03	2.186582e+00,	1.967074e-05	
37	2.344229e+03	2.186582e+00,	2.012893e-05	
38	2.398833e+03	2.186582e+00,	2.059779e-05	
39	2.454709e+03	2.186582e+00,	2.107757e-05	
40	2.511886e+03	2.186582e+00,	2.156853e-05	
41	2.570396e+03	2.186582e+00,	2.207093e-05	
42	2.630268e+03	2.186582e+00,	2.258503e-05	
43	2.691535e+03	2.186582e+00,	2.311110e-05	
44	2.754229e+03	2.186582e+00,	2.364943e-05	
45	2.818383e+03	2.186582e+00,	2.420029e-05	
46	2.884032e+03	2.186582e+00,	2.476399e-05	
47	2.951209e+03	2.186582e+00,	2.534082e-05	
48	3.019952e+03	2.186582e+00,	2.593108e-05	
49	3.090295e+03	2.186582e+00,	2.653509e-05	
50	3.162278e+03	2.186582e+00,	2.715318e-05	
51	3.235937e+03	2.186582e+00,	2.778565e-05	
52	3.311311e+03	2.186582e+00,	2.843287e-05	
53	3.388442e+03	2.186582e+00,	2.909515e-05	
54	3.467369e+03	2.186582e+00,	2.977287e-05	

Index   frequency       vop                             
--------------------------------------------------------------------------------
55	3.548134e+03	2.186582e+00,	3.046636e-05	
56	3.630781e+03	2.186582e+00,	3.117602e-05	
57	3.715352e+03	2.186582e+00,	3.190220e-05	
58	3.801894e+03	2.186582e+00,	3.264530e-05	
59	3.890451e+03	2.186582e+00,	3.340570e-05	
60	3.981072e+03	2.186582e+00,	3.418382e-05	
61	4.073803e+03	2.186582e+00,	3.498007e-05	
62	4.168694e+03	2.186582e+00,	3.579486e-05	
63	4.265795e+03	2.186582e+00,	3.662863e-05	
64	4.365158e+03	2.186582e+00,	3.748182e-05	
65	4.466836e+03	2.186582e+00,	3.835488e-05	
66	4.570882e+03	2.186582e+00,	3.924828e-05	
67	4.677351e+03	2.186582e+00,	4.016249e-05	
68	4.786301e+03	2.186582e+00,	4.109799e-05	
69	4.897788e+03	2.186582e+00,	4.205529e-05	
70	5.011872e+03	2.186582e+00,	4.303488e-05	
71	5.128614e+03	2.186582e+00,	4.403729e-05	
72	5.248075e+03	2.186582e+00,	4.506305e-05	
73	5.370318e+03	2.186582e+00,	4.611271e-05	
74	5.495409e+03	2.186582e+00,	4.718681e-05	
75	5.623413e+03	2.186582e+00,	4.828593e-05	
76	5.754399e+03	2.186582e+00,	4.941066e-05	
77	5.888437e+03	2.186582e+00,	5.056158e-05	
78	6.025596e+03	2.186582e+00,	5.173931e-05	
79	6.165950e+03	2.186582e+00,	5.294447e-05	
80	6.309573e+03	2.186582e+00,	5.417771e-05	
81	6.456542e+03	2.186582e+00,	5.543967e-05	
82	6.606934e+03	2.186582e+00,	5.673102e-05	
83	6.760830e+03	2.186582e+00,	5.805246e-05	
84	6.918310e+03	2.186582e+00,	5.940468e-05	
85	7.079458e+03	2.186582e+00,	6.078839e-05	
86	7.244360e+03	2.186582e+00,	6.220433e-05	
87	7.413102e+03	2.186582e+00,	6.365326e-05	
88	7.585776e+03	2.186582e+00,	6.513593e-05	
89	7.762471e+03	2.186582e+00,	6.665314e-05	
90	7.943282e+03	2.186582e+00,	6.820569e-05	
91	8.128305e+03	2.186582e+00,	6.979441e-05	
92	8.317638e+03	2.186582e+00,	7.142013e-05	
93	8.511380e+03	2.186582e+00,	7.308372e-05	
94	8.709636e+03	2.186582e+00,	7.478606e-05	
95	8.912509e+03	2.186582e+00,	7.652805e-05	
96	9.120108e+03	2.186582e+00,	7.831061e-05	
97	9.332543e+03	2.186582e+00,	8.013470e-05	
98	9.549926e+03	2.186582e+00,	8.200128e-05	
99	9.772372e+03	2.186582e+00,	8.391133e-05	
100	1.000000e+04	2.186582e+00,	8.586588e-05	
101	1.023293e+04	2.186582e+00,	8.786595e-05	
102	1.047129e+04	2.186582e+00,	8.991261e-05	
103	1.071519e+04	2.186582e+00,	9.200695e-05	
104	1.096478e+04	2.186582e+00,	9.415007e-05	
105	1.122018e+04	2.186582e+00,	9.634310e-05	
106	1.148154e+04	2.186582e+00,	9.858722e-05	
107	1.174898e+04	2.186582e+00,	1.008836e-04	
108	1.202264e+04	2.186582e+00,	1.032335e-04	
109	1.230269e+04	2.186582e+00,	1.056381e-04	
110	1.258925e+04	2.186582e+00,	1.080987e-04	
111	1.288250e+04	2.186582e+00,	1.106167e-04	
112	1.318257e+04	2.186582e+00,	1.131933e-04	

Index   frequency       vop                             
--------------------------------------------------------------------------------
113	1.348963e+04	2.186582e+00,	1.158299e-04	
114	1.380384e+04	2.186582e+00,	1.185279e-04	
115	1.412538e+04	2.186582e+00,	1.212888e-04	
116	1.445440e+04	2.186582e+00,	1.241140e-04	
117	1.479108e+04	2.186582e+00,	1.270049e-04	
118	1.513561e+04	2.186582e+00,	1.299633e-04	
119	1.548817e+04	2.186582e+00,	1.329905e-04	
120	1.584893e+04	2.186582e+00,	1.360882e-04	
121	1.621810e+04	2.186582e+00,	1.392582e-04	
122	1.659587e+04	2.186582e+00,	1.425019e-04	
123	1.698244e+04	2.186582e+00,	1.458212e-04	
124	1.737801e+04	2.186582e+00,	1.492178e-04	
125	1.778279e+04	2.186582e+00,	1.526935e-04	
126	1.819701e+04	2.186582e+00,	1.562502e-04	
127	1.862087e+04	2.186582e+00,	1.598898e-04	
128	1.905461e+04	2.186582e+00,	1.636141e-04	
129	1.949845e+04	2.186582e+00,	1.674251e-04	
130	1.995262e+04	2.186582e+00,	1.713250e-04	
131	2.041738e+04	2.186582e+00,	1.753156e-04	
132	2.089296e+04	2.186582e+00,	1.793992e-04	
133	2.137962e+04	2.186582e+00,	1.835780e-04	
134	2.187762e+04	2.186582e+00,	1.878541e-04	
135	2.238721e+04	2.186582e+00,	1.922298e-04	
136	2.290868e+04	2.186582e+00,	1.967074e-04	
137	2.344229e+04	2.186582e+00,	2.012893e-04	
138	2.398833e+04	2.186582e+00,	2.059779e-04	
139	2.454709e+04	2.186582e+00,	2.107757e-04	
140	2.511886e+04	2.186582e+00,	2.156853e-04	
141	2.570396e+04	2.186582e+00,	2.207093e-04	
142	2.630268e+04	2.186582e+00,	2.258503e-04	
143	2.691535e+04	2.186582e+00,	2.311110e-04	
144	2.754229e+04	2.186582e+00,	2.364943e-04	
145	2.818383e+04	2.186582e+00,	2.420029e-04	
146	2.884032e+04	2.186582e+00,	2.476399e-04	
147	2.951209e+04	2.186582e+00,	2.534082e-04	
148	3.019952e+04	2.186582e+00,	2.593108e-04	
149	3.090295e+04	2.186582e+00,	2.653509e-04	
150	3.162278e+04	2.186582e+00,	2.715317e-04	
151	3.235937e+04	2.186582e+00,	2.778565e-04	
152	3.311311e+04	2.186582e+00,	2.843286e-04	
153	3.388442e+04	2.186582e+00,	2.909515e-04	
154	3.467369e+04	2.186582e+00,	2.977286e-04	
155	3.548134e+04	2.186582e+00,	3.046636e-04	
156	3.630781e+04	2.186582e+00,	3.117602e-04	
157	3.715352e+04	2.186582e+00,	3.190220e-04	
158	3.801894e+04	2.186582e+00,	3.264530e-04	
159	3.890451e+04	2.186582e+00,	3.340570e-04	
160	3.981072e+04	2.186582e+00,	3.418382e-04	
161	4.073803e+04	2.186582e+00,	3.498006e-04	
162	4.168694e+04	2.186582e+00,	3.579485e-04	
163	4.265795e+04	2.186582e+00,	3.662862e-04	
164	4.365158e+04	2.186582e+00,	3.748181e-04	
165	4.466836e+04	2.186582e+00,	3.835488e-04	
166	4.570882e+04	2.186582e+00,	3.924828e-04	
167	4.677351e+04	2.186582e+00,	4.016249e-04	
168	4.786301e+04	2.186582e+00,	4.109799e-04	
169	4.897788e+04	2.186582e+00,	4.205529e-04	
170	5.011872e+04	2.186582e+00,	4.303488e-04	

Index   frequency       vop                             
--------------------------------------------------------------------------------
171	5.128614e+04	2.186582e+00,	4.403729e-04	
172	5.248075e+04	2.186582e+00,	4.506305e-04	
173	5.370318e+04	2.186582e+00,	4.611270e-04	
174	5.495409e+04	2.186582e+00,	4.718680e-04	
175	5.623413e+04	2.186582e+00,	4.828593e-04	
176	5.754399e+04	2.186582e+00,	4.941065e-04	
177	5.888437e+04	2.186582e+00,	5.056157e-04	
178	6.025596e+04	2.186582e+00,	5.173930e-04	
179	6.165950e+04	2.186582e+00,	5.294446e-04	
180	6.309573e+04	2.186582e+00,	5.417770e-04	
181	6.456542e+04	2.186582e+00,	5.543966e-04	
182	6.606934e+04	2.186582e+00,	5.673101e-04	
183	6.760830e+04	2.186582e+00,	5.805245e-04	
184	6.918310e+04	2.186582e+00,	5.940466e-04	
185	7.079458e+04	2.186582e+00,	6.078837e-04	
186	7.244360e+04	2.186582e+00,	6.220432e-04	
187	7.413102e+04	2.186583e+00,	6.365324e-04	
188	7.585776e+04	2.186583e+00,	6.513591e-04	
189	7.762471e+04	2.186583e+00,	6.665312e-04	
190	7.943282e+04	2.186583e+00,	6.820567e-04	
191	8.128305e+04	2.186583e+00,	6.979439e-04	
192	8.317638e+04	2.186583e+00,	7.142011e-04	
193	8.511380e+04	2.186583e+00,	7.308369e-04	
194	8.709636e+04	2.186583e+00,	7.478603e-04	
195	8.912509e+04	2.186583e+00,	7.652802e-04	
196	9.120108e+04	2.186583e+00,	7.831058e-04	
197	9.332543e+04	2.186583e+00,	8.013467e-04	
198	9.549926e+04	2.186583e+00,	8.200124e-04	
199	9.772372e+04	2.186583e+00,	8.391130e-04	
200	1.000000e+05	2.186583e+00,	8.586584e-04	
201	1.023293e+05	2.186583e+00,	8.786591e-04	
202	1.047129e+05	2.186583e+00,	8.991257e-04	
203	1.071519e+05	2.186583e+00,	9.200690e-04	
204	1.096478e+05	2.186583e+00,	9.415001e-04	
205	1.122018e+05	2.186583e+00,	9.634305e-04	
206	1.148154e+05	2.186583e+00,	9.858716e-04	
207	1.174898e+05	2.186583e+00,	1.008835e-03	
208	1.202264e+05	2.186583e+00,	1.032334e-03	
209	1.230269e+05	2.186583e+00,	1.056380e-03	
210	1.258925e+05	2.186583e+00,	1.080987e-03	
211	1.288250e+05	2.186583e+00,	1.106166e-03	
212	1.318257e+05	2.186583e+00,	1.131932e-03	
213	1.348963e+05	2.186583e+00,	1.158298e-03	
214	1.380384e+05	2.186583e+00,	1.185278e-03	
215	1.412538e+05	2.186583e+00,	1.212887e-03	
216	1.445440e+05	2.186584e+00,	1.241138e-03	
217	1.479108e+05	2.186584e+00,	1.270048e-03	
218	1.513561e+05	2.186584e+00,	1.299631e-03	
219	1.548817e+05	2.186584e+00,	1.329904e-03	
220	1.584893e+05	2.186584e+00,	1.360881e-03	
221	1.621810e+05	2.186584e+00,	1.392580e-03	
222	1.659587e+05	2.186584e+00,	1.425017e-03	
223	1.698244e+05	2.186584e+00,	1.458210e-03	
224	1.737801e+05	2.186584e+00,	1.492176e-03	
225	1.778279e+05	2.186584e+00,	1.526933e-03	
226	1.819701e+05	2.186584e+00,	1.562500e-03	
227	1.862087e+05	2.186584e+00,	1.598895e-03	
228	1.905461e+05	2.186585e+00,	1.636138e-03	

Index   frequency       vop                             
--------------------------------------------------------------------------------
229	1.949845e+05	2.186585e+00,	1.674248e-03	
230	1.995262e+05	2.186585e+00,	1.713246e-03	
231	2.041738e+05	2.186585e+00,	1.753153e-03	
232	2.089296e+05	2.186585e+00,	1.793989e-03	
233	2.137962e+05	2.186585e+00,	1.835776e-03	
234	2.187762e+05	2.186585e+00,	1.878537e-03	
235	2.238721e+05	2.186585e+00,	1.922293e-03	
236	2.290868e+05	2.186586e+00,	1.967069e-03	
237	2.344229e+05	2.186586e+00,	2.012888e-03	
238	2.398833e+05	2.186586e+00,	2.059773e-03	
239	2.454709e+05	2.186586e+00,	2.107751e-03	
240	2.511886e+05	2.186586e+00,	2.156847e-03	
241	2.570396e+05	2.186587e+00,	2.207086e-03	
242	2.630268e+05	2.186587e+00,	2.258495e-03	
243	2.691535e+05	2.186587e+00,	2.311102e-03	
244	2.754229e+05	2.186587e+00,	2.364934e-03	
245	2.818383e+05	2.186587e+00,	2.420020e-03	
246	2.884032e+05	2.186588e+00,	2.476389e-03	
247	2.951209e+05	2.186588e+00,	2.534071e-03	
248	3.019952e+05	2.186588e+00,	2.593097e-03	
249	3.090295e+05	2.186588e+00,	2.653498e-03	
250	3.162278e+05	2.186589e+00,	2.715305e-03	
251	3.235937e+05	2.186589e+00,	2.778552e-03	
252	3.311311e+05	2.186589e+00,	2.843272e-03	
253	3.388442e+05	2.186590e+00,	2.909500e-03	
254	3.467369e+05	2.186590e+00,	2.977270e-03	
255	3.548134e+05	2.186591e+00,	3.046618e-03	
256	3.630781e+05	2.186591e+00,	3.117582e-03	
257	3.715352e+05	2.186591e+00,	3.190199e-03	
258	3.801894e+05	2.186592e+00,	3.264508e-03	
259	3.890451e+05	2.186592e+00,	3.340547e-03	
260	3.981072e+05	2.186593e+00,	3.418357e-03	
261	4.073803e+05	2.186593e+00,	3.497979e-03	
262	4.168694e+05	2.186594e+00,	3.579457e-03	
263	4.265795e+05	2.186594e+00,	3.662831e-03	
264	4.365158e+05	2.186595e+00,	3.748148e-03	
265	4.466836e+05	2.186595e+00,	3.835452e-03	
266	4.570882e+05	2.186596e+00,	3.924790e-03	
267	4.677351e+05	2.186597e+00,	4.016208e-03	
268	4.786301e+05	2.186597e+00,	4.109755e-03	
269	4.897788e+05	2.186598e+00,	4.205482e-03	
270	5.011872e+05	2.186599e+00,	4.303438e-03	
271	5.128614e+05	2.186600e+00,	4.403675e-03	
272	5.248075e+05	2.186600e+00,	4.506247e-03	
273	5.370318e+05	2.186601e+00,	4.611209e-03	
274	5.495409e+05	2.186602e+00,	4.718614e-03	
275	5.623413e+05	2.186603e+00,	4.828522e-03	
276	5.754399e+05	2.186604e+00,	4.940989e-03	
277	5.888437e+05	2.186605e+00,	5.056076e-03	
278	6.025596e+05	2.186606e+00,	5.173843e-03	
279	6.165950e+05	2.186607e+00,	5.294353e-03	
280	6.309573e+05	2.186609e+00,	5.417670e-03	
281	6.456542e+05	2.186610e+00,	5.543859e-03	
282	6.606934e+05	2.186611e+00,	5.672987e-03	
283	6.760830e+05	2.186613e+00,	5.805122e-03	
284	6.918310e+05	2.186614e+00,	5.940335e-03	
285	7.079458e+05	2.186615e+00,	6.078696e-03	
286	7.244360e+05	2.186617e+00,	6.220280e-03	

Index   frequency       vop                             
--------------------------------------------------------------------------------
287	7.413102e+05	2.186619e+00,	6.365162e-03	
288	7.585776e+05	2.186620e+00,	6.513418e-03	
289	7.762471e+05	2.186622e+00,	6.665126e-03	
290	7.943282e+05	2.186624e+00,	6.820368e-03	
291	8.128305e+05	2.186626e+00,	6.979225e-03	
292	8.317638e+05	2.186628e+00,	7.141782e-03	
293	8.511380e+05	2.186630e+00,	7.308124e-03	
294	8.709636e+05	2.186633e+00,	7.478340e-03	
295	8.912509e+05	2.186635e+00,	7.652520e-03	
296	9.120108e+05	2.186637e+00,	7.830757e-03	
297	9.332543e+05	2.186640e+00,	8.013144e-03	
298	9.549926e+05	2.186643e+00,	8.199778e-03	
299	9.772372e+05	2.186646e+00,	8.390759e-03	
300	1.000000e+06	2.186649e+00,	8.586186e-03	
301	1.023293e+06	2.186652e+00,	8.786165e-03	
302	1.047129e+06	2.186655e+00,	8.990800e-03	
303	1.071519e+06	2.186658e+00,	9.200201e-03	
304	1.096478e+06	2.186662e+00,	9.414477e-03	
305	1.122018e+06	2.186666e+00,	9.633743e-03	
306	1.148154e+06	2.186670e+00,	9.858114e-03	
307	1.174898e+06	2.186674e+00,	1.008771e-02	
308	1.202264e+06	2.186678e+00,	1.032265e-02	
309	1.230269e+06	2.186683e+00,	1.056306e-02	
310	1.258925e+06	2.186687e+00,	1.080907e-02	
311	1.288250e+06	2.186692e+00,	1.106081e-02	
312	1.318257e+06	2.186698e+00,	1.131841e-02	
313	1.348963e+06	2.186703e+00,	1.158200e-02	
314	1.380384e+06	2.186709e+00,	1.185173e-02	
315	1.412538e+06	2.186715e+00,	1.212775e-02	
316	1.445440e+06	2.186721e+00,	1.241018e-02	
317	1.479108e+06	2.186728e+00,	1.269919e-02	
318	1.513561e+06	2.186734e+00,	1.299493e-02	
319	1.548817e+06	2.186742e+00,	1.329756e-02	
320	1.584893e+06	2.186749e+00,	1.360723e-02	
321	1.621810e+06	2.186757e+00,	1.392410e-02	
322	1.659587e+06	2.186765e+00,	1.424835e-02	
323	1.698244e+06	2.186774e+00,	1.458015e-02	
324	1.737801e+06	2.186783e+00,	1.491967e-02	
325	1.778279e+06	2.186792e+00,	1.526709e-02	
326	1.819701e+06	2.186802e+00,	1.562260e-02	
327	1.862087e+06	2.186813e+00,	1.598638e-02	
328	1.905461e+06	2.186823e+00,	1.635863e-02	
329	1.949845e+06	2.186835e+00,	1.673953e-02	
330	1.995262e+06	2.186847e+00,	1.712931e-02	
331	2.041738e+06	2.186859e+00,	1.752814e-02	
332	2.089296e+06	2.186872e+00,	1.793626e-02	
333	2.137962e+06	2.186886e+00,	1.835387e-02	
334	2.187762e+06	2.186900e+00,	1.878120e-02	
335	2.238721e+06	2.186915e+00,	1.921847e-02	
336	2.290868e+06	2.186931e+00,	1.966591e-02	
337	2.344229e+06	2.186947e+00,	2.012375e-02	
338	2.398833e+06	2.186964e+00,	2.059225e-02	
339	2.454709e+06	2.186982e+00,	2.107163e-02	
340	2.511886e+06	2.187001e+00,	2.156217e-02	
341	2.570396e+06	2.187021e+00,	2.206411e-02	
342	2.630268e+06	2.187042e+00,	2.257772e-02	
343	2.691535e+06	2.187063e+00,	2.310327e-02	
344	2.754229e+06	2.187086e+00,	2.364104e-02	

Index   frequency       vop                             
--------------------------------------------------------------------------------
345	2.818383e+06	2.187110e+00,	2.419130e-02	
346	2.884032e+06	2.187135e+00,	2.475436e-02	
347	2.951209e+06	2.187161e+00,	2.533049e-02	
348	3.019952e+06	2.187188e+00,	2.592002e-02	
349	3.090295e+06	2.187217e+00,	2.652324e-02	
350	3.162278e+06	2.187246e+00,	2.714048e-02	
351	3.235937e+06	2.187278e+00,	2.777205e-02	
352	3.311311e+06	2.187311e+00,	2.841828e-02	
353	3.388442e+06	2.187345e+00,	2.907953e-02	
354	3.467369e+06	2.187381e+00,	2.975612e-02	
355	3.548134e+06	2.187418e+00,	3.044843e-02	
356	3.630781e+06	2.187458e+00,	3.115680e-02	
357	3.715352e+06	2.187499e+00,	3.188160e-02	
358	3.801894e+06	2.187542e+00,	3.262323e-02	
359	3.890451e+06	2.187587e+00,	3.338206e-02	
360	3.981072e+06	2.187635e+00,	3.415849e-02	
361	4.073803e+06	2.187684e+00,	3.495292e-02	
362	4.168694e+06	2.187736e+00,	3.576577e-02	
363	4.265795e+06	2.187791e+00,	3.659746e-02	
364	4.365158e+06	2.187848e+00,	3.744842e-02	
365	4.466836e+06	2.187907e+00,	3.831909e-02	
366	4.570882e+06	2.187970e+00,	3.920993e-02	
367	4.677351e+06	2.188035e+00,	4.012140e-02	
368	4.786301e+06	2.188103e+00,	4.105397e-02	
369	4.897788e+06	2.188175e+00,	4.200812e-02	
370	5.011872e+06	2.188250e+00,	4.298434e-02	
371	5.128614e+06	2.188329e+00,	4.398313e-02	
372	5.248075e+06	2.188411e+00,	4.500502e-02	
373	5.370318e+06	2.188497e+00,	4.605053e-02	
374	5.495409e+06	2.188587e+00,	4.712019e-02	
375	5.623413e+06	2.188681e+00,	4.821454e-02	
376	5.754399e+06	2.188780e+00,	4.933416e-02	
377	5.888437e+06	2.188884e+00,	5.047962e-02	
378	6.025596e+06	2.188992e+00,	5.165149e-02	
379	6.165950e+06	2.189105e+00,	5.285038e-02	
380	6.309573e+06	2.189224e+00,	5.407689e-02	
381	6.456542e+06	2.189349e+00,	5.533164e-02	
382	6.606934e+06	2.189479e+00,	5.661527e-02	
383	6.760830e+06	2.189615e+00,	5.792844e-02	
384	6.918310e+06	2.189758e+00,	5.927179e-02	
385	7.079458e+06	2.189907e+00,	6.064600e-02	
386	7.244360e+06	2.190064e+00,	6.205177e-02	
387	7.413102e+06	2.190227e+00,	6.348979e-02	
388	7.585776e+06	2.190399e+00,	6.496078e-02	
389	7.762471e+06	2.190578e+00,	6.646548e-02	
390	7.943282e+06	2.190766e+00,	6.800462e-02	
391	8.128305e+06	2.190963e+00,	6.957896e-02	
392	8.317638e+06	2.191169e+00,	7.118929e-02	
393	8.511380e+06	2.191385e+00,	7.283639e-02	
394	8.709636e+06	2.191611e+00,	7.452105e-02	
395	8.912509e+06	2.191847e+00,	7.624411e-02	
396	9.120108e+06	2.192094e+00,	7.800640e-02	
397	9.332543e+06	2.192354e+00,	7.980875e-02	
398	9.549926e+06	2.192625e+00,	8.165205e-02	
399	9.772372e+06	2.192909e+00,	8.353716e-02	
400	1.000000e+07	2.193206e+00,	8.546498e-02	
401	1.023293e+07	2.193517e+00,	8.743642e-02	
402	1.047129e+07	2.193843e+00,	8.945241e-02	

Index   frequency       vop                             
--------------------------------------------------------------------------------
403	1.071519e+07	2.194183e+00,	9.151388e-02	
404	1.096478e+07	2.194540e+00,	9.362179e-02	
405	1.122018e+07	2.194914e+00,	9.577711e-02	
406	1.148154e+07	2.195305e+00,	9.798082e-02	
407	1.174898e+07	2.195714e+00,	1.002339e-01	
408	1.202264e+07	2.196142e+00,	1.025374e-01	
409	1.230269e+07	2.196591e+00,	1.048924e-01	
410	1.258925e+07	2.197060e+00,	1.072998e-01	
411	1.288250e+07	2.197551e+00,	1.097607e-01	
412	1.318257e+07	2.198065e+00,	1.122762e-01	
413	1.348963e+07	2.198603e+00,	1.148474e-01	
414	1.380384e+07	2.199166e+00,	1.174754e-01	
415	1.412538e+07	2.199755e+00,	1.201612e-01	
416	1.445440e+07	2.200372e+00,	1.229060e-01	
