** sch_path: /home/andylithia/openmpw/project-reisen-chip1/xschem/ota_wideband.sch
AC Analysis  Sun Oct 30 17:11:03  2022
--------------------------------------------------------------------------------
Index   frequency       vop                             
--------------------------------------------------------------------------------
0	1.000000e+03	1.886860e+00,	1.280239e-05	
1	1.023293e+03	1.886860e+00,	1.310060e-05	
2	1.047129e+03	1.886860e+00,	1.340575e-05	
3	1.071519e+03	1.886860e+00,	1.371801e-05	
4	1.096478e+03	1.886860e+00,	1.403754e-05	
5	1.122018e+03	1.886860e+00,	1.436452e-05	
6	1.148154e+03	1.886860e+00,	1.469911e-05	
7	1.174898e+03	1.886860e+00,	1.504150e-05	
8	1.202264e+03	1.886860e+00,	1.539186e-05	
9	1.230269e+03	1.886860e+00,	1.575038e-05	
10	1.258925e+03	1.886860e+00,	1.611725e-05	
11	1.288250e+03	1.886860e+00,	1.649267e-05	
12	1.318257e+03	1.886860e+00,	1.687684e-05	
13	1.348963e+03	1.886860e+00,	1.726995e-05	
14	1.380384e+03	1.886860e+00,	1.767222e-05	
15	1.412538e+03	1.886860e+00,	1.808386e-05	
16	1.445440e+03	1.886860e+00,	1.850508e-05	
17	1.479108e+03	1.886860e+00,	1.893612e-05	
18	1.513561e+03	1.886860e+00,	1.937720e-05	
19	1.548817e+03	1.886860e+00,	1.982855e-05	
20	1.584893e+03	1.886860e+00,	2.029042e-05	
21	1.621810e+03	1.886860e+00,	2.076304e-05	
22	1.659587e+03	1.886860e+00,	2.124668e-05	
23	1.698244e+03	1.886860e+00,	2.174158e-05	
24	1.737801e+03	1.886860e+00,	2.224800e-05	
25	1.778279e+03	1.886860e+00,	2.276623e-05	
26	1.819701e+03	1.886860e+00,	2.329652e-05	
27	1.862087e+03	1.886860e+00,	2.383916e-05	
28	1.905461e+03	1.886860e+00,	2.439445e-05	
29	1.949845e+03	1.886860e+00,	2.496267e-05	
30	1.995262e+03	1.886860e+00,	2.554413e-05	
31	2.041738e+03	1.886860e+00,	2.613912e-05	
32	2.089296e+03	1.886860e+00,	2.674798e-05	
33	2.137962e+03	1.886860e+00,	2.737102e-05	
34	2.187762e+03	1.886860e+00,	2.800858e-05	
35	2.238721e+03	1.886860e+00,	2.866098e-05	
36	2.290868e+03	1.886860e+00,	2.932858e-05	
37	2.344229e+03	1.886860e+00,	3.001173e-05	
38	2.398833e+03	1.886860e+00,	3.071079e-05	
39	2.454709e+03	1.886860e+00,	3.142614e-05	
40	2.511886e+03	1.886860e+00,	3.215815e-05	
41	2.570396e+03	1.886860e+00,	3.290721e-05	
42	2.630268e+03	1.886860e+00,	3.367372e-05	
43	2.691535e+03	1.886860e+00,	3.445808e-05	
44	2.754229e+03	1.886860e+00,	3.526071e-05	
45	2.818383e+03	1.886860e+00,	3.608204e-05	
46	2.884032e+03	1.886860e+00,	3.692249e-05	
47	2.951209e+03	1.886860e+00,	3.778253e-05	
48	3.019952e+03	1.886860e+00,	3.866260e-05	
49	3.090295e+03	1.886860e+00,	3.956317e-05	
50	3.162278e+03	1.886860e+00,	4.048471e-05	
51	3.235937e+03	1.886860e+00,	4.142772e-05	
52	3.311311e+03	1.886860e+00,	4.239270e-05	
53	3.388442e+03	1.886860e+00,	4.338015e-05	
54	3.467369e+03	1.886860e+00,	4.439060e-05	

Index   frequency       vop                             
--------------------------------------------------------------------------------
55	3.548134e+03	1.886860e+00,	4.542459e-05	
56	3.630781e+03	1.886860e+00,	4.648267e-05	
57	3.715352e+03	1.886860e+00,	4.756539e-05	
58	3.801894e+03	1.886860e+00,	4.867333e-05	
59	3.890451e+03	1.886860e+00,	4.980707e-05	
60	3.981072e+03	1.886860e+00,	5.096723e-05	
61	4.073803e+03	1.886860e+00,	5.215441e-05	
62	4.168694e+03	1.886860e+00,	5.336924e-05	
63	4.265795e+03	1.886860e+00,	5.461237e-05	
64	4.365158e+03	1.886860e+00,	5.588446e-05	
65	4.466836e+03	1.886860e+00,	5.718617e-05	
66	4.570882e+03	1.886860e+00,	5.851821e-05	
67	4.677351e+03	1.886860e+00,	5.988127e-05	
68	4.786301e+03	1.886860e+00,	6.127609e-05	
69	4.897788e+03	1.886860e+00,	6.270339e-05	
70	5.011872e+03	1.886860e+00,	6.416394e-05	
71	5.128614e+03	1.886860e+00,	6.565851e-05	
72	5.248075e+03	1.886860e+00,	6.718789e-05	
73	5.370318e+03	1.886860e+00,	6.875290e-05	
74	5.495409e+03	1.886860e+00,	7.035436e-05	
75	5.623413e+03	1.886860e+00,	7.199313e-05	
76	5.754399e+03	1.886860e+00,	7.367006e-05	
77	5.888437e+03	1.886860e+00,	7.538606e-05	
78	6.025596e+03	1.886860e+00,	7.714202e-05	
79	6.165950e+03	1.886860e+00,	7.893889e-05	
80	6.309573e+03	1.886860e+00,	8.077762e-05	
81	6.456542e+03	1.886860e+00,	8.265917e-05	
82	6.606934e+03	1.886860e+00,	8.458455e-05	
83	6.760830e+03	1.886860e+00,	8.655478e-05	
84	6.918310e+03	1.886860e+00,	8.857089e-05	
85	7.079458e+03	1.886860e+00,	9.063398e-05	
86	7.244360e+03	1.886860e+00,	9.274511e-05	
87	7.413102e+03	1.886860e+00,	9.490542e-05	
88	7.585776e+03	1.886860e+00,	9.711605e-05	
89	7.762471e+03	1.886860e+00,	9.937818e-05	
90	7.943282e+03	1.886860e+00,	1.016930e-04	
91	8.128305e+03	1.886860e+00,	1.040617e-04	
92	8.317638e+03	1.886860e+00,	1.064856e-04	
93	8.511380e+03	1.886860e+00,	1.089660e-04	
94	8.709636e+03	1.886860e+00,	1.115042e-04	
95	8.912509e+03	1.886860e+00,	1.141014e-04	
96	9.120108e+03	1.886860e+00,	1.167592e-04	
97	9.332543e+03	1.886860e+00,	1.194788e-04	
98	9.549926e+03	1.886860e+00,	1.222619e-04	
99	9.772372e+03	1.886860e+00,	1.251097e-04	
100	1.000000e+04	1.886860e+00,	1.280239e-04	
101	1.023293e+04	1.886860e+00,	1.310060e-04	
102	1.047129e+04	1.886860e+00,	1.340575e-04	
103	1.071519e+04	1.886860e+00,	1.371801e-04	
104	1.096478e+04	1.886860e+00,	1.403754e-04	
105	1.122018e+04	1.886860e+00,	1.436452e-04	
106	1.148154e+04	1.886860e+00,	1.469911e-04	
107	1.174898e+04	1.886860e+00,	1.504150e-04	
108	1.202264e+04	1.886860e+00,	1.539186e-04	
109	1.230269e+04	1.886860e+00,	1.575038e-04	
110	1.258925e+04	1.886860e+00,	1.611725e-04	
111	1.288250e+04	1.886860e+00,	1.649267e-04	
112	1.318257e+04	1.886860e+00,	1.687684e-04	

Index   frequency       vop                             
--------------------------------------------------------------------------------
113	1.348963e+04	1.886860e+00,	1.726995e-04	
114	1.380384e+04	1.886860e+00,	1.767222e-04	
115	1.412538e+04	1.886860e+00,	1.808386e-04	
116	1.445440e+04	1.886860e+00,	1.850508e-04	
117	1.479108e+04	1.886860e+00,	1.893612e-04	
118	1.513561e+04	1.886860e+00,	1.937720e-04	
119	1.548817e+04	1.886860e+00,	1.982855e-04	
120	1.584893e+04	1.886860e+00,	2.029042e-04	
121	1.621810e+04	1.886860e+00,	2.076304e-04	
122	1.659587e+04	1.886860e+00,	2.124668e-04	
123	1.698244e+04	1.886860e+00,	2.174158e-04	
124	1.737801e+04	1.886860e+00,	2.224800e-04	
125	1.778279e+04	1.886860e+00,	2.276623e-04	
126	1.819701e+04	1.886860e+00,	2.329652e-04	
127	1.862087e+04	1.886860e+00,	2.383916e-04	
128	1.905461e+04	1.886860e+00,	2.439445e-04	
129	1.949845e+04	1.886860e+00,	2.496267e-04	
130	1.995262e+04	1.886860e+00,	2.554412e-04	
131	2.041738e+04	1.886860e+00,	2.613912e-04	
132	2.089296e+04	1.886860e+00,	2.674798e-04	
133	2.137962e+04	1.886860e+00,	2.737102e-04	
134	2.187762e+04	1.886860e+00,	2.800858e-04	
135	2.238721e+04	1.886860e+00,	2.866098e-04	
136	2.290868e+04	1.886860e+00,	2.932858e-04	
137	2.344229e+04	1.886860e+00,	3.001173e-04	
138	2.398833e+04	1.886860e+00,	3.071079e-04	
139	2.454709e+04	1.886860e+00,	3.142614e-04	
140	2.511886e+04	1.886860e+00,	3.215815e-04	
141	2.570396e+04	1.886860e+00,	3.290721e-04	
142	2.630268e+04	1.886860e+00,	3.367371e-04	
143	2.691535e+04	1.886860e+00,	3.445808e-04	
144	2.754229e+04	1.886860e+00,	3.526071e-04	
145	2.818383e+04	1.886860e+00,	3.608203e-04	
146	2.884032e+04	1.886860e+00,	3.692249e-04	
147	2.951209e+04	1.886860e+00,	3.778253e-04	
148	3.019952e+04	1.886860e+00,	3.866260e-04	
149	3.090295e+04	1.886860e+00,	3.956316e-04	
150	3.162278e+04	1.886860e+00,	4.048471e-04	
151	3.235937e+04	1.886860e+00,	4.142772e-04	
152	3.311311e+04	1.886860e+00,	4.239269e-04	
153	3.388442e+04	1.886860e+00,	4.338015e-04	
154	3.467369e+04	1.886860e+00,	4.439060e-04	
155	3.548134e+04	1.886860e+00,	4.542459e-04	
156	3.630781e+04	1.886860e+00,	4.648266e-04	
157	3.715352e+04	1.886860e+00,	4.756538e-04	
158	3.801894e+04	1.886860e+00,	4.867332e-04	
159	3.890451e+04	1.886860e+00,	4.980707e-04	
160	3.981072e+04	1.886860e+00,	5.096723e-04	
161	4.073803e+04	1.886860e+00,	5.215440e-04	
162	4.168694e+04	1.886860e+00,	5.336924e-04	
163	4.265795e+04	1.886860e+00,	5.461237e-04	
164	4.365158e+04	1.886860e+00,	5.588445e-04	
165	4.466836e+04	1.886860e+00,	5.718617e-04	
166	4.570882e+04	1.886860e+00,	5.851820e-04	
167	4.677351e+04	1.886860e+00,	5.988127e-04	
168	4.786301e+04	1.886860e+00,	6.127608e-04	
169	4.897788e+04	1.886860e+00,	6.270338e-04	
170	5.011872e+04	1.886860e+00,	6.416393e-04	

Index   frequency       vop                             
--------------------------------------------------------------------------------
171	5.128614e+04	1.886860e+00,	6.565850e-04	
172	5.248075e+04	1.886860e+00,	6.718788e-04	
173	5.370318e+04	1.886860e+00,	6.875289e-04	
174	5.495409e+04	1.886860e+00,	7.035435e-04	
175	5.623413e+04	1.886860e+00,	7.199311e-04	
176	5.754399e+04	1.886860e+00,	7.367005e-04	
177	5.888437e+04	1.886860e+00,	7.538604e-04	
178	6.025596e+04	1.886860e+00,	7.714201e-04	
179	6.165950e+04	1.886860e+00,	7.893887e-04	
180	6.309573e+04	1.886860e+00,	8.077760e-04	
181	6.456542e+04	1.886860e+00,	8.265915e-04	
182	6.606934e+04	1.886860e+00,	8.458453e-04	
183	6.760830e+04	1.886860e+00,	8.655475e-04	
184	6.918310e+04	1.886860e+00,	8.857087e-04	
185	7.079458e+04	1.886860e+00,	9.063395e-04	
186	7.244360e+04	1.886860e+00,	9.274508e-04	
187	7.413102e+04	1.886860e+00,	9.490539e-04	
188	7.585776e+04	1.886860e+00,	9.711602e-04	
189	7.762471e+04	1.886860e+00,	9.937814e-04	
190	7.943282e+04	1.886860e+00,	1.016930e-03	
191	8.128305e+04	1.886860e+00,	1.040617e-03	
192	8.317638e+04	1.886860e+00,	1.064856e-03	
193	8.511380e+04	1.886860e+00,	1.089660e-03	
194	8.709636e+04	1.886860e+00,	1.115041e-03	
195	8.912509e+04	1.886861e+00,	1.141014e-03	
196	9.120108e+04	1.886861e+00,	1.167591e-03	
197	9.332543e+04	1.886861e+00,	1.194788e-03	
198	9.549926e+04	1.886861e+00,	1.222618e-03	
199	9.772372e+04	1.886861e+00,	1.251096e-03	
200	1.000000e+05	1.886861e+00,	1.280238e-03	
201	1.023293e+05	1.886861e+00,	1.310059e-03	
202	1.047129e+05	1.886861e+00,	1.340574e-03	
203	1.071519e+05	1.886861e+00,	1.371800e-03	
204	1.096478e+05	1.886861e+00,	1.403753e-03	
205	1.122018e+05	1.886861e+00,	1.436451e-03	
206	1.148154e+05	1.886861e+00,	1.469910e-03	
207	1.174898e+05	1.886861e+00,	1.504148e-03	
208	1.202264e+05	1.886861e+00,	1.539184e-03	
209	1.230269e+05	1.886861e+00,	1.575037e-03	
210	1.258925e+05	1.886861e+00,	1.611724e-03	
211	1.288250e+05	1.886861e+00,	1.649266e-03	
212	1.318257e+05	1.886862e+00,	1.687682e-03	
213	1.348963e+05	1.886862e+00,	1.726993e-03	
214	1.380384e+05	1.886862e+00,	1.767220e-03	
215	1.412538e+05	1.886862e+00,	1.808383e-03	
216	1.445440e+05	1.886862e+00,	1.850506e-03	
217	1.479108e+05	1.886862e+00,	1.893610e-03	
218	1.513561e+05	1.886862e+00,	1.937717e-03	
219	1.548817e+05	1.886862e+00,	1.982852e-03	
220	1.584893e+05	1.886862e+00,	2.029039e-03	
221	1.621810e+05	1.886863e+00,	2.076301e-03	
222	1.659587e+05	1.886863e+00,	2.124664e-03	
223	1.698244e+05	1.886863e+00,	2.174154e-03	
224	1.737801e+05	1.886863e+00,	2.224796e-03	
225	1.778279e+05	1.886863e+00,	2.276618e-03	
226	1.819701e+05	1.886863e+00,	2.329647e-03	
227	1.862087e+05	1.886863e+00,	2.383911e-03	
228	1.905461e+05	1.886864e+00,	2.439439e-03	

Index   frequency       vop                             
--------------------------------------------------------------------------------
229	1.949845e+05	1.886864e+00,	2.496261e-03	
230	1.995262e+05	1.886864e+00,	2.554406e-03	
231	2.041738e+05	1.886864e+00,	2.613906e-03	
232	2.089296e+05	1.886864e+00,	2.674791e-03	
233	2.137962e+05	1.886865e+00,	2.737095e-03	
234	2.187762e+05	1.886865e+00,	2.800849e-03	
235	2.238721e+05	1.886865e+00,	2.866089e-03	
236	2.290868e+05	1.886865e+00,	2.932848e-03	
237	2.344229e+05	1.886866e+00,	3.001163e-03	
238	2.398833e+05	1.886866e+00,	3.071068e-03	
239	2.454709e+05	1.886866e+00,	3.142602e-03	
240	2.511886e+05	1.886867e+00,	3.215802e-03	
241	2.570396e+05	1.886867e+00,	3.290707e-03	
242	2.630268e+05	1.886867e+00,	3.367357e-03	
243	2.691535e+05	1.886868e+00,	3.445792e-03	
244	2.754229e+05	1.886868e+00,	3.526054e-03	
245	2.818383e+05	1.886868e+00,	3.608186e-03	
246	2.884032e+05	1.886869e+00,	3.692230e-03	
247	2.951209e+05	1.886869e+00,	3.778232e-03	
248	3.019952e+05	1.886870e+00,	3.866238e-03	
249	3.090295e+05	1.886870e+00,	3.956293e-03	
250	3.162278e+05	1.886871e+00,	4.048446e-03	
251	3.235937e+05	1.886871e+00,	4.142745e-03	
252	3.311311e+05	1.886872e+00,	4.239241e-03	
253	3.388442e+05	1.886872e+00,	4.337984e-03	
254	3.467369e+05	1.886873e+00,	4.439027e-03	
255	3.548134e+05	1.886873e+00,	4.542424e-03	
256	3.630781e+05	1.886874e+00,	4.648228e-03	
257	3.715352e+05	1.886875e+00,	4.756498e-03	
258	3.801894e+05	1.886876e+00,	4.867289e-03	
259	3.890451e+05	1.886876e+00,	4.980660e-03	
260	3.981072e+05	1.886877e+00,	5.096673e-03	
261	4.073803e+05	1.886878e+00,	5.215387e-03	
262	4.168694e+05	1.886879e+00,	5.336866e-03	
263	4.265795e+05	1.886880e+00,	5.461175e-03	
264	4.365158e+05	1.886881e+00,	5.588379e-03	
265	4.466836e+05	1.886882e+00,	5.718546e-03	
266	4.570882e+05	1.886883e+00,	5.851745e-03	
267	4.677351e+05	1.886884e+00,	5.988046e-03	
268	4.786301e+05	1.886885e+00,	6.127521e-03	
269	4.897788e+05	1.886886e+00,	6.270245e-03	
270	5.011872e+05	1.886887e+00,	6.416294e-03	
271	5.128614e+05	1.886889e+00,	6.565743e-03	
272	5.248075e+05	1.886890e+00,	6.718674e-03	
273	5.370318e+05	1.886891e+00,	6.875166e-03	
274	5.495409e+05	1.886893e+00,	7.035304e-03	
275	5.623413e+05	1.886894e+00,	7.199171e-03	
276	5.754399e+05	1.886896e+00,	7.366854e-03	
277	5.888437e+05	1.886898e+00,	7.538443e-03	
278	6.025596e+05	1.886900e+00,	7.714028e-03	
279	6.165950e+05	1.886901e+00,	7.893702e-03	
280	6.309573e+05	1.886903e+00,	8.077561e-03	
281	6.456542e+05	1.886906e+00,	8.265702e-03	
282	6.606934e+05	1.886908e+00,	8.458224e-03	
283	6.760830e+05	1.886910e+00,	8.655231e-03	
284	6.918310e+05	1.886912e+00,	8.856825e-03	
285	7.079458e+05	1.886915e+00,	9.063114e-03	
286	7.244360e+05	1.886917e+00,	9.274208e-03	

Index   frequency       vop                             
--------------------------------------------------------------------------------
287	7.413102e+05	1.886920e+00,	9.490217e-03	
288	7.585776e+05	1.886923e+00,	9.711257e-03	
289	7.762471e+05	1.886926e+00,	9.937444e-03	
290	7.943282e+05	1.886929e+00,	1.016890e-02	
291	8.128305e+05	1.886932e+00,	1.040574e-02	
292	8.317638e+05	1.886936e+00,	1.064810e-02	
293	8.511380e+05	1.886939e+00,	1.089611e-02	
294	8.709636e+05	1.886943e+00,	1.114989e-02	
295	8.912509e+05	1.886947e+00,	1.140958e-02	
296	9.120108e+05	1.886951e+00,	1.167531e-02	
297	9.332543e+05	1.886956e+00,	1.194724e-02	
298	9.549926e+05	1.886960e+00,	1.222549e-02	
299	9.772372e+05	1.886965e+00,	1.251023e-02	
300	1.000000e+06	1.886970e+00,	1.280159e-02	
301	1.023293e+06	1.886975e+00,	1.309974e-02	
302	1.047129e+06	1.886980e+00,	1.340483e-02	
303	1.071519e+06	1.886986e+00,	1.371702e-02	
304	1.096478e+06	1.886992e+00,	1.403649e-02	
305	1.122018e+06	1.886998e+00,	1.436339e-02	
306	1.148154e+06	1.887005e+00,	1.469790e-02	
307	1.174898e+06	1.887012e+00,	1.504020e-02	
308	1.202264e+06	1.887019e+00,	1.539047e-02	
309	1.230269e+06	1.887026e+00,	1.574889e-02	
310	1.258925e+06	1.887034e+00,	1.611566e-02	
311	1.288250e+06	1.887042e+00,	1.649096e-02	
312	1.318257e+06	1.887051e+00,	1.687501e-02	
313	1.348963e+06	1.887060e+00,	1.726799e-02	
314	1.380384e+06	1.887069e+00,	1.767012e-02	
315	1.412538e+06	1.887079e+00,	1.808160e-02	
316	1.445440e+06	1.887090e+00,	1.850267e-02	
317	1.479108e+06	1.887100e+00,	1.893354e-02	
318	1.513561e+06	1.887112e+00,	1.937443e-02	
319	1.548817e+06	1.887124e+00,	1.982559e-02	
320	1.584893e+06	1.887136e+00,	2.028724e-02	
321	1.621810e+06	1.887149e+00,	2.075964e-02	
322	1.659587e+06	1.887163e+00,	2.124303e-02	
323	1.698244e+06	1.887177e+00,	2.173766e-02	
324	1.737801e+06	1.887192e+00,	2.224381e-02	
325	1.778279e+06	1.887208e+00,	2.276173e-02	
326	1.819701e+06	1.887224e+00,	2.329171e-02	
327	1.862087e+06	1.887241e+00,	2.383401e-02	
328	1.905461e+06	1.887259e+00,	2.438892e-02	
329	1.949845e+06	1.887278e+00,	2.495675e-02	
330	1.995262e+06	1.887298e+00,	2.553778e-02	
331	2.041738e+06	1.887319e+00,	2.613233e-02	
332	2.089296e+06	1.887340e+00,	2.674070e-02	
333	2.137962e+06	1.887363e+00,	2.736322e-02	
334	2.187762e+06	1.887386e+00,	2.800021e-02	
335	2.238721e+06	1.887411e+00,	2.865202e-02	
336	2.290868e+06	1.887437e+00,	2.931898e-02	
337	2.344229e+06	1.887465e+00,	3.000144e-02	
338	2.398833e+06	1.887493e+00,	3.069977e-02	
339	2.454709e+06	1.887523e+00,	3.141433e-02	
340	2.511886e+06	1.887554e+00,	3.214549e-02	
341	2.570396e+06	1.887587e+00,	3.289365e-02	
342	2.630268e+06	1.887621e+00,	3.365918e-02	
343	2.691535e+06	1.887657e+00,	3.444251e-02	
344	2.754229e+06	1.887695e+00,	3.524402e-02	

Index   frequency       vop                             
--------------------------------------------------------------------------------
345	2.818383e+06	1.887734e+00,	3.606416e-02	
346	2.884032e+06	1.887775e+00,	3.690334e-02	
347	2.951209e+06	1.887818e+00,	3.776200e-02	
348	3.019952e+06	1.887863e+00,	3.864061e-02	
349	3.090295e+06	1.887911e+00,	3.953960e-02	
350	3.162278e+06	1.887960e+00,	4.045946e-02	
351	3.235937e+06	1.888012e+00,	4.140067e-02	
352	3.311311e+06	1.888066e+00,	4.236371e-02	
353	3.388442e+06	1.888123e+00,	4.334909e-02	
354	3.467369e+06	1.888183e+00,	4.435732e-02	
355	3.548134e+06	1.888245e+00,	4.538893e-02	
356	3.630781e+06	1.888310e+00,	4.644445e-02	
357	3.715352e+06	1.888378e+00,	4.752444e-02	
358	3.801894e+06	1.888450e+00,	4.862946e-02	
359	3.890451e+06	1.888525e+00,	4.976007e-02	
360	3.981072e+06	1.888603e+00,	5.091686e-02	
361	4.073803e+06	1.888685e+00,	5.210044e-02	
362	4.168694e+06	1.888771e+00,	5.331142e-02	
363	4.265795e+06	1.888861e+00,	5.455041e-02	
364	4.365158e+06	1.888956e+00,	5.581807e-02	
365	4.466836e+06	1.889054e+00,	5.711504e-02	
366	4.570882e+06	1.889158e+00,	5.844199e-02	
367	4.677351e+06	1.889266e+00,	5.979961e-02	
368	4.786301e+06	1.889379e+00,	6.118859e-02	
369	4.897788e+06	1.889498e+00,	6.260964e-02	
370	5.011872e+06	1.889622e+00,	6.406348e-02	
371	5.128614e+06	1.889752e+00,	6.555088e-02	
372	5.248075e+06	1.889888e+00,	6.707257e-02	
373	5.370318e+06	1.890030e+00,	6.862933e-02	
374	5.495409e+06	1.890180e+00,	7.022196e-02	
375	5.623413e+06	1.890336e+00,	7.185127e-02	
376	5.754399e+06	1.890499e+00,	7.351806e-02	
377	5.888437e+06	1.890671e+00,	7.522320e-02	
378	6.025596e+06	1.890850e+00,	7.696753e-02	
379	6.165950e+06	1.891038e+00,	7.875194e-02	
380	6.309573e+06	1.891234e+00,	8.057730e-02	
381	6.456542e+06	1.891440e+00,	8.244455e-02	
382	6.606934e+06	1.891655e+00,	8.435459e-02	
383	6.760830e+06	1.891881e+00,	8.630840e-02	
384	6.918310e+06	1.892117e+00,	8.830692e-02	
385	7.079458e+06	1.892364e+00,	9.035115e-02	
386	7.244360e+06	1.892623e+00,	9.244209e-02	
387	7.413102e+06	1.892894e+00,	9.458076e-02	
388	7.585776e+06	1.893177e+00,	9.676821e-02	
389	7.762471e+06	1.893474e+00,	9.900550e-02	
390	7.943282e+06	1.893785e+00,	1.012937e-01	
391	8.128305e+06	1.894110e+00,	1.036339e-01	
392	8.317638e+06	1.894451e+00,	1.060273e-01	
393	8.511380e+06	1.894807e+00,	1.084750e-01	
394	8.709636e+06	1.895180e+00,	1.109781e-01	
395	8.912509e+06	1.895571e+00,	1.135378e-01	
396	9.120108e+06	1.895980e+00,	1.161553e-01	
397	9.332543e+06	1.896408e+00,	1.188319e-01	
398	9.549926e+06	1.896855e+00,	1.215688e-01	
399	9.772372e+06	1.897324e+00,	1.243672e-01	
400	1.000000e+07	1.897815e+00,	1.272285e-01	
401	1.023293e+07	1.898329e+00,	1.301538e-01	
402	1.047129e+07	1.898866e+00,	1.331446e-01	

Index   frequency       vop                             
--------------------------------------------------------------------------------
403	1.071519e+07	1.899429e+00,	1.362021e-01	
404	1.096478e+07	1.900018e+00,	1.393277e-01	
405	1.122018e+07	1.900634e+00,	1.425228e-01	
406	1.148154e+07	1.901279e+00,	1.457888e-01	
407	1.174898e+07	1.901954e+00,	1.491270e-01	
408	1.202264e+07	1.902660e+00,	1.525389e-01	
409	1.230269e+07	1.903399e+00,	1.560259e-01	
410	1.258925e+07	1.904172e+00,	1.595894e-01	
411	1.288250e+07	1.904982e+00,	1.632309e-01	
412	1.318257e+07	1.905828e+00,	1.669518e-01	
413	1.348963e+07	1.906714e+00,	1.707537e-01	
414	1.380384e+07	1.907641e+00,	1.746380e-01	
415	1.412538e+07	1.908611e+00,	1.786062e-01	
416	1.445440e+07	1.909625e+00,	1.826598e-01	
