** sch_path: /home/andylithia/openmpw/project-reisen-chip1/xschem/ota_wideband.sch
AC Analysis  Sun Oct 30 17:11:03  2022
--------------------------------------------------------------------------------
Index   frequency       vop                             
--------------------------------------------------------------------------------
0	1.000000e+03	2.311666e+00,	7.027217e-06	
1	1.023293e+03	2.311666e+00,	7.190902e-06	
2	1.047129e+03	2.311666e+00,	7.358399e-06	
3	1.071519e+03	2.311666e+00,	7.529798e-06	
4	1.096478e+03	2.311666e+00,	7.705190e-06	
5	1.122018e+03	2.311666e+00,	7.884667e-06	
6	1.148154e+03	2.311666e+00,	8.068324e-06	
7	1.174898e+03	2.311666e+00,	8.256260e-06	
8	1.202264e+03	2.311666e+00,	8.448573e-06	
9	1.230269e+03	2.311666e+00,	8.645365e-06	
10	1.258925e+03	2.311666e+00,	8.846742e-06	
11	1.288250e+03	2.311666e+00,	9.052809e-06	
12	1.318257e+03	2.311666e+00,	9.263676e-06	
13	1.348963e+03	2.311666e+00,	9.479455e-06	
14	1.380384e+03	2.311666e+00,	9.700260e-06	
15	1.412538e+03	2.311666e+00,	9.926208e-06	
16	1.445440e+03	2.311666e+00,	1.015742e-05	
17	1.479108e+03	2.311666e+00,	1.039402e-05	
18	1.513561e+03	2.311666e+00,	1.063612e-05	
19	1.548817e+03	2.311666e+00,	1.088387e-05	
20	1.584893e+03	2.311666e+00,	1.113739e-05	
21	1.621810e+03	2.311666e+00,	1.139681e-05	
22	1.659587e+03	2.311666e+00,	1.166228e-05	
23	1.698244e+03	2.311666e+00,	1.193393e-05	
24	1.737801e+03	2.311666e+00,	1.221190e-05	
25	1.778279e+03	2.311666e+00,	1.249635e-05	
26	1.819701e+03	2.311666e+00,	1.278743e-05	
27	1.862087e+03	2.311666e+00,	1.308529e-05	
28	1.905461e+03	2.311666e+00,	1.339009e-05	
29	1.949845e+03	2.311666e+00,	1.370198e-05	
30	1.995262e+03	2.311666e+00,	1.402114e-05	
31	2.041738e+03	2.311666e+00,	1.434774e-05	
32	2.089296e+03	2.311666e+00,	1.468194e-05	
33	2.137962e+03	2.311666e+00,	1.502392e-05	
34	2.187762e+03	2.311666e+00,	1.537388e-05	
35	2.238721e+03	2.311666e+00,	1.573198e-05	
36	2.290868e+03	2.311666e+00,	1.609842e-05	
37	2.344229e+03	2.311666e+00,	1.647340e-05	
38	2.398833e+03	2.311666e+00,	1.685712e-05	
39	2.454709e+03	2.311666e+00,	1.724977e-05	
40	2.511886e+03	2.311666e+00,	1.765157e-05	
41	2.570396e+03	2.311666e+00,	1.806273e-05	
42	2.630268e+03	2.311666e+00,	1.848346e-05	
43	2.691535e+03	2.311666e+00,	1.891400e-05	
44	2.754229e+03	2.311666e+00,	1.935456e-05	
45	2.818383e+03	2.311666e+00,	1.980539e-05	
46	2.884032e+03	2.311666e+00,	2.026671e-05	
47	2.951209e+03	2.311666e+00,	2.073879e-05	
48	3.019952e+03	2.311666e+00,	2.122186e-05	
49	3.090295e+03	2.311666e+00,	2.171618e-05	
50	3.162278e+03	2.311666e+00,	2.222201e-05	
51	3.235937e+03	2.311666e+00,	2.273963e-05	
52	3.311311e+03	2.311666e+00,	2.326930e-05	
53	3.388442e+03	2.311666e+00,	2.381131e-05	
54	3.467369e+03	2.311666e+00,	2.436595e-05	

Index   frequency       vop                             
--------------------------------------------------------------------------------
55	3.548134e+03	2.311666e+00,	2.493351e-05	
56	3.630781e+03	2.311666e+00,	2.551428e-05	
57	3.715352e+03	2.311666e+00,	2.610859e-05	
58	3.801894e+03	2.311666e+00,	2.671673e-05	
59	3.890451e+03	2.311666e+00,	2.733905e-05	
60	3.981072e+03	2.311666e+00,	2.797585e-05	
61	4.073803e+03	2.311666e+00,	2.862750e-05	
62	4.168694e+03	2.311666e+00,	2.929432e-05	
63	4.265795e+03	2.311666e+00,	2.997667e-05	
64	4.365158e+03	2.311666e+00,	3.067491e-05	
65	4.466836e+03	2.311666e+00,	3.138942e-05	
66	4.570882e+03	2.311666e+00,	3.212058e-05	
67	4.677351e+03	2.311666e+00,	3.286876e-05	
68	4.786301e+03	2.311666e+00,	3.363437e-05	
69	4.897788e+03	2.311666e+00,	3.441782e-05	
70	5.011872e+03	2.311666e+00,	3.521951e-05	
71	5.128614e+03	2.311666e+00,	3.603988e-05	
72	5.248075e+03	2.311666e+00,	3.687936e-05	
73	5.370318e+03	2.311666e+00,	3.773839e-05	
74	5.495409e+03	2.311666e+00,	3.861743e-05	
75	5.623413e+03	2.311666e+00,	3.951694e-05	
76	5.754399e+03	2.311666e+00,	4.043741e-05	
77	5.888437e+03	2.311666e+00,	4.137932e-05	
78	6.025596e+03	2.311666e+00,	4.234317e-05	
79	6.165950e+03	2.311666e+00,	4.332947e-05	
80	6.309573e+03	2.311666e+00,	4.433874e-05	
81	6.456542e+03	2.311666e+00,	4.537152e-05	
82	6.606934e+03	2.311666e+00,	4.642836e-05	
83	6.760830e+03	2.311666e+00,	4.750982e-05	
84	6.918310e+03	2.311666e+00,	4.861646e-05	
85	7.079458e+03	2.311666e+00,	4.974889e-05	
86	7.244360e+03	2.311666e+00,	5.090769e-05	
87	7.413102e+03	2.311666e+00,	5.209348e-05	
88	7.585776e+03	2.311666e+00,	5.330689e-05	
89	7.762471e+03	2.311666e+00,	5.454857e-05	
90	7.943282e+03	2.311666e+00,	5.581917e-05	
91	8.128305e+03	2.311666e+00,	5.711936e-05	
92	8.317638e+03	2.311666e+00,	5.844984e-05	
93	8.511380e+03	2.311666e+00,	5.981132e-05	
94	8.709636e+03	2.311666e+00,	6.120450e-05	
95	8.912509e+03	2.311666e+00,	6.263014e-05	
96	9.120108e+03	2.311666e+00,	6.408898e-05	
97	9.332543e+03	2.311666e+00,	6.558180e-05	
98	9.549926e+03	2.311666e+00,	6.710940e-05	
99	9.772372e+03	2.311666e+00,	6.867258e-05	
100	1.000000e+04	2.311666e+00,	7.027217e-05	
101	1.023293e+04	2.311666e+00,	7.190902e-05	
102	1.047129e+04	2.311666e+00,	7.358399e-05	
103	1.071519e+04	2.311666e+00,	7.529798e-05	
104	1.096478e+04	2.311666e+00,	7.705190e-05	
105	1.122018e+04	2.311666e+00,	7.884667e-05	
106	1.148154e+04	2.311666e+00,	8.068324e-05	
107	1.174898e+04	2.311666e+00,	8.256260e-05	
108	1.202264e+04	2.311666e+00,	8.448573e-05	
109	1.230269e+04	2.311666e+00,	8.645365e-05	
110	1.258925e+04	2.311666e+00,	8.846742e-05	
111	1.288250e+04	2.311666e+00,	9.052809e-05	
112	1.318257e+04	2.311666e+00,	9.263676e-05	

Index   frequency       vop                             
--------------------------------------------------------------------------------
113	1.348963e+04	2.311666e+00,	9.479455e-05	
114	1.380384e+04	2.311666e+00,	9.700259e-05	
115	1.412538e+04	2.311666e+00,	9.926208e-05	
116	1.445440e+04	2.311666e+00,	1.015742e-04	
117	1.479108e+04	2.311666e+00,	1.039402e-04	
118	1.513561e+04	2.311666e+00,	1.063612e-04	
119	1.548817e+04	2.311666e+00,	1.088387e-04	
120	1.584893e+04	2.311666e+00,	1.113739e-04	
121	1.621810e+04	2.311666e+00,	1.139681e-04	
122	1.659587e+04	2.311666e+00,	1.166228e-04	
123	1.698244e+04	2.311666e+00,	1.193393e-04	
124	1.737801e+04	2.311666e+00,	1.221190e-04	
125	1.778279e+04	2.311666e+00,	1.249635e-04	
126	1.819701e+04	2.311666e+00,	1.278743e-04	
127	1.862087e+04	2.311666e+00,	1.308529e-04	
128	1.905461e+04	2.311666e+00,	1.339009e-04	
129	1.949845e+04	2.311666e+00,	1.370198e-04	
130	1.995262e+04	2.311666e+00,	1.402114e-04	
131	2.041738e+04	2.311666e+00,	1.434773e-04	
132	2.089296e+04	2.311666e+00,	1.468194e-04	
133	2.137962e+04	2.311666e+00,	1.502392e-04	
134	2.187762e+04	2.311666e+00,	1.537387e-04	
135	2.238721e+04	2.311666e+00,	1.573198e-04	
136	2.290868e+04	2.311666e+00,	1.609842e-04	
137	2.344229e+04	2.311666e+00,	1.647340e-04	
138	2.398833e+04	2.311666e+00,	1.685712e-04	
139	2.454709e+04	2.311666e+00,	1.724977e-04	
140	2.511886e+04	2.311666e+00,	1.765157e-04	
141	2.570396e+04	2.311666e+00,	1.806273e-04	
142	2.630268e+04	2.311666e+00,	1.848346e-04	
143	2.691535e+04	2.311666e+00,	1.891400e-04	
144	2.754229e+04	2.311666e+00,	1.935456e-04	
145	2.818383e+04	2.311666e+00,	1.980539e-04	
146	2.884032e+04	2.311666e+00,	2.026671e-04	
147	2.951209e+04	2.311666e+00,	2.073879e-04	
148	3.019952e+04	2.311666e+00,	2.122185e-04	
149	3.090295e+04	2.311666e+00,	2.171618e-04	
150	3.162278e+04	2.311666e+00,	2.222201e-04	
151	3.235937e+04	2.311666e+00,	2.273963e-04	
152	3.311311e+04	2.311666e+00,	2.326930e-04	
153	3.388442e+04	2.311666e+00,	2.381131e-04	
154	3.467369e+04	2.311666e+00,	2.436595e-04	
155	3.548134e+04	2.311666e+00,	2.493350e-04	
156	3.630781e+04	2.311666e+00,	2.551428e-04	
157	3.715352e+04	2.311666e+00,	2.610858e-04	
158	3.801894e+04	2.311666e+00,	2.671673e-04	
159	3.890451e+04	2.311666e+00,	2.733904e-04	
160	3.981072e+04	2.311666e+00,	2.797585e-04	
161	4.073803e+04	2.311666e+00,	2.862749e-04	
162	4.168694e+04	2.311666e+00,	2.929431e-04	
163	4.265795e+04	2.311666e+00,	2.997667e-04	
164	4.365158e+04	2.311666e+00,	3.067491e-04	
165	4.466836e+04	2.311666e+00,	3.138942e-04	
166	4.570882e+04	2.311666e+00,	3.212058e-04	
167	4.677351e+04	2.311666e+00,	3.286876e-04	
168	4.786301e+04	2.311666e+00,	3.363437e-04	
169	4.897788e+04	2.311666e+00,	3.441782e-04	
170	5.011872e+04	2.311666e+00,	3.521951e-04	

Index   frequency       vop                             
--------------------------------------------------------------------------------
171	5.128614e+04	2.311666e+00,	3.603988e-04	
172	5.248075e+04	2.311666e+00,	3.687935e-04	
173	5.370318e+04	2.311666e+00,	3.773838e-04	
174	5.495409e+04	2.311666e+00,	3.861742e-04	
175	5.623413e+04	2.311666e+00,	3.951694e-04	
176	5.754399e+04	2.311666e+00,	4.043741e-04	
177	5.888437e+04	2.311666e+00,	4.137931e-04	
178	6.025596e+04	2.311666e+00,	4.234316e-04	
179	6.165950e+04	2.311666e+00,	4.332946e-04	
180	6.309573e+04	2.311666e+00,	4.433873e-04	
181	6.456542e+04	2.311666e+00,	4.537151e-04	
182	6.606934e+04	2.311666e+00,	4.642835e-04	
183	6.760830e+04	2.311666e+00,	4.750981e-04	
184	6.918310e+04	2.311666e+00,	4.861645e-04	
185	7.079458e+04	2.311666e+00,	4.974888e-04	
186	7.244360e+04	2.311666e+00,	5.090767e-04	
187	7.413102e+04	2.311666e+00,	5.209347e-04	
188	7.585776e+04	2.311666e+00,	5.330688e-04	
189	7.762471e+04	2.311666e+00,	5.454855e-04	
190	7.943282e+04	2.311666e+00,	5.581915e-04	
191	8.128305e+04	2.311666e+00,	5.711935e-04	
192	8.317638e+04	2.311666e+00,	5.844983e-04	
193	8.511380e+04	2.311666e+00,	5.981130e-04	
194	8.709636e+04	2.311666e+00,	6.120448e-04	
195	8.912509e+04	2.311666e+00,	6.263012e-04	
196	9.120108e+04	2.311666e+00,	6.408896e-04	
197	9.332543e+04	2.311666e+00,	6.558178e-04	
198	9.549926e+04	2.311666e+00,	6.710937e-04	
199	9.772372e+04	2.311666e+00,	6.867255e-04	
200	1.000000e+05	2.311666e+00,	7.027214e-04	
201	1.023293e+05	2.311667e+00,	7.190899e-04	
202	1.047129e+05	2.311667e+00,	7.358396e-04	
203	1.071519e+05	2.311667e+00,	7.529795e-04	
204	1.096478e+05	2.311667e+00,	7.705186e-04	
205	1.122018e+05	2.311667e+00,	7.884663e-04	
206	1.148154e+05	2.311667e+00,	8.068320e-04	
207	1.174898e+05	2.311667e+00,	8.256255e-04	
208	1.202264e+05	2.311667e+00,	8.448568e-04	
209	1.230269e+05	2.311667e+00,	8.645360e-04	
210	1.258925e+05	2.311667e+00,	8.846736e-04	
211	1.288250e+05	2.311667e+00,	9.052803e-04	
212	1.318257e+05	2.311667e+00,	9.263669e-04	
213	1.348963e+05	2.311667e+00,	9.479448e-04	
214	1.380384e+05	2.311667e+00,	9.700252e-04	
215	1.412538e+05	2.311667e+00,	9.926199e-04	
216	1.445440e+05	2.311667e+00,	1.015741e-03	
217	1.479108e+05	2.311667e+00,	1.039401e-03	
218	1.513561e+05	2.311667e+00,	1.063611e-03	
219	1.548817e+05	2.311667e+00,	1.088386e-03	
220	1.584893e+05	2.311667e+00,	1.113738e-03	
221	1.621810e+05	2.311667e+00,	1.139680e-03	
222	1.659587e+05	2.311667e+00,	1.166226e-03	
223	1.698244e+05	2.311667e+00,	1.193391e-03	
224	1.737801e+05	2.311668e+00,	1.221189e-03	
225	1.778279e+05	2.311668e+00,	1.249634e-03	
226	1.819701e+05	2.311668e+00,	1.278742e-03	
227	1.862087e+05	2.311668e+00,	1.308527e-03	
228	1.905461e+05	2.311668e+00,	1.339007e-03	

Index   frequency       vop                             
--------------------------------------------------------------------------------
229	1.949845e+05	2.311668e+00,	1.370196e-03	
230	1.995262e+05	2.311668e+00,	1.402112e-03	
231	2.041738e+05	2.311668e+00,	1.434771e-03	
232	2.089296e+05	2.311668e+00,	1.468191e-03	
233	2.137962e+05	2.311668e+00,	1.502389e-03	
234	2.187762e+05	2.311668e+00,	1.537385e-03	
235	2.238721e+05	2.311669e+00,	1.573195e-03	
236	2.290868e+05	2.311669e+00,	1.609839e-03	
237	2.344229e+05	2.311669e+00,	1.647337e-03	
238	2.398833e+05	2.311669e+00,	1.685708e-03	
239	2.454709e+05	2.311669e+00,	1.724973e-03	
240	2.511886e+05	2.311669e+00,	1.765152e-03	
241	2.570396e+05	2.311669e+00,	1.806268e-03	
242	2.630268e+05	2.311670e+00,	1.848341e-03	
243	2.691535e+05	2.311670e+00,	1.891394e-03	
244	2.754229e+05	2.311670e+00,	1.935450e-03	
245	2.818383e+05	2.311670e+00,	1.980532e-03	
246	2.884032e+05	2.311670e+00,	2.026665e-03	
247	2.951209e+05	2.311671e+00,	2.073871e-03	
248	3.019952e+05	2.311671e+00,	2.122178e-03	
249	3.090295e+05	2.311671e+00,	2.171609e-03	
250	3.162278e+05	2.311671e+00,	2.222192e-03	
251	3.235937e+05	2.311671e+00,	2.273953e-03	
252	3.311311e+05	2.311672e+00,	2.326920e-03	
253	3.388442e+05	2.311672e+00,	2.381120e-03	
254	3.467369e+05	2.311672e+00,	2.436583e-03	
255	3.548134e+05	2.311673e+00,	2.493338e-03	
256	3.630781e+05	2.311673e+00,	2.551414e-03	
257	3.715352e+05	2.311673e+00,	2.610844e-03	
258	3.801894e+05	2.311674e+00,	2.671657e-03	
259	3.890451e+05	2.311674e+00,	2.733888e-03	
260	3.981072e+05	2.311674e+00,	2.797567e-03	
261	4.073803e+05	2.311675e+00,	2.862730e-03	
262	4.168694e+05	2.311675e+00,	2.929411e-03	
263	4.265795e+05	2.311675e+00,	2.997644e-03	
264	4.365158e+05	2.311676e+00,	3.067467e-03	
265	4.466836e+05	2.311676e+00,	3.138917e-03	
266	4.570882e+05	2.311677e+00,	3.212030e-03	
267	4.677351e+05	2.311677e+00,	3.286847e-03	
268	4.786301e+05	2.311678e+00,	3.363406e-03	
269	4.897788e+05	2.311678e+00,	3.441748e-03	
270	5.011872e+05	2.311679e+00,	3.521915e-03	
271	5.128614e+05	2.311680e+00,	3.603949e-03	
272	5.248075e+05	2.311680e+00,	3.687894e-03	
273	5.370318e+05	2.311681e+00,	3.773794e-03	
274	5.495409e+05	2.311682e+00,	3.861695e-03	
275	5.623413e+05	2.311682e+00,	3.951643e-03	
276	5.754399e+05	2.311683e+00,	4.043686e-03	
277	5.888437e+05	2.311684e+00,	4.137873e-03	
278	6.025596e+05	2.311685e+00,	4.234254e-03	
279	6.165950e+05	2.311686e+00,	4.332879e-03	
280	6.309573e+05	2.311687e+00,	4.433802e-03	
281	6.456542e+05	2.311688e+00,	4.537075e-03	
282	6.606934e+05	2.311689e+00,	4.642753e-03	
283	6.760830e+05	2.311690e+00,	4.750893e-03	
284	6.918310e+05	2.311691e+00,	4.861551e-03	
285	7.079458e+05	2.311692e+00,	4.974786e-03	
286	7.244360e+05	2.311693e+00,	5.090659e-03	

Index   frequency       vop                             
--------------------------------------------------------------------------------
287	7.413102e+05	2.311695e+00,	5.209230e-03	
288	7.585776e+05	2.311696e+00,	5.330563e-03	
289	7.762471e+05	2.311697e+00,	5.454722e-03	
290	7.943282e+05	2.311699e+00,	5.581772e-03	
291	8.128305e+05	2.311700e+00,	5.711781e-03	
292	8.317638e+05	2.311702e+00,	5.844818e-03	
293	8.511380e+05	2.311704e+00,	5.980954e-03	
294	8.709636e+05	2.311706e+00,	6.120259e-03	
295	8.912509e+05	2.311707e+00,	6.262809e-03	
296	9.120108e+05	2.311709e+00,	6.408679e-03	
297	9.332543e+05	2.311711e+00,	6.557946e-03	
298	9.549926e+05	2.311714e+00,	6.710689e-03	
299	9.772372e+05	2.311716e+00,	6.866989e-03	
300	1.000000e+06	2.311718e+00,	7.026928e-03	
301	1.023293e+06	2.311721e+00,	7.190593e-03	
302	1.047129e+06	2.311723e+00,	7.358068e-03	
303	1.071519e+06	2.311726e+00,	7.529444e-03	
304	1.096478e+06	2.311729e+00,	7.704810e-03	
305	1.122018e+06	2.311732e+00,	7.884260e-03	
306	1.148154e+06	2.311735e+00,	8.067888e-03	
307	1.174898e+06	2.311738e+00,	8.255792e-03	
308	1.202264e+06	2.311741e+00,	8.448072e-03	
309	1.230269e+06	2.311745e+00,	8.644828e-03	
310	1.258925e+06	2.311749e+00,	8.846166e-03	
311	1.288250e+06	2.311753e+00,	9.052192e-03	
312	1.318257e+06	2.311757e+00,	9.263015e-03	
313	1.348963e+06	2.311761e+00,	9.478747e-03	
314	1.380384e+06	2.311765e+00,	9.699501e-03	
315	1.412538e+06	2.311770e+00,	9.925395e-03	
316	1.445440e+06	2.311775e+00,	1.015655e-02	
317	1.479108e+06	2.311780e+00,	1.039308e-02	
318	1.513561e+06	2.311786e+00,	1.063512e-02	
319	1.548817e+06	2.311791e+00,	1.088280e-02	
320	1.584893e+06	2.311797e+00,	1.113624e-02	
321	1.621810e+06	2.311803e+00,	1.139558e-02	
322	1.659587e+06	2.311810e+00,	1.166096e-02	
323	1.698244e+06	2.311817e+00,	1.193251e-02	
324	1.737801e+06	2.311824e+00,	1.221039e-02	
325	1.778279e+06	2.311831e+00,	1.249473e-02	
326	1.819701e+06	2.311839e+00,	1.278569e-02	
327	1.862087e+06	2.311847e+00,	1.308343e-02	
328	1.905461e+06	2.311856e+00,	1.338809e-02	
329	1.949845e+06	2.311865e+00,	1.369984e-02	
330	1.995262e+06	2.311874e+00,	1.401885e-02	
331	2.041738e+06	2.311884e+00,	1.434528e-02	
332	2.089296e+06	2.311894e+00,	1.467931e-02	
333	2.137962e+06	2.311905e+00,	1.502110e-02	
334	2.187762e+06	2.311916e+00,	1.537085e-02	
335	2.238721e+06	2.311928e+00,	1.572874e-02	
336	2.290868e+06	2.311940e+00,	1.609496e-02	
337	2.344229e+06	2.311953e+00,	1.646969e-02	
338	2.398833e+06	2.311966e+00,	1.685314e-02	
339	2.454709e+06	2.311981e+00,	1.724551e-02	
340	2.511886e+06	2.311995e+00,	1.764700e-02	
341	2.570396e+06	2.312011e+00,	1.805783e-02	
342	2.630268e+06	2.312027e+00,	1.847821e-02	
343	2.691535e+06	2.312044e+00,	1.890837e-02	
344	2.754229e+06	2.312062e+00,	1.934854e-02	

Index   frequency       vop                             
--------------------------------------------------------------------------------
345	2.818383e+06	2.312081e+00,	1.979893e-02	
346	2.884032e+06	2.312100e+00,	2.025980e-02	
347	2.951209e+06	2.312121e+00,	2.073137e-02	
348	3.019952e+06	2.312142e+00,	2.121391e-02	
349	3.090295e+06	2.312165e+00,	2.170766e-02	
350	3.162278e+06	2.312188e+00,	2.221289e-02	
351	3.235937e+06	2.312213e+00,	2.272985e-02	
352	3.311311e+06	2.312238e+00,	2.325883e-02	
353	3.388442e+06	2.312265e+00,	2.380009e-02	
354	3.467369e+06	2.312294e+00,	2.435393e-02	
355	3.548134e+06	2.312323e+00,	2.492062e-02	
356	3.630781e+06	2.312354e+00,	2.550048e-02	
357	3.715352e+06	2.312387e+00,	2.609379e-02	
358	3.801894e+06	2.312421e+00,	2.670088e-02	
359	3.890451e+06	2.312456e+00,	2.732206e-02	
360	3.981072e+06	2.312493e+00,	2.795766e-02	
361	4.073803e+06	2.312532e+00,	2.860800e-02	
362	4.168694e+06	2.312573e+00,	2.927342e-02	
363	4.265795e+06	2.312616e+00,	2.995428e-02	
364	4.365158e+06	2.312661e+00,	3.065092e-02	
365	4.466836e+06	2.312708e+00,	3.136372e-02	
366	4.570882e+06	2.312757e+00,	3.209304e-02	
367	4.677351e+06	2.312808e+00,	3.283925e-02	
368	4.786301e+06	2.312862e+00,	3.360275e-02	
369	4.897788e+06	2.312918e+00,	3.438394e-02	
370	5.011872e+06	2.312977e+00,	3.518321e-02	
371	5.128614e+06	2.313039e+00,	3.600098e-02	
372	5.248075e+06	2.313103e+00,	3.683767e-02	
373	5.370318e+06	2.313171e+00,	3.769372e-02	
374	5.495409e+06	2.313242e+00,	3.856957e-02	
375	5.623413e+06	2.313316e+00,	3.946566e-02	
376	5.754399e+06	2.313394e+00,	4.038246e-02	
377	5.888437e+06	2.313475e+00,	4.132044e-02	
378	6.025596e+06	2.313561e+00,	4.228008e-02	
379	6.165950e+06	2.313650e+00,	4.326187e-02	
380	6.309573e+06	2.313743e+00,	4.426631e-02	
381	6.456542e+06	2.313841e+00,	4.529391e-02	
382	6.606934e+06	2.313943e+00,	4.634520e-02	
383	6.760830e+06	2.314051e+00,	4.742071e-02	
384	6.918310e+06	2.314163e+00,	4.852098e-02	
385	7.079458e+06	2.314280e+00,	4.964658e-02	
386	7.244360e+06	2.314403e+00,	5.079807e-02	
387	7.413102e+06	2.314532e+00,	5.197602e-02	
388	7.585776e+06	2.314667e+00,	5.318104e-02	
389	7.762471e+06	2.314808e+00,	5.441372e-02	
390	7.943282e+06	2.314956e+00,	5.567468e-02	
391	8.128305e+06	2.315111e+00,	5.696454e-02	
392	8.317638e+06	2.315273e+00,	5.828396e-02	
393	8.511380e+06	2.315443e+00,	5.963357e-02	
394	8.709636e+06	2.315620e+00,	6.101405e-02	
395	8.912509e+06	2.315806e+00,	6.242607e-02	
396	9.120108e+06	2.316001e+00,	6.387033e-02	
397	9.332543e+06	2.316205e+00,	6.534752e-02	
398	9.549926e+06	2.316418e+00,	6.685837e-02	
399	9.772372e+06	2.316642e+00,	6.840361e-02	
400	1.000000e+07	2.316875e+00,	6.998397e-02	
401	1.023293e+07	2.317120e+00,	7.160023e-02	
402	1.047129e+07	2.317377e+00,	7.325313e-02	

Index   frequency       vop                             
--------------------------------------------------------------------------------
403	1.071519e+07	2.317645e+00,	7.494348e-02	
404	1.096478e+07	2.317926e+00,	7.667206e-02	
405	1.122018e+07	2.318220e+00,	7.843969e-02	
406	1.148154e+07	2.318528e+00,	8.024718e-02	
407	1.174898e+07	2.318850e+00,	8.209538e-02	
408	1.202264e+07	2.319187e+00,	8.398513e-02	
409	1.230269e+07	2.319540e+00,	8.591729e-02	
410	1.258925e+07	2.319910e+00,	8.789273e-02	
411	1.288250e+07	2.320297e+00,	8.991235e-02	
412	1.318257e+07	2.320702e+00,	9.197704e-02	
413	1.348963e+07	2.321126e+00,	9.408770e-02	
414	1.380384e+07	2.321569e+00,	9.624527e-02	
415	1.412538e+07	2.322033e+00,	9.845066e-02	
416	1.445440e+07	2.322519e+00,	1.007048e-01	
