  ** sch_path: /home/andylithia/openmpw/project-reisen-chip1/xschem/ctle_3.sch
  AC Analysis  Sun Oct 30 23:22:42  2022
--------------------------------------------------------------------------------
Index   frequency       vop                             
--------------------------------------------------------------------------------
0	1.000000e+03	1.675716e+00,	-1.00344e-07	
1	1.023293e+03	1.675716e+00,	-1.02681e-07	
2	1.047129e+03	1.675716e+00,	-1.05073e-07	
3	1.071519e+03	1.675716e+00,	-1.07520e-07	
4	1.096478e+03	1.675716e+00,	-1.10025e-07	
5	1.122018e+03	1.675716e+00,	-1.12588e-07	
6	1.148154e+03	1.675716e+00,	-1.15210e-07	
7	1.174898e+03	1.675716e+00,	-1.17894e-07	
8	1.202264e+03	1.675716e+00,	-1.20640e-07	
9	1.230269e+03	1.675716e+00,	-1.23450e-07	
10	1.258925e+03	1.675716e+00,	-1.26326e-07	
11	1.288250e+03	1.675716e+00,	-1.29268e-07	
12	1.318257e+03	1.675716e+00,	-1.32279e-07	
13	1.348963e+03	1.675716e+00,	-1.35360e-07	
14	1.380384e+03	1.675716e+00,	-1.38513e-07	
15	1.412538e+03	1.675716e+00,	-1.41740e-07	
16	1.445440e+03	1.675716e+00,	-1.45041e-07	
17	1.479108e+03	1.675716e+00,	-1.48420e-07	
18	1.513561e+03	1.675716e+00,	-1.51877e-07	
19	1.548817e+03	1.675716e+00,	-1.55414e-07	
20	1.584893e+03	1.675716e+00,	-1.59034e-07	
21	1.621810e+03	1.675716e+00,	-1.62739e-07	
22	1.659587e+03	1.675716e+00,	-1.66530e-07	
23	1.698244e+03	1.675716e+00,	-1.70408e-07	
24	1.737801e+03	1.675716e+00,	-1.74378e-07	
25	1.778279e+03	1.675716e+00,	-1.78440e-07	
26	1.819701e+03	1.675716e+00,	-1.82596e-07	
27	1.862087e+03	1.675716e+00,	-1.86849e-07	
28	1.905461e+03	1.675716e+00,	-1.91201e-07	
29	1.949845e+03	1.675716e+00,	-1.95655e-07	
30	1.995262e+03	1.675716e+00,	-2.00213e-07	
31	2.041738e+03	1.675716e+00,	-2.04876e-07	
32	2.089296e+03	1.675716e+00,	-2.09648e-07	
33	2.137962e+03	1.675716e+00,	-2.14532e-07	
34	2.187762e+03	1.675716e+00,	-2.19529e-07	
35	2.238721e+03	1.675716e+00,	-2.24642e-07	
36	2.290868e+03	1.675716e+00,	-2.29875e-07	
37	2.344229e+03	1.675716e+00,	-2.35229e-07	
38	2.398833e+03	1.675716e+00,	-2.40708e-07	
39	2.454709e+03	1.675716e+00,	-2.46315e-07	
40	2.511886e+03	1.675716e+00,	-2.52053e-07	
41	2.570396e+03	1.675716e+00,	-2.57924e-07	
42	2.630268e+03	1.675716e+00,	-2.63931e-07	
43	2.691535e+03	1.675716e+00,	-2.70079e-07	
44	2.754229e+03	1.675716e+00,	-2.76370e-07	
45	2.818383e+03	1.675716e+00,	-2.82808e-07	
46	2.884032e+03	1.675716e+00,	-2.89395e-07	
47	2.951209e+03	1.675716e+00,	-2.96136e-07	
48	3.019952e+03	1.675716e+00,	-3.03034e-07	
49	3.090295e+03	1.675716e+00,	-3.10092e-07	
50	3.162278e+03	1.675716e+00,	-3.17315e-07	
51	3.235937e+03	1.675716e+00,	-3.24707e-07	
52	3.311311e+03	1.675716e+00,	-3.32270e-07	
53	3.388442e+03	1.675716e+00,	-3.40010e-07	
54	3.467369e+03	1.675716e+00,	-3.47929e-07	

Index   frequency       vop                             
--------------------------------------------------------------------------------
55	3.548134e+03	1.675716e+00,	-3.56034e-07	
56	3.630781e+03	1.675716e+00,	-3.64327e-07	
57	3.715352e+03	1.675716e+00,	-3.72813e-07	
58	3.801894e+03	1.675716e+00,	-3.81497e-07	
59	3.890451e+03	1.675716e+00,	-3.90383e-07	
60	3.981072e+03	1.675716e+00,	-3.99476e-07	
61	4.073803e+03	1.675716e+00,	-4.08781e-07	
62	4.168694e+03	1.675716e+00,	-4.18303e-07	
63	4.265795e+03	1.675716e+00,	-4.28047e-07	
64	4.365158e+03	1.675716e+00,	-4.38017e-07	
65	4.466836e+03	1.675716e+00,	-4.48220e-07	
66	4.570882e+03	1.675716e+00,	-4.58660e-07	
67	4.677351e+03	1.675716e+00,	-4.69344e-07	
68	4.786301e+03	1.675716e+00,	-4.80276e-07	
69	4.897788e+03	1.675716e+00,	-4.91463e-07	
70	5.011872e+03	1.675716e+00,	-5.02911e-07	
71	5.128614e+03	1.675716e+00,	-5.14625e-07	
72	5.248075e+03	1.675716e+00,	-5.26613e-07	
73	5.370318e+03	1.675716e+00,	-5.38879e-07	
74	5.495409e+03	1.675716e+00,	-5.51431e-07	
75	5.623413e+03	1.675716e+00,	-5.64276e-07	
76	5.754399e+03	1.675716e+00,	-5.77419e-07	
77	5.888437e+03	1.675716e+00,	-5.90869e-07	
78	6.025596e+03	1.675716e+00,	-6.04632e-07	
79	6.165950e+03	1.675716e+00,	-6.18716e-07	
80	6.309573e+03	1.675716e+00,	-6.33128e-07	
81	6.456542e+03	1.675716e+00,	-6.47875e-07	
82	6.606934e+03	1.675716e+00,	-6.62966e-07	
83	6.760830e+03	1.675716e+00,	-6.78408e-07	
84	6.918310e+03	1.675716e+00,	-6.94211e-07	
85	7.079458e+03	1.675716e+00,	-7.10381e-07	
86	7.244360e+03	1.675716e+00,	-7.26928e-07	
87	7.413102e+03	1.675716e+00,	-7.43860e-07	
88	7.585776e+03	1.675716e+00,	-7.61187e-07	
89	7.762471e+03	1.675716e+00,	-7.78917e-07	
90	7.943282e+03	1.675716e+00,	-7.97060e-07	
91	8.128305e+03	1.675716e+00,	-8.15626e-07	
92	8.317638e+03	1.675716e+00,	-8.34625e-07	
93	8.511380e+03	1.675716e+00,	-8.54066e-07	
94	8.709636e+03	1.675716e+00,	-8.73959e-07	
95	8.912509e+03	1.675716e+00,	-8.94316e-07	
96	9.120108e+03	1.675716e+00,	-9.15148e-07	
97	9.332543e+03	1.675716e+00,	-9.36464e-07	
98	9.549926e+03	1.675716e+00,	-9.58277e-07	
99	9.772372e+03	1.675716e+00,	-9.80598e-07	
100	1.000000e+04	1.675716e+00,	-1.00344e-06	
101	1.023293e+04	1.675716e+00,	-1.02681e-06	
102	1.047129e+04	1.675716e+00,	-1.05073e-06	
103	1.071519e+04	1.675716e+00,	-1.07520e-06	
104	1.096478e+04	1.675716e+00,	-1.10025e-06	
105	1.122018e+04	1.675716e+00,	-1.12588e-06	
106	1.148154e+04	1.675716e+00,	-1.15210e-06	
107	1.174898e+04	1.675716e+00,	-1.17894e-06	
108	1.202264e+04	1.675716e+00,	-1.20640e-06	
109	1.230269e+04	1.675716e+00,	-1.23450e-06	
110	1.258925e+04	1.675716e+00,	-1.26326e-06	
111	1.288250e+04	1.675716e+00,	-1.29268e-06	
112	1.318257e+04	1.675716e+00,	-1.32279e-06	

Index   frequency       vop                             
--------------------------------------------------------------------------------
113	1.348963e+04	1.675716e+00,	-1.35360e-06	
114	1.380384e+04	1.675716e+00,	-1.38513e-06	
115	1.412538e+04	1.675716e+00,	-1.41740e-06	
116	1.445440e+04	1.675716e+00,	-1.45041e-06	
117	1.479108e+04	1.675716e+00,	-1.48420e-06	
118	1.513561e+04	1.675716e+00,	-1.51877e-06	
119	1.548817e+04	1.675716e+00,	-1.55414e-06	
120	1.584893e+04	1.675716e+00,	-1.59034e-06	
121	1.621810e+04	1.675716e+00,	-1.62739e-06	
122	1.659587e+04	1.675716e+00,	-1.66530e-06	
123	1.698244e+04	1.675716e+00,	-1.70408e-06	
124	1.737801e+04	1.675716e+00,	-1.74378e-06	
125	1.778279e+04	1.675716e+00,	-1.78440e-06	
126	1.819701e+04	1.675716e+00,	-1.82596e-06	
127	1.862087e+04	1.675716e+00,	-1.86849e-06	
128	1.905461e+04	1.675716e+00,	-1.91201e-06	
129	1.949845e+04	1.675716e+00,	-1.95655e-06	
130	1.995262e+04	1.675716e+00,	-2.00213e-06	
131	2.041738e+04	1.675716e+00,	-2.04876e-06	
132	2.089296e+04	1.675716e+00,	-2.09648e-06	
133	2.137962e+04	1.675716e+00,	-2.14532e-06	
134	2.187762e+04	1.675716e+00,	-2.19529e-06	
135	2.238721e+04	1.675716e+00,	-2.24642e-06	
136	2.290868e+04	1.675716e+00,	-2.29875e-06	
137	2.344229e+04	1.675716e+00,	-2.35229e-06	
138	2.398833e+04	1.675716e+00,	-2.40708e-06	
139	2.454709e+04	1.675716e+00,	-2.46315e-06	
140	2.511886e+04	1.675716e+00,	-2.52053e-06	
141	2.570396e+04	1.675716e+00,	-2.57924e-06	
142	2.630268e+04	1.675716e+00,	-2.63931e-06	
143	2.691535e+04	1.675716e+00,	-2.70079e-06	
144	2.754229e+04	1.675716e+00,	-2.76370e-06	
145	2.818383e+04	1.675716e+00,	-2.82808e-06	
146	2.884032e+04	1.675716e+00,	-2.89395e-06	
147	2.951209e+04	1.675716e+00,	-2.96136e-06	
148	3.019952e+04	1.675716e+00,	-3.03034e-06	
149	3.090295e+04	1.675716e+00,	-3.10092e-06	
150	3.162278e+04	1.675716e+00,	-3.17315e-06	
151	3.235937e+04	1.675716e+00,	-3.24707e-06	
152	3.311311e+04	1.675716e+00,	-3.32270e-06	
153	3.388442e+04	1.675716e+00,	-3.40010e-06	
154	3.467369e+04	1.675716e+00,	-3.47929e-06	
155	3.548134e+04	1.675716e+00,	-3.56034e-06	
156	3.630781e+04	1.675716e+00,	-3.64327e-06	
157	3.715352e+04	1.675716e+00,	-3.72813e-06	
158	3.801894e+04	1.675716e+00,	-3.81497e-06	
159	3.890451e+04	1.675716e+00,	-3.90383e-06	
160	3.981072e+04	1.675716e+00,	-3.99476e-06	
161	4.073803e+04	1.675716e+00,	-4.08781e-06	
162	4.168694e+04	1.675716e+00,	-4.18303e-06	
163	4.265795e+04	1.675716e+00,	-4.28047e-06	
164	4.365158e+04	1.675716e+00,	-4.38017e-06	
165	4.466836e+04	1.675716e+00,	-4.48220e-06	
166	4.570882e+04	1.675716e+00,	-4.58660e-06	
167	4.677351e+04	1.675716e+00,	-4.69344e-06	
168	4.786301e+04	1.675716e+00,	-4.80276e-06	
169	4.897788e+04	1.675716e+00,	-4.91463e-06	
170	5.011872e+04	1.675716e+00,	-5.02911e-06	

Index   frequency       vop                             
--------------------------------------------------------------------------------
171	5.128614e+04	1.675716e+00,	-5.14625e-06	
172	5.248075e+04	1.675716e+00,	-5.26613e-06	
173	5.370318e+04	1.675716e+00,	-5.38879e-06	
174	5.495409e+04	1.675716e+00,	-5.51431e-06	
175	5.623413e+04	1.675716e+00,	-5.64275e-06	
176	5.754399e+04	1.675716e+00,	-5.77419e-06	
177	5.888437e+04	1.675716e+00,	-5.90869e-06	
178	6.025596e+04	1.675716e+00,	-6.04632e-06	
179	6.165950e+04	1.675716e+00,	-6.18716e-06	
180	6.309573e+04	1.675716e+00,	-6.33127e-06	
181	6.456542e+04	1.675716e+00,	-6.47875e-06	
182	6.606934e+04	1.675716e+00,	-6.62966e-06	
183	6.760830e+04	1.675716e+00,	-6.78408e-06	
184	6.918310e+04	1.675716e+00,	-6.94210e-06	
185	7.079458e+04	1.675716e+00,	-7.10381e-06	
186	7.244360e+04	1.675716e+00,	-7.26928e-06	
187	7.413102e+04	1.675716e+00,	-7.43860e-06	
188	7.585776e+04	1.675716e+00,	-7.61187e-06	
189	7.762471e+04	1.675716e+00,	-7.78917e-06	
190	7.943282e+04	1.675716e+00,	-7.97060e-06	
191	8.128305e+04	1.675716e+00,	-8.15626e-06	
192	8.317638e+04	1.675716e+00,	-8.34625e-06	
193	8.511380e+04	1.675716e+00,	-8.54065e-06	
194	8.709636e+04	1.675716e+00,	-8.73959e-06	
195	8.912509e+04	1.675716e+00,	-8.94316e-06	
196	9.120108e+04	1.675716e+00,	-9.15148e-06	
197	9.332543e+04	1.675716e+00,	-9.36464e-06	
198	9.549926e+04	1.675716e+00,	-9.58277e-06	
199	9.772372e+04	1.675716e+00,	-9.80598e-06	
200	1.000000e+05	1.675716e+00,	-1.00344e-05	
201	1.023293e+05	1.675716e+00,	-1.02681e-05	
202	1.047129e+05	1.675716e+00,	-1.05073e-05	
203	1.071519e+05	1.675716e+00,	-1.07520e-05	
204	1.096478e+05	1.675716e+00,	-1.10025e-05	
205	1.122018e+05	1.675716e+00,	-1.12588e-05	
206	1.148154e+05	1.675716e+00,	-1.15210e-05	
207	1.174898e+05	1.675716e+00,	-1.17894e-05	
208	1.202264e+05	1.675716e+00,	-1.20640e-05	
209	1.230269e+05	1.675716e+00,	-1.23450e-05	
210	1.258925e+05	1.675716e+00,	-1.26325e-05	
211	1.288250e+05	1.675716e+00,	-1.29268e-05	
212	1.318257e+05	1.675716e+00,	-1.32279e-05	
213	1.348963e+05	1.675716e+00,	-1.35360e-05	
214	1.380384e+05	1.675716e+00,	-1.38513e-05	
215	1.412538e+05	1.675716e+00,	-1.41740e-05	
216	1.445440e+05	1.675716e+00,	-1.45041e-05	
217	1.479108e+05	1.675716e+00,	-1.48419e-05	
218	1.513561e+05	1.675716e+00,	-1.51877e-05	
219	1.548817e+05	1.675716e+00,	-1.55414e-05	
220	1.584893e+05	1.675716e+00,	-1.59034e-05	
221	1.621810e+05	1.675716e+00,	-1.62739e-05	
222	1.659587e+05	1.675716e+00,	-1.66529e-05	
223	1.698244e+05	1.675716e+00,	-1.70408e-05	
224	1.737801e+05	1.675716e+00,	-1.74378e-05	
225	1.778279e+05	1.675716e+00,	-1.78439e-05	
226	1.819701e+05	1.675716e+00,	-1.82596e-05	
227	1.862087e+05	1.675716e+00,	-1.86849e-05	
228	1.905461e+05	1.675716e+00,	-1.91201e-05	

Index   frequency       vop                             
--------------------------------------------------------------------------------
229	1.949845e+05	1.675716e+00,	-1.95655e-05	
230	1.995262e+05	1.675716e+00,	-2.00212e-05	
231	2.041738e+05	1.675716e+00,	-2.04876e-05	
232	2.089296e+05	1.675716e+00,	-2.09648e-05	
233	2.137962e+05	1.675716e+00,	-2.14531e-05	
234	2.187762e+05	1.675716e+00,	-2.19528e-05	
235	2.238721e+05	1.675716e+00,	-2.24642e-05	
236	2.290868e+05	1.675716e+00,	-2.29874e-05	
237	2.344229e+05	1.675716e+00,	-2.35229e-05	
238	2.398833e+05	1.675716e+00,	-2.40708e-05	
239	2.454709e+05	1.675716e+00,	-2.46315e-05	
240	2.511886e+05	1.675716e+00,	-2.52052e-05	
241	2.570396e+05	1.675716e+00,	-2.57923e-05	
242	2.630268e+05	1.675716e+00,	-2.63931e-05	
243	2.691535e+05	1.675716e+00,	-2.70079e-05	
244	2.754229e+05	1.675716e+00,	-2.76370e-05	
245	2.818383e+05	1.675716e+00,	-2.82807e-05	
246	2.884032e+05	1.675716e+00,	-2.89394e-05	
247	2.951209e+05	1.675716e+00,	-2.96135e-05	
248	3.019952e+05	1.675716e+00,	-3.03033e-05	
249	3.090295e+05	1.675716e+00,	-3.10092e-05	
250	3.162278e+05	1.675716e+00,	-3.17315e-05	
251	3.235937e+05	1.675716e+00,	-3.24706e-05	
252	3.311311e+05	1.675716e+00,	-3.32269e-05	
253	3.388442e+05	1.675716e+00,	-3.40009e-05	
254	3.467369e+05	1.675716e+00,	-3.47928e-05	
255	3.548134e+05	1.675716e+00,	-3.56033e-05	
256	3.630781e+05	1.675716e+00,	-3.64326e-05	
257	3.715352e+05	1.675716e+00,	-3.72812e-05	
258	3.801894e+05	1.675716e+00,	-3.81496e-05	
259	3.890451e+05	1.675716e+00,	-3.90382e-05	
260	3.981072e+05	1.675716e+00,	-3.99475e-05	
261	4.073803e+05	1.675716e+00,	-4.08780e-05	
262	4.168694e+05	1.675716e+00,	-4.18301e-05	
263	4.265795e+05	1.675716e+00,	-4.28045e-05	
264	4.365158e+05	1.675716e+00,	-4.38015e-05	
265	4.466836e+05	1.675716e+00,	-4.48217e-05	
266	4.570882e+05	1.675716e+00,	-4.58658e-05	
267	4.677351e+05	1.675716e+00,	-4.69341e-05	
268	4.786301e+05	1.675716e+00,	-4.80273e-05	
269	4.897788e+05	1.675716e+00,	-4.91460e-05	
270	5.011872e+05	1.675716e+00,	-5.02908e-05	
271	5.128614e+05	1.675716e+00,	-5.14622e-05	
272	5.248075e+05	1.675716e+00,	-5.26608e-05	
273	5.370318e+05	1.675716e+00,	-5.38875e-05	
274	5.495409e+05	1.675716e+00,	-5.51426e-05	
275	5.623413e+05	1.675716e+00,	-5.64271e-05	
276	5.754399e+05	1.675716e+00,	-5.77414e-05	
277	5.888437e+05	1.675716e+00,	-5.90863e-05	
278	6.025596e+05	1.675716e+00,	-6.04626e-05	
279	6.165950e+05	1.675716e+00,	-6.18709e-05	
280	6.309573e+05	1.675716e+00,	-6.33121e-05	
281	6.456542e+05	1.675716e+00,	-6.47867e-05	
282	6.606934e+05	1.675716e+00,	-6.62958e-05	
283	6.760830e+05	1.675716e+00,	-6.78400e-05	
284	6.918310e+05	1.675716e+00,	-6.94201e-05	
285	7.079458e+05	1.675716e+00,	-7.10371e-05	
286	7.244360e+05	1.675716e+00,	-7.26917e-05	

Index   frequency       vop                             
--------------------------------------------------------------------------------
287	7.413102e+05	1.675716e+00,	-7.43849e-05	
288	7.585776e+05	1.675716e+00,	-7.61175e-05	
289	7.762471e+05	1.675716e+00,	-7.78904e-05	
290	7.943282e+05	1.675716e+00,	-7.97046e-05	
291	8.128305e+05	1.675716e+00,	-8.15611e-05	
292	8.317638e+05	1.675716e+00,	-8.34609e-05	
293	8.511380e+05	1.675716e+00,	-8.54049e-05	
294	8.709636e+05	1.675716e+00,	-8.73941e-05	
295	8.912509e+05	1.675716e+00,	-8.94297e-05	
296	9.120108e+05	1.675716e+00,	-9.15127e-05	
297	9.332543e+05	1.675716e+00,	-9.36442e-05	
298	9.549926e+05	1.675716e+00,	-9.58254e-05	
299	9.772372e+05	1.675716e+00,	-9.80573e-05	
300	1.000000e+06	1.675716e+00,	-1.00341e-04	
301	1.023293e+06	1.675716e+00,	-1.02678e-04	
302	1.047129e+06	1.675716e+00,	-1.05070e-04	
303	1.071519e+06	1.675716e+00,	-1.07517e-04	
304	1.096478e+06	1.675716e+00,	-1.10021e-04	
305	1.122018e+06	1.675716e+00,	-1.12584e-04	
306	1.148154e+06	1.675716e+00,	-1.15206e-04	
307	1.174898e+06	1.675716e+00,	-1.17890e-04	
308	1.202264e+06	1.675716e+00,	-1.20635e-04	
309	1.230269e+06	1.675716e+00,	-1.23445e-04	
310	1.258925e+06	1.675716e+00,	-1.26320e-04	
311	1.288250e+06	1.675716e+00,	-1.29262e-04	
312	1.318257e+06	1.675716e+00,	-1.32273e-04	
313	1.348963e+06	1.675716e+00,	-1.35354e-04	
314	1.380384e+06	1.675716e+00,	-1.38506e-04	
315	1.412538e+06	1.675716e+00,	-1.41732e-04	
316	1.445440e+06	1.675716e+00,	-1.45033e-04	
317	1.479108e+06	1.675716e+00,	-1.48411e-04	
318	1.513561e+06	1.675716e+00,	-1.51868e-04	
319	1.548817e+06	1.675716e+00,	-1.55405e-04	
320	1.584893e+06	1.675716e+00,	-1.59024e-04	
321	1.621810e+06	1.675716e+00,	-1.62728e-04	
322	1.659587e+06	1.675716e+00,	-1.66518e-04	
323	1.698244e+06	1.675716e+00,	-1.70396e-04	
324	1.737801e+06	1.675716e+00,	-1.74365e-04	
325	1.778279e+06	1.675716e+00,	-1.78426e-04	
326	1.819701e+06	1.675716e+00,	-1.82581e-04	
327	1.862087e+06	1.675716e+00,	-1.86834e-04	
328	1.905461e+06	1.675716e+00,	-1.91185e-04	
329	1.949845e+06	1.675716e+00,	-1.95638e-04	
330	1.995262e+06	1.675716e+00,	-2.00194e-04	
331	2.041738e+06	1.675716e+00,	-2.04857e-04	
332	2.089296e+06	1.675716e+00,	-2.09628e-04	
333	2.137962e+06	1.675716e+00,	-2.14510e-04	
334	2.187762e+06	1.675716e+00,	-2.19506e-04	
335	2.238721e+06	1.675716e+00,	-2.24618e-04	
336	2.290868e+06	1.675716e+00,	-2.29849e-04	
337	2.344229e+06	1.675716e+00,	-2.35202e-04	
338	2.398833e+06	1.675716e+00,	-2.40680e-04	
339	2.454709e+06	1.675716e+00,	-2.46285e-04	
340	2.511886e+06	1.675716e+00,	-2.52021e-04	
341	2.570396e+06	1.675716e+00,	-2.57890e-04	
342	2.630268e+06	1.675716e+00,	-2.63896e-04	
343	2.691535e+06	1.675716e+00,	-2.70043e-04	
344	2.754229e+06	1.675716e+00,	-2.76332e-04	

Index   frequency       vop                             
--------------------------------------------------------------------------------
345	2.818383e+06	1.675716e+00,	-2.82768e-04	
346	2.884032e+06	1.675716e+00,	-2.89353e-04	
347	2.951209e+06	1.675716e+00,	-2.96093e-04	
348	3.019952e+06	1.675716e+00,	-3.02989e-04	
349	3.090295e+06	1.675716e+00,	-3.10046e-04	
350	3.162278e+06	1.675716e+00,	-3.17267e-04	
351	3.235937e+06	1.675716e+00,	-3.24657e-04	
352	3.311311e+06	1.675716e+00,	-3.32219e-04	
353	3.388442e+06	1.675716e+00,	-3.39957e-04	
354	3.467369e+06	1.675716e+00,	-3.47876e-04	
355	3.548134e+06	1.675716e+00,	-3.55979e-04	
356	3.630781e+06	1.675716e+00,	-3.64272e-04	
357	3.715352e+06	1.675716e+00,	-3.72757e-04	
358	3.801894e+06	1.675716e+00,	-3.81441e-04	
359	3.890451e+06	1.675716e+00,	-3.90327e-04	
360	3.981072e+06	1.675716e+00,	-3.99421e-04	
361	4.073803e+06	1.675716e+00,	-4.08727e-04	
362	4.168694e+06	1.675716e+00,	-4.18250e-04	
363	4.265795e+06	1.675716e+00,	-4.27996e-04	
364	4.365158e+06	1.675716e+00,	-4.37969e-04	
365	4.466836e+06	1.675716e+00,	-4.48174e-04	
366	4.570882e+06	1.675716e+00,	-4.58618e-04	
367	4.677351e+06	1.675716e+00,	-4.69306e-04	
368	4.786301e+06	1.675717e+00,	-4.80244e-04	
369	4.897788e+06	1.675717e+00,	-4.91437e-04	
370	5.011872e+06	1.675717e+00,	-5.02892e-04	
371	5.128614e+06	1.675717e+00,	-5.14614e-04	
372	5.248075e+06	1.675717e+00,	-5.26609e-04	
373	5.370318e+06	1.675717e+00,	-5.38885e-04	
374	5.495409e+06	1.675717e+00,	-5.51448e-04	
375	5.623413e+06	1.675717e+00,	-5.64304e-04	
376	5.754399e+06	1.675717e+00,	-5.77461e-04	
377	5.888437e+06	1.675717e+00,	-5.90924e-04	
378	6.025596e+06	1.675717e+00,	-6.04702e-04	
379	6.165950e+06	1.675717e+00,	-6.18801e-04	
380	6.309573e+06	1.675717e+00,	-6.33230e-04	
381	6.456542e+06	1.675717e+00,	-6.47995e-04	
382	6.606934e+06	1.675717e+00,	-6.63105e-04	
383	6.760830e+06	1.675717e+00,	-6.78567e-04	
384	6.918310e+06	1.675717e+00,	-6.94390e-04	
385	7.079458e+06	1.675717e+00,	-7.10582e-04	
386	7.244360e+06	1.675717e+00,	-7.27151e-04	
387	7.413102e+06	1.675717e+00,	-7.44107e-04	
388	7.585776e+06	1.675717e+00,	-7.61458e-04	
389	7.762471e+06	1.675717e+00,	-7.79214e-04	
390	7.943282e+06	1.675717e+00,	-7.97383e-04	
391	8.128305e+06	1.675717e+00,	-8.15976e-04	
392	8.317638e+06	1.675717e+00,	-8.35001e-04	
393	8.511380e+06	1.675717e+00,	-8.54471e-04	
394	8.709636e+06	1.675717e+00,	-8.74393e-04	
395	8.912509e+06	1.675718e+00,	-8.94780e-04	
396	9.120108e+06	1.675718e+00,	-9.15641e-04	
397	9.332543e+06	1.675718e+00,	-9.36989e-04	
398	9.549926e+06	1.675718e+00,	-9.58833e-04	
399	9.772372e+06	1.675718e+00,	-9.81187e-04	
400	1.000000e+07	1.675718e+00,	-1.00406e-03	
401	1.023293e+07	1.675718e+00,	-1.02747e-03	
402	1.047129e+07	1.675718e+00,	-1.05142e-03	

Index   frequency       vop                             
--------------------------------------------------------------------------------
403	1.071519e+07	1.675718e+00,	-1.07593e-03	
404	1.096478e+07	1.675718e+00,	-1.10101e-03	
405	1.122018e+07	1.675718e+00,	-1.12667e-03	
406	1.148154e+07	1.675718e+00,	-1.15293e-03	
407	1.174898e+07	1.675718e+00,	-1.17981e-03	
408	1.202264e+07	1.675718e+00,	-1.20730e-03	
409	1.230269e+07	1.675718e+00,	-1.23544e-03	
410	1.258925e+07	1.675718e+00,	-1.26424e-03	
411	1.288250e+07	1.675719e+00,	-1.29370e-03	
412	1.318257e+07	1.675719e+00,	-1.32385e-03	
413	1.348963e+07	1.675719e+00,	-1.35471e-03	
414	1.380384e+07	1.675719e+00,	-1.38628e-03	
415	1.412538e+07	1.675719e+00,	-1.41858e-03	
416	1.445440e+07	1.675719e+00,	-1.45164e-03	
