** sch_path: /home/andylithia/openmpw/project-reisen-chip1/xschem/ota_wideband.sch
AC Analysis  Sun Oct 30 17:11:03  2022
--------------------------------------------------------------------------------
Index   frequency       vop                             
--------------------------------------------------------------------------------
0	1.000000e+03	2.450031e+00,	5.441540e-06	
1	1.023293e+03	2.450031e+00,	5.568289e-06	
2	1.047129e+03	2.450031e+00,	5.697992e-06	
3	1.071519e+03	2.450031e+00,	5.830715e-06	
4	1.096478e+03	2.450031e+00,	5.966530e-06	
5	1.122018e+03	2.450031e+00,	6.105508e-06	
6	1.148154e+03	2.450031e+00,	6.247723e-06	
7	1.174898e+03	2.450031e+00,	6.393252e-06	
8	1.202264e+03	2.450031e+00,	6.542170e-06	
9	1.230269e+03	2.450031e+00,	6.694556e-06	
10	1.258925e+03	2.450031e+00,	6.850493e-06	
11	1.288250e+03	2.450031e+00,	7.010061e-06	
12	1.318257e+03	2.450031e+00,	7.173346e-06	
13	1.348963e+03	2.450031e+00,	7.340435e-06	
14	1.380384e+03	2.450031e+00,	7.511416e-06	
15	1.412538e+03	2.450031e+00,	7.686379e-06	
16	1.445440e+03	2.450031e+00,	7.865418e-06	
17	1.479108e+03	2.450031e+00,	8.048627e-06	
18	1.513561e+03	2.450031e+00,	8.236104e-06	
19	1.548817e+03	2.450031e+00,	8.427947e-06	
20	1.584893e+03	2.450031e+00,	8.624259e-06	
21	1.621810e+03	2.450031e+00,	8.825144e-06	
22	1.659587e+03	2.450031e+00,	9.030708e-06	
23	1.698244e+03	2.450031e+00,	9.241060e-06	
24	1.737801e+03	2.450031e+00,	9.456312e-06	
25	1.778279e+03	2.450031e+00,	9.676578e-06	
26	1.819701e+03	2.450031e+00,	9.901974e-06	
27	1.862087e+03	2.450031e+00,	1.013262e-05	
28	1.905461e+03	2.450031e+00,	1.036864e-05	
29	1.949845e+03	2.450031e+00,	1.061016e-05	
30	1.995262e+03	2.450031e+00,	1.085730e-05	
31	2.041738e+03	2.450031e+00,	1.111020e-05	
32	2.089296e+03	2.450031e+00,	1.136899e-05	
33	2.137962e+03	2.450031e+00,	1.163381e-05	
34	2.187762e+03	2.450031e+00,	1.190479e-05	
35	2.238721e+03	2.450031e+00,	1.218209e-05	
36	2.290868e+03	2.450031e+00,	1.246585e-05	
37	2.344229e+03	2.450031e+00,	1.275621e-05	
38	2.398833e+03	2.450031e+00,	1.305334e-05	
39	2.454709e+03	2.450031e+00,	1.335740e-05	
40	2.511886e+03	2.450031e+00,	1.366853e-05	
41	2.570396e+03	2.450031e+00,	1.398691e-05	
42	2.630268e+03	2.450031e+00,	1.431271e-05	
43	2.691535e+03	2.450031e+00,	1.464609e-05	
44	2.754229e+03	2.450031e+00,	1.498724e-05	
45	2.818383e+03	2.450031e+00,	1.533634e-05	
46	2.884032e+03	2.450031e+00,	1.569357e-05	
47	2.951209e+03	2.450031e+00,	1.605912e-05	
48	3.019952e+03	2.450031e+00,	1.643319e-05	
49	3.090295e+03	2.450031e+00,	1.681597e-05	
50	3.162278e+03	2.450031e+00,	1.720766e-05	
51	3.235937e+03	2.450031e+00,	1.760848e-05	
52	3.311311e+03	2.450031e+00,	1.801863e-05	
53	3.388442e+03	2.450031e+00,	1.843834e-05	
54	3.467369e+03	2.450031e+00,	1.886782e-05	

Index   frequency       vop                             
--------------------------------------------------------------------------------
55	3.548134e+03	2.450031e+00,	1.930731e-05	
56	3.630781e+03	2.450031e+00,	1.975704e-05	
57	3.715352e+03	2.450031e+00,	2.021724e-05	
58	3.801894e+03	2.450031e+00,	2.068816e-05	
59	3.890451e+03	2.450031e+00,	2.117005e-05	
60	3.981072e+03	2.450031e+00,	2.166316e-05	
61	4.073803e+03	2.450031e+00,	2.216776e-05	
62	4.168694e+03	2.450031e+00,	2.268411e-05	
63	4.265795e+03	2.450031e+00,	2.321249e-05	
64	4.365158e+03	2.450031e+00,	2.375318e-05	
65	4.466836e+03	2.450031e+00,	2.430646e-05	
66	4.570882e+03	2.450031e+00,	2.487264e-05	
67	4.677351e+03	2.450031e+00,	2.545199e-05	
68	4.786301e+03	2.450031e+00,	2.604485e-05	
69	4.897788e+03	2.450031e+00,	2.665151e-05	
70	5.011872e+03	2.450031e+00,	2.727230e-05	
71	5.128614e+03	2.450031e+00,	2.790756e-05	
72	5.248075e+03	2.450031e+00,	2.855761e-05	
73	5.370318e+03	2.450031e+00,	2.922280e-05	
74	5.495409e+03	2.450031e+00,	2.990348e-05	
75	5.623413e+03	2.450031e+00,	3.060003e-05	
76	5.754399e+03	2.450031e+00,	3.131279e-05	
77	5.888437e+03	2.450031e+00,	3.204216e-05	
78	6.025596e+03	2.450031e+00,	3.278852e-05	
79	6.165950e+03	2.450031e+00,	3.355226e-05	
80	6.309573e+03	2.450031e+00,	3.433379e-05	
81	6.456542e+03	2.450031e+00,	3.513353e-05	
82	6.606934e+03	2.450031e+00,	3.595190e-05	
83	6.760830e+03	2.450031e+00,	3.678932e-05	
84	6.918310e+03	2.450031e+00,	3.764626e-05	
85	7.079458e+03	2.450031e+00,	3.852315e-05	
86	7.244360e+03	2.450031e+00,	3.942047e-05	
87	7.413102e+03	2.450031e+00,	4.033869e-05	
88	7.585776e+03	2.450031e+00,	4.127830e-05	
89	7.762471e+03	2.450031e+00,	4.223979e-05	
90	7.943282e+03	2.450031e+00,	4.322369e-05	
91	8.128305e+03	2.450031e+00,	4.423050e-05	
92	8.317638e+03	2.450031e+00,	4.526076e-05	
93	8.511380e+03	2.450031e+00,	4.631501e-05	
94	8.709636e+03	2.450031e+00,	4.739383e-05	
95	8.912509e+03	2.450031e+00,	4.849777e-05	
96	9.120108e+03	2.450031e+00,	4.962743e-05	
97	9.332543e+03	2.450031e+00,	5.078340e-05	
98	9.549926e+03	2.450031e+00,	5.196630e-05	
99	9.772372e+03	2.450031e+00,	5.317675e-05	
100	1.000000e+04	2.450031e+00,	5.441540e-05	
101	1.023293e+04	2.450031e+00,	5.568289e-05	
102	1.047129e+04	2.450031e+00,	5.697992e-05	
103	1.071519e+04	2.450031e+00,	5.830715e-05	
104	1.096478e+04	2.450031e+00,	5.966530e-05	
105	1.122018e+04	2.450031e+00,	6.105508e-05	
106	1.148154e+04	2.450031e+00,	6.247723e-05	
107	1.174898e+04	2.450031e+00,	6.393252e-05	
108	1.202264e+04	2.450031e+00,	6.542170e-05	
109	1.230269e+04	2.450031e+00,	6.694556e-05	
110	1.258925e+04	2.450031e+00,	6.850493e-05	
111	1.288250e+04	2.450031e+00,	7.010061e-05	
112	1.318257e+04	2.450031e+00,	7.173346e-05	

Index   frequency       vop                             
--------------------------------------------------------------------------------
113	1.348963e+04	2.450031e+00,	7.340435e-05	
114	1.380384e+04	2.450031e+00,	7.511416e-05	
115	1.412538e+04	2.450031e+00,	7.686379e-05	
116	1.445440e+04	2.450031e+00,	7.865418e-05	
117	1.479108e+04	2.450031e+00,	8.048627e-05	
118	1.513561e+04	2.450031e+00,	8.236104e-05	
119	1.548817e+04	2.450031e+00,	8.427947e-05	
120	1.584893e+04	2.450031e+00,	8.624259e-05	
121	1.621810e+04	2.450031e+00,	8.825144e-05	
122	1.659587e+04	2.450031e+00,	9.030708e-05	
123	1.698244e+04	2.450031e+00,	9.241060e-05	
124	1.737801e+04	2.450031e+00,	9.456312e-05	
125	1.778279e+04	2.450031e+00,	9.676578e-05	
126	1.819701e+04	2.450031e+00,	9.901974e-05	
127	1.862087e+04	2.450031e+00,	1.013262e-04	
128	1.905461e+04	2.450031e+00,	1.036864e-04	
129	1.949845e+04	2.450031e+00,	1.061016e-04	
130	1.995262e+04	2.450031e+00,	1.085730e-04	
131	2.041738e+04	2.450031e+00,	1.111020e-04	
132	2.089296e+04	2.450031e+00,	1.136899e-04	
133	2.137962e+04	2.450031e+00,	1.163381e-04	
134	2.187762e+04	2.450031e+00,	1.190479e-04	
135	2.238721e+04	2.450031e+00,	1.218209e-04	
136	2.290868e+04	2.450031e+00,	1.246585e-04	
137	2.344229e+04	2.450031e+00,	1.275621e-04	
138	2.398833e+04	2.450031e+00,	1.305334e-04	
139	2.454709e+04	2.450031e+00,	1.335740e-04	
140	2.511886e+04	2.450031e+00,	1.366853e-04	
141	2.570396e+04	2.450031e+00,	1.398691e-04	
142	2.630268e+04	2.450031e+00,	1.431271e-04	
143	2.691535e+04	2.450031e+00,	1.464609e-04	
144	2.754229e+04	2.450031e+00,	1.498724e-04	
145	2.818383e+04	2.450031e+00,	1.533634e-04	
146	2.884032e+04	2.450031e+00,	1.569357e-04	
147	2.951209e+04	2.450031e+00,	1.605912e-04	
148	3.019952e+04	2.450031e+00,	1.643319e-04	
149	3.090295e+04	2.450031e+00,	1.681596e-04	
150	3.162278e+04	2.450031e+00,	1.720766e-04	
151	3.235937e+04	2.450031e+00,	1.760848e-04	
152	3.311311e+04	2.450031e+00,	1.801863e-04	
153	3.388442e+04	2.450031e+00,	1.843834e-04	
154	3.467369e+04	2.450031e+00,	1.886782e-04	
155	3.548134e+04	2.450031e+00,	1.930731e-04	
156	3.630781e+04	2.450031e+00,	1.975704e-04	
157	3.715352e+04	2.450031e+00,	2.021724e-04	
158	3.801894e+04	2.450031e+00,	2.068816e-04	
159	3.890451e+04	2.450031e+00,	2.117004e-04	
160	3.981072e+04	2.450031e+00,	2.166316e-04	
161	4.073803e+04	2.450031e+00,	2.216776e-04	
162	4.168694e+04	2.450031e+00,	2.268411e-04	
163	4.265795e+04	2.450031e+00,	2.321249e-04	
164	4.365158e+04	2.450031e+00,	2.375318e-04	
165	4.466836e+04	2.450031e+00,	2.430646e-04	
166	4.570882e+04	2.450031e+00,	2.487263e-04	
167	4.677351e+04	2.450031e+00,	2.545199e-04	
168	4.786301e+04	2.450031e+00,	2.604484e-04	
169	4.897788e+04	2.450031e+00,	2.665151e-04	
170	5.011872e+04	2.450031e+00,	2.727230e-04	

Index   frequency       vop                             
--------------------------------------------------------------------------------
171	5.128614e+04	2.450031e+00,	2.790755e-04	
172	5.248075e+04	2.450031e+00,	2.855760e-04	
173	5.370318e+04	2.450031e+00,	2.922280e-04	
174	5.495409e+04	2.450031e+00,	2.990348e-04	
175	5.623413e+04	2.450031e+00,	3.060002e-04	
176	5.754399e+04	2.450031e+00,	3.131279e-04	
177	5.888437e+04	2.450031e+00,	3.204216e-04	
178	6.025596e+04	2.450031e+00,	3.278851e-04	
179	6.165950e+04	2.450031e+00,	3.355226e-04	
180	6.309573e+04	2.450031e+00,	3.433379e-04	
181	6.456542e+04	2.450031e+00,	3.513353e-04	
182	6.606934e+04	2.450031e+00,	3.595189e-04	
183	6.760830e+04	2.450031e+00,	3.678932e-04	
184	6.918310e+04	2.450031e+00,	3.764625e-04	
185	7.079458e+04	2.450031e+00,	3.852314e-04	
186	7.244360e+04	2.450031e+00,	3.942046e-04	
187	7.413102e+04	2.450031e+00,	4.033868e-04	
188	7.585776e+04	2.450031e+00,	4.127829e-04	
189	7.762471e+04	2.450031e+00,	4.223979e-04	
190	7.943282e+04	2.450031e+00,	4.322368e-04	
191	8.128305e+04	2.450031e+00,	4.423048e-04	
192	8.317638e+04	2.450031e+00,	4.526074e-04	
193	8.511380e+04	2.450031e+00,	4.631500e-04	
194	8.709636e+04	2.450031e+00,	4.739382e-04	
195	8.912509e+04	2.450031e+00,	4.849776e-04	
196	9.120108e+04	2.450031e+00,	4.962742e-04	
197	9.332543e+04	2.450031e+00,	5.078339e-04	
198	9.549926e+04	2.450031e+00,	5.196628e-04	
199	9.772372e+04	2.450032e+00,	5.317673e-04	
200	1.000000e+05	2.450032e+00,	5.441538e-04	
201	1.023293e+05	2.450032e+00,	5.568287e-04	
202	1.047129e+05	2.450032e+00,	5.697989e-04	
203	1.071519e+05	2.450032e+00,	5.830712e-04	
204	1.096478e+05	2.450032e+00,	5.966527e-04	
205	1.122018e+05	2.450032e+00,	6.105505e-04	
206	1.148154e+05	2.450032e+00,	6.247721e-04	
207	1.174898e+05	2.450032e+00,	6.393249e-04	
208	1.202264e+05	2.450032e+00,	6.542166e-04	
209	1.230269e+05	2.450032e+00,	6.694553e-04	
210	1.258925e+05	2.450032e+00,	6.850489e-04	
211	1.288250e+05	2.450032e+00,	7.010057e-04	
212	1.318257e+05	2.450032e+00,	7.173342e-04	
213	1.348963e+05	2.450032e+00,	7.340430e-04	
214	1.380384e+05	2.450032e+00,	7.511411e-04	
215	1.412538e+05	2.450032e+00,	7.686374e-04	
216	1.445440e+05	2.450032e+00,	7.865412e-04	
217	1.479108e+05	2.450032e+00,	8.048621e-04	
218	1.513561e+05	2.450032e+00,	8.236097e-04	
219	1.548817e+05	2.450032e+00,	8.427940e-04	
220	1.584893e+05	2.450032e+00,	8.624252e-04	
221	1.621810e+05	2.450032e+00,	8.825136e-04	
222	1.659587e+05	2.450032e+00,	9.030699e-04	
223	1.698244e+05	2.450032e+00,	9.241051e-04	
224	1.737801e+05	2.450032e+00,	9.456302e-04	
225	1.778279e+05	2.450032e+00,	9.676567e-04	
226	1.819701e+05	2.450032e+00,	9.901963e-04	
227	1.862087e+05	2.450032e+00,	1.013261e-03	
228	1.905461e+05	2.450033e+00,	1.036863e-03	

Index   frequency       vop                             
--------------------------------------------------------------------------------
229	1.949845e+05	2.450033e+00,	1.061014e-03	
230	1.995262e+05	2.450033e+00,	1.085728e-03	
231	2.041738e+05	2.450033e+00,	1.111018e-03	
232	2.089296e+05	2.450033e+00,	1.136897e-03	
233	2.137962e+05	2.450033e+00,	1.163379e-03	
234	2.187762e+05	2.450033e+00,	1.190477e-03	
235	2.238721e+05	2.450033e+00,	1.218207e-03	
236	2.290868e+05	2.450033e+00,	1.246582e-03	
237	2.344229e+05	2.450033e+00,	1.275619e-03	
238	2.398833e+05	2.450033e+00,	1.305332e-03	
239	2.454709e+05	2.450033e+00,	1.335737e-03	
240	2.511886e+05	2.450034e+00,	1.366850e-03	
241	2.570396e+05	2.450034e+00,	1.398688e-03	
242	2.630268e+05	2.450034e+00,	1.431267e-03	
243	2.691535e+05	2.450034e+00,	1.464606e-03	
244	2.754229e+05	2.450034e+00,	1.498720e-03	
245	2.818383e+05	2.450034e+00,	1.533630e-03	
246	2.884032e+05	2.450034e+00,	1.569353e-03	
247	2.951209e+05	2.450035e+00,	1.605907e-03	
248	3.019952e+05	2.450035e+00,	1.643313e-03	
249	3.090295e+05	2.450035e+00,	1.681591e-03	
250	3.162278e+05	2.450035e+00,	1.720760e-03	
251	3.235937e+05	2.450035e+00,	1.760841e-03	
252	3.311311e+05	2.450035e+00,	1.801856e-03	
253	3.388442e+05	2.450036e+00,	1.843826e-03	
254	3.467369e+05	2.450036e+00,	1.886774e-03	
255	3.548134e+05	2.450036e+00,	1.930723e-03	
256	3.630781e+05	2.450036e+00,	1.975694e-03	
257	3.715352e+05	2.450037e+00,	2.021714e-03	
258	3.801894e+05	2.450037e+00,	2.068805e-03	
259	3.890451e+05	2.450037e+00,	2.116993e-03	
260	3.981072e+05	2.450037e+00,	2.166304e-03	
261	4.073803e+05	2.450038e+00,	2.216763e-03	
262	4.168694e+05	2.450038e+00,	2.268397e-03	
263	4.265795e+05	2.450038e+00,	2.321234e-03	
264	4.365158e+05	2.450039e+00,	2.375302e-03	
265	4.466836e+05	2.450039e+00,	2.430629e-03	
266	4.570882e+05	2.450039e+00,	2.487245e-03	
267	4.677351e+05	2.450040e+00,	2.545180e-03	
268	4.786301e+05	2.450040e+00,	2.604464e-03	
269	4.897788e+05	2.450040e+00,	2.665128e-03	
270	5.011872e+05	2.450041e+00,	2.727206e-03	
271	5.128614e+05	2.450041e+00,	2.790730e-03	
272	5.248075e+05	2.450042e+00,	2.855733e-03	
273	5.370318e+05	2.450042e+00,	2.922250e-03	
274	5.495409e+05	2.450043e+00,	2.990317e-03	
275	5.623413e+05	2.450043e+00,	3.059968e-03	
276	5.754399e+05	2.450044e+00,	3.131243e-03	
277	5.888437e+05	2.450045e+00,	3.204177e-03	
278	6.025596e+05	2.450045e+00,	3.278810e-03	
279	6.165950e+05	2.450046e+00,	3.355181e-03	
280	6.309573e+05	2.450047e+00,	3.433331e-03	
281	6.456542e+05	2.450047e+00,	3.513301e-03	
282	6.606934e+05	2.450048e+00,	3.595134e-03	
283	6.760830e+05	2.450049e+00,	3.678873e-03	
284	6.918310e+05	2.450050e+00,	3.764562e-03	
285	7.079458e+05	2.450051e+00,	3.852247e-03	
286	7.244360e+05	2.450052e+00,	3.941974e-03	

Index   frequency       vop                             
--------------------------------------------------------------------------------
287	7.413102e+05	2.450053e+00,	4.033791e-03	
288	7.585776e+05	2.450054e+00,	4.127746e-03	
289	7.762471e+05	2.450055e+00,	4.223890e-03	
290	7.943282e+05	2.450056e+00,	4.322272e-03	
291	8.128305e+05	2.450057e+00,	4.422946e-03	
292	8.317638e+05	2.450058e+00,	4.525965e-03	
293	8.511380e+05	2.450059e+00,	4.631383e-03	
294	8.709636e+05	2.450061e+00,	4.739256e-03	
295	8.912509e+05	2.450062e+00,	4.849641e-03	
296	9.120108e+05	2.450064e+00,	4.962597e-03	
297	9.332543e+05	2.450065e+00,	5.078184e-03	
298	9.549926e+05	2.450067e+00,	5.196463e-03	
299	9.772372e+05	2.450068e+00,	5.317496e-03	
300	1.000000e+06	2.450070e+00,	5.441348e-03	
301	1.023293e+06	2.450072e+00,	5.568084e-03	
302	1.047129e+06	2.450074e+00,	5.697771e-03	
303	1.071519e+06	2.450076e+00,	5.830478e-03	
304	1.096478e+06	2.450078e+00,	5.966276e-03	
305	1.122018e+06	2.450080e+00,	6.105237e-03	
306	1.148154e+06	2.450083e+00,	6.247433e-03	
307	1.174898e+06	2.450085e+00,	6.392940e-03	
308	1.202264e+06	2.450087e+00,	6.541836e-03	
309	1.230269e+06	2.450090e+00,	6.694199e-03	
310	1.258925e+06	2.450093e+00,	6.850109e-03	
311	1.288250e+06	2.450096e+00,	7.009650e-03	
312	1.318257e+06	2.450099e+00,	7.172906e-03	
313	1.348963e+06	2.450102e+00,	7.339963e-03	
314	1.380384e+06	2.450105e+00,	7.510910e-03	
315	1.412538e+06	2.450109e+00,	7.685838e-03	
316	1.445440e+06	2.450113e+00,	7.864838e-03	
317	1.479108e+06	2.450116e+00,	8.048005e-03	
318	1.513561e+06	2.450120e+00,	8.235437e-03	
319	1.548817e+06	2.450125e+00,	8.427233e-03	
320	1.584893e+06	2.450129e+00,	8.623494e-03	
321	1.621810e+06	2.450134e+00,	8.824324e-03	
322	1.659587e+06	2.450138e+00,	9.029830e-03	
323	1.698244e+06	2.450144e+00,	9.240119e-03	
324	1.737801e+06	2.450149e+00,	9.455304e-03	
325	1.778279e+06	2.450154e+00,	9.675498e-03	
326	1.819701e+06	2.450160e+00,	9.900817e-03	
327	1.862087e+06	2.450166e+00,	1.013138e-02	
328	1.905461e+06	2.450173e+00,	1.036731e-02	
329	1.949845e+06	2.450179e+00,	1.060873e-02	
330	1.995262e+06	2.450186e+00,	1.085577e-02	
331	2.041738e+06	2.450194e+00,	1.110856e-02	
332	2.089296e+06	2.450201e+00,	1.136724e-02	
333	2.137962e+06	2.450209e+00,	1.163193e-02	
334	2.187762e+06	2.450218e+00,	1.190278e-02	
335	2.238721e+06	2.450226e+00,	1.217993e-02	
336	2.290868e+06	2.450236e+00,	1.246354e-02	
337	2.344229e+06	2.450245e+00,	1.275374e-02	
338	2.398833e+06	2.450255e+00,	1.305069e-02	
339	2.454709e+06	2.450266e+00,	1.335455e-02	
340	2.511886e+06	2.450277e+00,	1.366548e-02	
341	2.570396e+06	2.450289e+00,	1.398365e-02	
342	2.630268e+06	2.450301e+00,	1.430921e-02	
343	2.691535e+06	2.450313e+00,	1.464235e-02	
344	2.754229e+06	2.450327e+00,	1.498323e-02	

Index   frequency       vop                             
--------------------------------------------------------------------------------
345	2.818383e+06	2.450341e+00,	1.533204e-02	
346	2.884032e+06	2.450355e+00,	1.568896e-02	
347	2.951209e+06	2.450370e+00,	1.605418e-02	
348	3.019952e+06	2.450386e+00,	1.642790e-02	
349	3.090295e+06	2.450403e+00,	1.681030e-02	
350	3.162278e+06	2.450421e+00,	1.720158e-02	
351	3.235937e+06	2.450439e+00,	1.760197e-02	
352	3.311311e+06	2.450458e+00,	1.801166e-02	
353	3.388442e+06	2.450478e+00,	1.843086e-02	
354	3.467369e+06	2.450500e+00,	1.885981e-02	
355	3.548134e+06	2.450522e+00,	1.929873e-02	
356	3.630781e+06	2.450545e+00,	1.974784e-02	
357	3.715352e+06	2.450569e+00,	2.020738e-02	
358	3.801894e+06	2.450594e+00,	2.067760e-02	
359	3.890451e+06	2.450621e+00,	2.115873e-02	
360	3.981072e+06	2.450649e+00,	2.165104e-02	
361	4.073803e+06	2.450678e+00,	2.215477e-02	
362	4.168694e+06	2.450708e+00,	2.267019e-02	
363	4.265795e+06	2.450740e+00,	2.319758e-02	
364	4.365158e+06	2.450773e+00,	2.373720e-02	
365	4.466836e+06	2.450808e+00,	2.428934e-02	
366	4.570882e+06	2.450845e+00,	2.485429e-02	
367	4.677351e+06	2.450883e+00,	2.543233e-02	
368	4.786301e+06	2.450924e+00,	2.602378e-02	
369	4.897788e+06	2.450966e+00,	2.662893e-02	
370	5.011872e+06	2.451010e+00,	2.724811e-02	
371	5.128614e+06	2.451056e+00,	2.788164e-02	
372	5.248075e+06	2.451104e+00,	2.852983e-02	
373	5.370318e+06	2.451154e+00,	2.919304e-02	
374	5.495409e+06	2.451207e+00,	2.987160e-02	
375	5.623413e+06	2.451263e+00,	3.056586e-02	
376	5.754399e+06	2.451321e+00,	3.127618e-02	
377	5.888437e+06	2.451382e+00,	3.200293e-02	
378	6.025596e+06	2.451445e+00,	3.274648e-02	
379	6.165950e+06	2.451512e+00,	3.350722e-02	
380	6.309573e+06	2.451581e+00,	3.428553e-02	
381	6.456542e+06	2.451654e+00,	3.508181e-02	
382	6.606934e+06	2.451731e+00,	3.589648e-02	
383	6.760830e+06	2.451811e+00,	3.672994e-02	
384	6.918310e+06	2.451895e+00,	3.758263e-02	
385	7.079458e+06	2.451983e+00,	3.845497e-02	
386	7.244360e+06	2.452074e+00,	3.934741e-02	
387	7.413102e+06	2.452171e+00,	4.026041e-02	
388	7.585776e+06	2.452271e+00,	4.119441e-02	
389	7.762471e+06	2.452377e+00,	4.214991e-02	
390	7.943282e+06	2.452487e+00,	4.312737e-02	
391	8.128305e+06	2.452603e+00,	4.412729e-02	
392	8.317638e+06	2.452724e+00,	4.515017e-02	
393	8.511380e+06	2.452851e+00,	4.619652e-02	
394	8.709636e+06	2.452983e+00,	4.726686e-02	
395	8.912509e+06	2.453122e+00,	4.836172e-02	
396	9.120108e+06	2.453268e+00,	4.948164e-02	
397	9.332543e+06	2.453420e+00,	5.062718e-02	
398	9.549926e+06	2.453579e+00,	5.179891e-02	
399	9.772372e+06	2.453746e+00,	5.299738e-02	
400	1.000000e+07	2.453921e+00,	5.422320e-02	
401	1.023293e+07	2.454104e+00,	5.547694e-02	
402	1.047129e+07	2.454296e+00,	5.675923e-02	

Index   frequency       vop                             
--------------------------------------------------------------------------------
403	1.071519e+07	2.454496e+00,	5.807068e-02	
404	1.096478e+07	2.454706e+00,	5.941191e-02	
405	1.122018e+07	2.454926e+00,	6.078357e-02	
406	1.148154e+07	2.455156e+00,	6.218630e-02	
407	1.174898e+07	2.455397e+00,	6.362077e-02	
408	1.202264e+07	2.455649e+00,	6.508764e-02	
409	1.230269e+07	2.455913e+00,	6.658761e-02	
410	1.258925e+07	2.456189e+00,	6.812137e-02	
411	1.288250e+07	2.456479e+00,	6.968961e-02	
412	1.318257e+07	2.456782e+00,	7.129306e-02	
413	1.348963e+07	2.457099e+00,	7.293244e-02	
414	1.380384e+07	2.457431e+00,	7.460849e-02	
415	1.412538e+07	2.457778e+00,	7.632194e-02	
416	1.445440e+07	2.458142e+00,	7.807357e-02	
