** sch_path: /home/andylithia/openmpw/project-reisen-chip1/xschem/ota_wideband.sch
AC Analysis  Sun Oct 30 17:11:03  2022
--------------------------------------------------------------------------------
Index   frequency       vop                             
--------------------------------------------------------------------------------
0	1.000000e+03	3.209049e+00,	-6.50794e-07	
1	1.023293e+03	3.209049e+00,	-6.65953e-07	
2	1.047129e+03	3.209049e+00,	-6.81465e-07	
3	1.071519e+03	3.209049e+00,	-6.97339e-07	
4	1.096478e+03	3.209049e+00,	-7.13582e-07	
5	1.122018e+03	3.209049e+00,	-7.30203e-07	
6	1.148154e+03	3.209049e+00,	-7.47212e-07	
7	1.174898e+03	3.209049e+00,	-7.64617e-07	
8	1.202264e+03	3.209049e+00,	-7.82427e-07	
9	1.230269e+03	3.209049e+00,	-8.00652e-07	
10	1.258925e+03	3.209049e+00,	-8.19302e-07	
11	1.288250e+03	3.209049e+00,	-8.38386e-07	
12	1.318257e+03	3.209049e+00,	-8.57914e-07	
13	1.348963e+03	3.209049e+00,	-8.77897e-07	
14	1.380384e+03	3.209049e+00,	-8.98346e-07	
15	1.412538e+03	3.209049e+00,	-9.19271e-07	
16	1.445440e+03	3.209049e+00,	-9.40684e-07	
17	1.479108e+03	3.209049e+00,	-9.62595e-07	
18	1.513561e+03	3.209049e+00,	-9.85017e-07	
19	1.548817e+03	3.209049e+00,	-1.00796e-06	
20	1.584893e+03	3.209049e+00,	-1.03144e-06	
21	1.621810e+03	3.209049e+00,	-1.05546e-06	
22	1.659587e+03	3.209049e+00,	-1.08005e-06	
23	1.698244e+03	3.209049e+00,	-1.10521e-06	
24	1.737801e+03	3.209049e+00,	-1.13095e-06	
25	1.778279e+03	3.209049e+00,	-1.15729e-06	
26	1.819701e+03	3.209049e+00,	-1.18425e-06	
27	1.862087e+03	3.209049e+00,	-1.21184e-06	
28	1.905461e+03	3.209049e+00,	-1.24006e-06	
29	1.949845e+03	3.209049e+00,	-1.26895e-06	
30	1.995262e+03	3.209049e+00,	-1.29851e-06	
31	2.041738e+03	3.209049e+00,	-1.32875e-06	
32	2.089296e+03	3.209049e+00,	-1.35970e-06	
33	2.137962e+03	3.209049e+00,	-1.39137e-06	
34	2.187762e+03	3.209049e+00,	-1.42378e-06	
35	2.238721e+03	3.209049e+00,	-1.45695e-06	
36	2.290868e+03	3.209049e+00,	-1.49088e-06	
37	2.344229e+03	3.209049e+00,	-1.52561e-06	
38	2.398833e+03	3.209049e+00,	-1.56115e-06	
39	2.454709e+03	3.209049e+00,	-1.59751e-06	
40	2.511886e+03	3.209049e+00,	-1.63472e-06	
41	2.570396e+03	3.209049e+00,	-1.67280e-06	
42	2.630268e+03	3.209049e+00,	-1.71176e-06	
43	2.691535e+03	3.209049e+00,	-1.75164e-06	
44	2.754229e+03	3.209049e+00,	-1.79244e-06	
45	2.818383e+03	3.209049e+00,	-1.83419e-06	
46	2.884032e+03	3.209049e+00,	-1.87691e-06	
47	2.951209e+03	3.209049e+00,	-1.92063e-06	
48	3.019952e+03	3.209049e+00,	-1.96537e-06	
49	3.090295e+03	3.209049e+00,	-2.01115e-06	
50	3.162278e+03	3.209049e+00,	-2.05799e-06	
51	3.235937e+03	3.209049e+00,	-2.10593e-06	
52	3.311311e+03	3.209049e+00,	-2.15498e-06	
53	3.388442e+03	3.209049e+00,	-2.20518e-06	
54	3.467369e+03	3.209049e+00,	-2.25654e-06	

Index   frequency       vop                             
--------------------------------------------------------------------------------
55	3.548134e+03	3.209049e+00,	-2.30911e-06	
56	3.630781e+03	3.209049e+00,	-2.36289e-06	
57	3.715352e+03	3.209049e+00,	-2.41793e-06	
58	3.801894e+03	3.209049e+00,	-2.47425e-06	
59	3.890451e+03	3.209049e+00,	-2.53188e-06	
60	3.981072e+03	3.209049e+00,	-2.59086e-06	
61	4.073803e+03	3.209049e+00,	-2.65121e-06	
62	4.168694e+03	3.209049e+00,	-2.71296e-06	
63	4.265795e+03	3.209049e+00,	-2.77616e-06	
64	4.365158e+03	3.209049e+00,	-2.84082e-06	
65	4.466836e+03	3.209049e+00,	-2.90699e-06	
66	4.570882e+03	3.209049e+00,	-2.97470e-06	
67	4.677351e+03	3.209049e+00,	-3.04399e-06	
68	4.786301e+03	3.209049e+00,	-3.11490e-06	
69	4.897788e+03	3.209049e+00,	-3.18745e-06	
70	5.011872e+03	3.209049e+00,	-3.26170e-06	
71	5.128614e+03	3.209049e+00,	-3.33767e-06	
72	5.248075e+03	3.209049e+00,	-3.41542e-06	
73	5.370318e+03	3.209049e+00,	-3.49497e-06	
74	5.495409e+03	3.209049e+00,	-3.57638e-06	
75	5.623413e+03	3.209049e+00,	-3.65969e-06	
76	5.754399e+03	3.209049e+00,	-3.74493e-06	
77	5.888437e+03	3.209049e+00,	-3.83216e-06	
78	6.025596e+03	3.209049e+00,	-3.92142e-06	
79	6.165950e+03	3.209049e+00,	-4.01277e-06	
80	6.309573e+03	3.209049e+00,	-4.10623e-06	
81	6.456542e+03	3.209049e+00,	-4.20188e-06	
82	6.606934e+03	3.209049e+00,	-4.29976e-06	
83	6.760830e+03	3.209049e+00,	-4.39991e-06	
84	6.918310e+03	3.209049e+00,	-4.50240e-06	
85	7.079458e+03	3.209049e+00,	-4.60727e-06	
86	7.244360e+03	3.209049e+00,	-4.71459e-06	
87	7.413102e+03	3.209049e+00,	-4.82441e-06	
88	7.585776e+03	3.209049e+00,	-4.93678e-06	
89	7.762471e+03	3.209049e+00,	-5.05177e-06	
90	7.943282e+03	3.209049e+00,	-5.16944e-06	
91	8.128305e+03	3.209049e+00,	-5.28985e-06	
92	8.317638e+03	3.209049e+00,	-5.41307e-06	
93	8.511380e+03	3.209049e+00,	-5.53916e-06	
94	8.709636e+03	3.209049e+00,	-5.66818e-06	
95	8.912509e+03	3.209049e+00,	-5.80021e-06	
96	9.120108e+03	3.209049e+00,	-5.93531e-06	
97	9.332543e+03	3.209049e+00,	-6.07357e-06	
98	9.549926e+03	3.209049e+00,	-6.21504e-06	
99	9.772372e+03	3.209049e+00,	-6.35980e-06	
100	1.000000e+04	3.209049e+00,	-6.50794e-06	
101	1.023293e+04	3.209049e+00,	-6.65953e-06	
102	1.047129e+04	3.209049e+00,	-6.81465e-06	
103	1.071519e+04	3.209049e+00,	-6.97339e-06	
104	1.096478e+04	3.209049e+00,	-7.13582e-06	
105	1.122018e+04	3.209049e+00,	-7.30203e-06	
106	1.148154e+04	3.209049e+00,	-7.47212e-06	
107	1.174898e+04	3.209049e+00,	-7.64617e-06	
108	1.202264e+04	3.209049e+00,	-7.82427e-06	
109	1.230269e+04	3.209049e+00,	-8.00652e-06	
110	1.258925e+04	3.209049e+00,	-8.19302e-06	
111	1.288250e+04	3.209049e+00,	-8.38386e-06	
112	1.318257e+04	3.209049e+00,	-8.57914e-06	

Index   frequency       vop                             
--------------------------------------------------------------------------------
113	1.348963e+04	3.209049e+00,	-8.77897e-06	
114	1.380384e+04	3.209049e+00,	-8.98346e-06	
115	1.412538e+04	3.209049e+00,	-9.19271e-06	
116	1.445440e+04	3.209049e+00,	-9.40684e-06	
117	1.479108e+04	3.209049e+00,	-9.62595e-06	
118	1.513561e+04	3.209049e+00,	-9.85017e-06	
119	1.548817e+04	3.209049e+00,	-1.00796e-05	
120	1.584893e+04	3.209049e+00,	-1.03144e-05	
121	1.621810e+04	3.209049e+00,	-1.05546e-05	
122	1.659587e+04	3.209049e+00,	-1.08005e-05	
123	1.698244e+04	3.209049e+00,	-1.10521e-05	
124	1.737801e+04	3.209049e+00,	-1.13095e-05	
125	1.778279e+04	3.209049e+00,	-1.15729e-05	
126	1.819701e+04	3.209049e+00,	-1.18425e-05	
127	1.862087e+04	3.209049e+00,	-1.21184e-05	
128	1.905461e+04	3.209049e+00,	-1.24006e-05	
129	1.949845e+04	3.209049e+00,	-1.26895e-05	
130	1.995262e+04	3.209049e+00,	-1.29851e-05	
131	2.041738e+04	3.209049e+00,	-1.32875e-05	
132	2.089296e+04	3.209049e+00,	-1.35970e-05	
133	2.137962e+04	3.209049e+00,	-1.39137e-05	
134	2.187762e+04	3.209049e+00,	-1.42378e-05	
135	2.238721e+04	3.209049e+00,	-1.45695e-05	
136	2.290868e+04	3.209049e+00,	-1.49088e-05	
137	2.344229e+04	3.209049e+00,	-1.52561e-05	
138	2.398833e+04	3.209049e+00,	-1.56115e-05	
139	2.454709e+04	3.209049e+00,	-1.59751e-05	
140	2.511886e+04	3.209049e+00,	-1.63472e-05	
141	2.570396e+04	3.209049e+00,	-1.67280e-05	
142	2.630268e+04	3.209049e+00,	-1.71176e-05	
143	2.691535e+04	3.209049e+00,	-1.75164e-05	
144	2.754229e+04	3.209049e+00,	-1.79244e-05	
145	2.818383e+04	3.209049e+00,	-1.83419e-05	
146	2.884032e+04	3.209049e+00,	-1.87691e-05	
147	2.951209e+04	3.209049e+00,	-1.92063e-05	
148	3.019952e+04	3.209049e+00,	-1.96537e-05	
149	3.090295e+04	3.209049e+00,	-2.01115e-05	
150	3.162278e+04	3.209049e+00,	-2.05799e-05	
151	3.235937e+04	3.209049e+00,	-2.10593e-05	
152	3.311311e+04	3.209049e+00,	-2.15498e-05	
153	3.388442e+04	3.209049e+00,	-2.20518e-05	
154	3.467369e+04	3.209049e+00,	-2.25654e-05	
155	3.548134e+04	3.209049e+00,	-2.30911e-05	
156	3.630781e+04	3.209049e+00,	-2.36289e-05	
157	3.715352e+04	3.209049e+00,	-2.41793e-05	
158	3.801894e+04	3.209049e+00,	-2.47425e-05	
159	3.890451e+04	3.209049e+00,	-2.53188e-05	
160	3.981072e+04	3.209049e+00,	-2.59086e-05	
161	4.073803e+04	3.209049e+00,	-2.65121e-05	
162	4.168694e+04	3.209049e+00,	-2.71296e-05	
163	4.265795e+04	3.209049e+00,	-2.77616e-05	
164	4.365158e+04	3.209049e+00,	-2.84082e-05	
165	4.466836e+04	3.209049e+00,	-2.90699e-05	
166	4.570882e+04	3.209049e+00,	-2.97470e-05	
167	4.677351e+04	3.209049e+00,	-3.04399e-05	
168	4.786301e+04	3.209049e+00,	-3.11490e-05	
169	4.897788e+04	3.209049e+00,	-3.18745e-05	
170	5.011872e+04	3.209049e+00,	-3.26170e-05	

Index   frequency       vop                             
--------------------------------------------------------------------------------
171	5.128614e+04	3.209049e+00,	-3.33767e-05	
172	5.248075e+04	3.209049e+00,	-3.41542e-05	
173	5.370318e+04	3.209049e+00,	-3.49497e-05	
174	5.495409e+04	3.209049e+00,	-3.57638e-05	
175	5.623413e+04	3.209049e+00,	-3.65969e-05	
176	5.754399e+04	3.209049e+00,	-3.74493e-05	
177	5.888437e+04	3.209049e+00,	-3.83216e-05	
178	6.025596e+04	3.209049e+00,	-3.92142e-05	
179	6.165950e+04	3.209049e+00,	-4.01277e-05	
180	6.309573e+04	3.209049e+00,	-4.10623e-05	
181	6.456542e+04	3.209049e+00,	-4.20188e-05	
182	6.606934e+04	3.209049e+00,	-4.29976e-05	
183	6.760830e+04	3.209049e+00,	-4.39991e-05	
184	6.918310e+04	3.209049e+00,	-4.50240e-05	
185	7.079458e+04	3.209049e+00,	-4.60727e-05	
186	7.244360e+04	3.209049e+00,	-4.71459e-05	
187	7.413102e+04	3.209049e+00,	-4.82441e-05	
188	7.585776e+04	3.209049e+00,	-4.93678e-05	
189	7.762471e+04	3.209049e+00,	-5.05177e-05	
190	7.943282e+04	3.209049e+00,	-5.16944e-05	
191	8.128305e+04	3.209049e+00,	-5.28985e-05	
192	8.317638e+04	3.209049e+00,	-5.41307e-05	
193	8.511380e+04	3.209049e+00,	-5.53916e-05	
194	8.709636e+04	3.209049e+00,	-5.66818e-05	
195	8.912509e+04	3.209049e+00,	-5.80021e-05	
196	9.120108e+04	3.209049e+00,	-5.93531e-05	
197	9.332543e+04	3.209049e+00,	-6.07357e-05	
198	9.549926e+04	3.209049e+00,	-6.21504e-05	
199	9.772372e+04	3.209049e+00,	-6.35980e-05	
200	1.000000e+05	3.209049e+00,	-6.50794e-05	
201	1.023293e+05	3.209049e+00,	-6.65953e-05	
202	1.047129e+05	3.209049e+00,	-6.81465e-05	
203	1.071519e+05	3.209049e+00,	-6.97339e-05	
204	1.096478e+05	3.209049e+00,	-7.13582e-05	
205	1.122018e+05	3.209049e+00,	-7.30203e-05	
206	1.148154e+05	3.209049e+00,	-7.47212e-05	
207	1.174898e+05	3.209049e+00,	-7.64617e-05	
208	1.202264e+05	3.209049e+00,	-7.82427e-05	
209	1.230269e+05	3.209049e+00,	-8.00652e-05	
210	1.258925e+05	3.209049e+00,	-8.19302e-05	
211	1.288250e+05	3.209049e+00,	-8.38386e-05	
212	1.318257e+05	3.209049e+00,	-8.57914e-05	
213	1.348963e+05	3.209049e+00,	-8.77897e-05	
214	1.380384e+05	3.209049e+00,	-8.98346e-05	
215	1.412538e+05	3.209049e+00,	-9.19271e-05	
216	1.445440e+05	3.209049e+00,	-9.40684e-05	
217	1.479108e+05	3.209049e+00,	-9.62595e-05	
218	1.513561e+05	3.209049e+00,	-9.85017e-05	
219	1.548817e+05	3.209049e+00,	-1.00796e-04	
220	1.584893e+05	3.209049e+00,	-1.03144e-04	
221	1.621810e+05	3.209049e+00,	-1.05546e-04	
222	1.659587e+05	3.209049e+00,	-1.08005e-04	
223	1.698244e+05	3.209049e+00,	-1.10521e-04	
224	1.737801e+05	3.209049e+00,	-1.13095e-04	
225	1.778279e+05	3.209049e+00,	-1.15729e-04	
226	1.819701e+05	3.209049e+00,	-1.18425e-04	
227	1.862087e+05	3.209049e+00,	-1.21184e-04	
228	1.905461e+05	3.209049e+00,	-1.24006e-04	

Index   frequency       vop                             
--------------------------------------------------------------------------------
229	1.949845e+05	3.209049e+00,	-1.26895e-04	
230	1.995262e+05	3.209049e+00,	-1.29851e-04	
231	2.041738e+05	3.209049e+00,	-1.32875e-04	
232	2.089296e+05	3.209049e+00,	-1.35970e-04	
233	2.137962e+05	3.209049e+00,	-1.39137e-04	
234	2.187762e+05	3.209049e+00,	-1.42378e-04	
235	2.238721e+05	3.209049e+00,	-1.45695e-04	
236	2.290868e+05	3.209049e+00,	-1.49088e-04	
237	2.344229e+05	3.209049e+00,	-1.52561e-04	
238	2.398833e+05	3.209049e+00,	-1.56115e-04	
239	2.454709e+05	3.209049e+00,	-1.59751e-04	
240	2.511886e+05	3.209049e+00,	-1.63472e-04	
241	2.570396e+05	3.209049e+00,	-1.67280e-04	
242	2.630268e+05	3.209049e+00,	-1.71176e-04	
243	2.691535e+05	3.209049e+00,	-1.75164e-04	
244	2.754229e+05	3.209049e+00,	-1.79244e-04	
245	2.818383e+05	3.209049e+00,	-1.83419e-04	
246	2.884032e+05	3.209049e+00,	-1.87691e-04	
247	2.951209e+05	3.209049e+00,	-1.92063e-04	
248	3.019952e+05	3.209049e+00,	-1.96537e-04	
249	3.090295e+05	3.209049e+00,	-2.01115e-04	
250	3.162278e+05	3.209049e+00,	-2.05799e-04	
251	3.235937e+05	3.209049e+00,	-2.10593e-04	
252	3.311311e+05	3.209049e+00,	-2.15498e-04	
253	3.388442e+05	3.209049e+00,	-2.20518e-04	
254	3.467369e+05	3.209049e+00,	-2.25654e-04	
255	3.548134e+05	3.209049e+00,	-2.30911e-04	
256	3.630781e+05	3.209049e+00,	-2.36289e-04	
257	3.715352e+05	3.209049e+00,	-2.41793e-04	
258	3.801894e+05	3.209049e+00,	-2.47425e-04	
259	3.890451e+05	3.209049e+00,	-2.53188e-04	
260	3.981072e+05	3.209049e+00,	-2.59086e-04	
261	4.073803e+05	3.209049e+00,	-2.65121e-04	
262	4.168694e+05	3.209049e+00,	-2.71296e-04	
263	4.265795e+05	3.209049e+00,	-2.77615e-04	
264	4.365158e+05	3.209049e+00,	-2.84082e-04	
265	4.466836e+05	3.209049e+00,	-2.90699e-04	
266	4.570882e+05	3.209049e+00,	-2.97470e-04	
267	4.677351e+05	3.209049e+00,	-3.04399e-04	
268	4.786301e+05	3.209049e+00,	-3.11490e-04	
269	4.897788e+05	3.209049e+00,	-3.18745e-04	
270	5.011872e+05	3.209049e+00,	-3.26170e-04	
271	5.128614e+05	3.209049e+00,	-3.33767e-04	
272	5.248075e+05	3.209049e+00,	-3.41542e-04	
273	5.370318e+05	3.209049e+00,	-3.49497e-04	
274	5.495409e+05	3.209050e+00,	-3.57638e-04	
275	5.623413e+05	3.209050e+00,	-3.65968e-04	
276	5.754399e+05	3.209050e+00,	-3.74493e-04	
277	5.888437e+05	3.209050e+00,	-3.83216e-04	
278	6.025596e+05	3.209050e+00,	-3.92142e-04	
279	6.165950e+05	3.209050e+00,	-4.01276e-04	
280	6.309573e+05	3.209050e+00,	-4.10623e-04	
281	6.456542e+05	3.209050e+00,	-4.20188e-04	
282	6.606934e+05	3.209050e+00,	-4.29975e-04	
283	6.760830e+05	3.209050e+00,	-4.39991e-04	
284	6.918310e+05	3.209050e+00,	-4.50239e-04	
285	7.079458e+05	3.209050e+00,	-4.60727e-04	
286	7.244360e+05	3.209050e+00,	-4.71459e-04	

Index   frequency       vop                             
--------------------------------------------------------------------------------
287	7.413102e+05	3.209050e+00,	-4.82440e-04	
288	7.585776e+05	3.209050e+00,	-4.93678e-04	
289	7.762471e+05	3.209050e+00,	-5.05177e-04	
290	7.943282e+05	3.209050e+00,	-5.16944e-04	
291	8.128305e+05	3.209050e+00,	-5.28985e-04	
292	8.317638e+05	3.209050e+00,	-5.41307e-04	
293	8.511380e+05	3.209051e+00,	-5.53915e-04	
294	8.709636e+05	3.209051e+00,	-5.66818e-04	
295	8.912509e+05	3.209051e+00,	-5.80021e-04	
296	9.120108e+05	3.209051e+00,	-5.93531e-04	
297	9.332543e+05	3.209051e+00,	-6.07356e-04	
298	9.549926e+05	3.209051e+00,	-6.21503e-04	
299	9.772372e+05	3.209051e+00,	-6.35980e-04	
300	1.000000e+06	3.209051e+00,	-6.50794e-04	
301	1.023293e+06	3.209051e+00,	-6.65953e-04	
302	1.047129e+06	3.209051e+00,	-6.81465e-04	
303	1.071519e+06	3.209052e+00,	-6.97338e-04	
304	1.096478e+06	3.209052e+00,	-7.13581e-04	
305	1.122018e+06	3.209052e+00,	-7.30202e-04	
306	1.148154e+06	3.209052e+00,	-7.47211e-04	
307	1.174898e+06	3.209052e+00,	-7.64616e-04	
308	1.202264e+06	3.209052e+00,	-7.82426e-04	
309	1.230269e+06	3.209052e+00,	-8.00651e-04	
310	1.258925e+06	3.209053e+00,	-8.19300e-04	
311	1.288250e+06	3.209053e+00,	-8.38384e-04	
312	1.318257e+06	3.209053e+00,	-8.57913e-04	
313	1.348963e+06	3.209053e+00,	-8.77896e-04	
314	1.380384e+06	3.209053e+00,	-8.98345e-04	
315	1.412538e+06	3.209054e+00,	-9.19270e-04	
316	1.445440e+06	3.209054e+00,	-9.40682e-04	
317	1.479108e+06	3.209054e+00,	-9.62593e-04	
318	1.513561e+06	3.209054e+00,	-9.85015e-04	
319	1.548817e+06	3.209054e+00,	-1.00796e-03	
320	1.584893e+06	3.209055e+00,	-1.03144e-03	
321	1.621810e+06	3.209055e+00,	-1.05546e-03	
322	1.659587e+06	3.209055e+00,	-1.08005e-03	
323	1.698244e+06	3.209056e+00,	-1.10520e-03	
324	1.737801e+06	3.209056e+00,	-1.13095e-03	
325	1.778279e+06	3.209056e+00,	-1.15729e-03	
326	1.819701e+06	3.209057e+00,	-1.18425e-03	
327	1.862087e+06	3.209057e+00,	-1.21183e-03	
328	1.905461e+06	3.209057e+00,	-1.24006e-03	
329	1.949845e+06	3.209058e+00,	-1.26894e-03	
330	1.995262e+06	3.209058e+00,	-1.29850e-03	
331	2.041738e+06	3.209059e+00,	-1.32875e-03	
332	2.089296e+06	3.209059e+00,	-1.35970e-03	
333	2.137962e+06	3.209060e+00,	-1.39137e-03	
334	2.187762e+06	3.209060e+00,	-1.42378e-03	
335	2.238721e+06	3.209061e+00,	-1.45694e-03	
336	2.290868e+06	3.209061e+00,	-1.49088e-03	
337	2.344229e+06	3.209062e+00,	-1.52560e-03	
338	2.398833e+06	3.209062e+00,	-1.56114e-03	
339	2.454709e+06	3.209063e+00,	-1.59750e-03	
340	2.511886e+06	3.209064e+00,	-1.63471e-03	
341	2.570396e+06	3.209064e+00,	-1.67279e-03	
342	2.630268e+06	3.209065e+00,	-1.71175e-03	
343	2.691535e+06	3.209066e+00,	-1.75162e-03	
344	2.754229e+06	3.209067e+00,	-1.79242e-03	

Index   frequency       vop                             
--------------------------------------------------------------------------------
345	2.818383e+06	3.209067e+00,	-1.83417e-03	
346	2.884032e+06	3.209068e+00,	-1.87690e-03	
347	2.951209e+06	3.209069e+00,	-1.92061e-03	
348	3.019952e+06	3.209070e+00,	-1.96535e-03	
349	3.090295e+06	3.209071e+00,	-2.01113e-03	
350	3.162278e+06	3.209072e+00,	-2.05797e-03	
351	3.235937e+06	3.209073e+00,	-2.10591e-03	
352	3.311311e+06	3.209075e+00,	-2.15496e-03	
353	3.388442e+06	3.209076e+00,	-2.20516e-03	
354	3.467369e+06	3.209077e+00,	-2.25652e-03	
355	3.548134e+06	3.209078e+00,	-2.30908e-03	
356	3.630781e+06	3.209080e+00,	-2.36286e-03	
357	3.715352e+06	3.209081e+00,	-2.41790e-03	
358	3.801894e+06	3.209083e+00,	-2.47422e-03	
359	3.890451e+06	3.209084e+00,	-2.53185e-03	
360	3.981072e+06	3.209086e+00,	-2.59082e-03	
361	4.073803e+06	3.209088e+00,	-2.65117e-03	
362	4.168694e+06	3.209090e+00,	-2.71292e-03	
363	4.265795e+06	3.209092e+00,	-2.77611e-03	
364	4.365158e+06	3.209094e+00,	-2.84077e-03	
365	4.466836e+06	3.209096e+00,	-2.90694e-03	
366	4.570882e+06	3.209098e+00,	-2.97465e-03	
367	4.677351e+06	3.209100e+00,	-3.04394e-03	
368	4.786301e+06	3.209103e+00,	-3.11484e-03	
369	4.897788e+06	3.209105e+00,	-3.18739e-03	
370	5.011872e+06	3.209108e+00,	-3.26163e-03	
371	5.128614e+06	3.209111e+00,	-3.33760e-03	
372	5.248075e+06	3.209114e+00,	-3.41534e-03	
373	5.370318e+06	3.209117e+00,	-3.49489e-03	
374	5.495409e+06	3.209120e+00,	-3.57629e-03	
375	5.623413e+06	3.209123e+00,	-3.65959e-03	
376	5.754399e+06	3.209127e+00,	-3.74483e-03	
377	5.888437e+06	3.209130e+00,	-3.83205e-03	
378	6.025596e+06	3.209134e+00,	-3.92131e-03	
379	6.165950e+06	3.209138e+00,	-4.01264e-03	
380	6.309573e+06	3.209142e+00,	-4.10610e-03	
381	6.456542e+06	3.209147e+00,	-4.20174e-03	
382	6.606934e+06	3.209152e+00,	-4.29961e-03	
383	6.760830e+06	3.209156e+00,	-4.39975e-03	
384	6.918310e+06	3.209161e+00,	-4.50223e-03	
385	7.079458e+06	3.209167e+00,	-4.60709e-03	
386	7.244360e+06	3.209172e+00,	-4.71440e-03	
387	7.413102e+06	3.209178e+00,	-4.82420e-03	
388	7.585776e+06	3.209184e+00,	-4.93657e-03	
389	7.762471e+06	3.209191e+00,	-5.05155e-03	
390	7.943282e+06	3.209197e+00,	-5.16920e-03	
391	8.128305e+06	3.209204e+00,	-5.28960e-03	
392	8.317638e+06	3.209212e+00,	-5.41280e-03	
393	8.511380e+06	3.209220e+00,	-5.53888e-03	
394	8.709636e+06	3.209228e+00,	-5.66788e-03	
395	8.912509e+06	3.209236e+00,	-5.79990e-03	
396	9.120108e+06	3.209245e+00,	-5.93499e-03	
397	9.332543e+06	3.209254e+00,	-6.07322e-03	
398	9.549926e+06	3.209264e+00,	-6.21467e-03	
399	9.772372e+06	3.209274e+00,	-6.35942e-03	
400	1.000000e+07	3.209285e+00,	-6.50755e-03	
401	1.023293e+07	3.209296e+00,	-6.65912e-03	
402	1.047129e+07	3.209308e+00,	-6.81422e-03	

Index   frequency       vop                             
--------------------------------------------------------------------------------
403	1.071519e+07	3.209320e+00,	-6.97294e-03	
404	1.096478e+07	3.209333e+00,	-7.13535e-03	
405	1.122018e+07	3.209346e+00,	-7.30155e-03	
406	1.148154e+07	3.209360e+00,	-7.47162e-03	
407	1.174898e+07	3.209375e+00,	-7.64565e-03	
408	1.202264e+07	3.209391e+00,	-7.82374e-03	
409	1.230269e+07	3.209407e+00,	-8.00598e-03	
410	1.258925e+07	3.209424e+00,	-8.19247e-03	
411	1.288250e+07	3.209442e+00,	-8.38330e-03	
412	1.318257e+07	3.209461e+00,	-8.57859e-03	
413	1.348963e+07	3.209480e+00,	-8.77842e-03	
414	1.380384e+07	3.209501e+00,	-8.98292e-03	
415	1.412538e+07	3.209522e+00,	-9.19218e-03	
416	1.445440e+07	3.209545e+00,	-9.40633e-03	
