** sch_path: /home/andylithia/openmpw/project-reisen-chip1/xschem/ota_wideband.sch
AC Analysis  Sun Oct 30 17:11:03  2022
--------------------------------------------------------------------------------
Index   frequency       vop                             
--------------------------------------------------------------------------------
0	1.000000e+03	2.793544e+00,	2.137820e-06	
1	1.023293e+03	2.793544e+00,	2.187616e-06	
2	1.047129e+03	2.793544e+00,	2.238572e-06	
3	1.071519e+03	2.793544e+00,	2.290715e-06	
4	1.096478e+03	2.793544e+00,	2.344073e-06	
5	1.122018e+03	2.793544e+00,	2.398673e-06	
6	1.148154e+03	2.793544e+00,	2.454546e-06	
7	1.174898e+03	2.793544e+00,	2.511719e-06	
8	1.202264e+03	2.793544e+00,	2.570225e-06	
9	1.230269e+03	2.793544e+00,	2.630093e-06	
10	1.258925e+03	2.793544e+00,	2.691356e-06	
11	1.288250e+03	2.793544e+00,	2.754045e-06	
12	1.318257e+03	2.793544e+00,	2.818195e-06	
13	1.348963e+03	2.793544e+00,	2.883840e-06	
14	1.380384e+03	2.793544e+00,	2.951013e-06	
15	1.412538e+03	2.793544e+00,	3.019751e-06	
16	1.445440e+03	2.793544e+00,	3.090090e-06	
17	1.479108e+03	2.793544e+00,	3.162067e-06	
18	1.513561e+03	2.793544e+00,	3.235721e-06	
19	1.548817e+03	2.793544e+00,	3.311091e-06	
20	1.584893e+03	2.793544e+00,	3.388216e-06	
21	1.621810e+03	2.793544e+00,	3.467138e-06	
22	1.659587e+03	2.793544e+00,	3.547898e-06	
23	1.698244e+03	2.793544e+00,	3.630539e-06	
24	1.737801e+03	2.793544e+00,	3.715105e-06	
25	1.778279e+03	2.793544e+00,	3.801641e-06	
26	1.819701e+03	2.793544e+00,	3.890193e-06	
27	1.862087e+03	2.793544e+00,	3.980807e-06	
28	1.905461e+03	2.793544e+00,	4.073532e-06	
29	1.949845e+03	2.793544e+00,	4.168416e-06	
30	1.995262e+03	2.793544e+00,	4.265511e-06	
31	2.041738e+03	2.793544e+00,	4.364868e-06	
32	2.089296e+03	2.793544e+00,	4.466539e-06	
33	2.137962e+03	2.793544e+00,	4.570578e-06	
34	2.187762e+03	2.793544e+00,	4.677040e-06	
35	2.238721e+03	2.793544e+00,	4.785982e-06	
36	2.290868e+03	2.793544e+00,	4.897462e-06	
37	2.344229e+03	2.793544e+00,	5.011539e-06	
38	2.398833e+03	2.793544e+00,	5.128273e-06	
39	2.454709e+03	2.793544e+00,	5.247725e-06	
40	2.511886e+03	2.793544e+00,	5.369961e-06	
41	2.570396e+03	2.793544e+00,	5.495043e-06	
42	2.630268e+03	2.793544e+00,	5.623039e-06	
43	2.691535e+03	2.793544e+00,	5.754016e-06	
44	2.754229e+03	2.793544e+00,	5.888045e-06	
45	2.818383e+03	2.793544e+00,	6.025195e-06	
46	2.884032e+03	2.793544e+00,	6.165540e-06	
47	2.951209e+03	2.793544e+00,	6.309154e-06	
48	3.019952e+03	2.793544e+00,	6.456113e-06	
49	3.090295e+03	2.793544e+00,	6.606495e-06	
50	3.162278e+03	2.793544e+00,	6.760380e-06	
51	3.235937e+03	2.793544e+00,	6.917849e-06	
52	3.311311e+03	2.793544e+00,	7.078987e-06	
53	3.388442e+03	2.793544e+00,	7.243878e-06	
54	3.467369e+03	2.793544e+00,	7.412609e-06	

Index   frequency       vop                             
--------------------------------------------------------------------------------
55	3.548134e+03	2.793544e+00,	7.585271e-06	
56	3.630781e+03	2.793544e+00,	7.761955e-06	
57	3.715352e+03	2.793544e+00,	7.942754e-06	
58	3.801894e+03	2.793544e+00,	8.127764e-06	
59	3.890451e+03	2.793544e+00,	8.317084e-06	
60	3.981072e+03	2.793544e+00,	8.510814e-06	
61	4.073803e+03	2.793544e+00,	8.709056e-06	
62	4.168694e+03	2.793544e+00,	8.911916e-06	
63	4.265795e+03	2.793544e+00,	9.119502e-06	
64	4.365158e+03	2.793544e+00,	9.331922e-06	
65	4.466836e+03	2.793544e+00,	9.549290e-06	
66	4.570882e+03	2.793544e+00,	9.771722e-06	
67	4.677351e+03	2.793544e+00,	9.999335e-06	
68	4.786301e+03	2.793544e+00,	1.023225e-05	
69	4.897788e+03	2.793544e+00,	1.047059e-05	
70	5.011872e+03	2.793544e+00,	1.071448e-05	
71	5.128614e+03	2.793544e+00,	1.096405e-05	
72	5.248075e+03	2.793544e+00,	1.121944e-05	
73	5.370318e+03	2.793544e+00,	1.148077e-05	
74	5.495409e+03	2.793544e+00,	1.174819e-05	
75	5.623413e+03	2.793544e+00,	1.202184e-05	
76	5.754399e+03	2.793544e+00,	1.230187e-05	
77	5.888437e+03	2.793544e+00,	1.258842e-05	
78	6.025596e+03	2.793544e+00,	1.288164e-05	
79	6.165950e+03	2.793544e+00,	1.318169e-05	
80	6.309573e+03	2.793544e+00,	1.348873e-05	
81	6.456542e+03	2.793544e+00,	1.380292e-05	
82	6.606934e+03	2.793544e+00,	1.412444e-05	
83	6.760830e+03	2.793544e+00,	1.445344e-05	
84	6.918310e+03	2.793544e+00,	1.479010e-05	
85	7.079458e+03	2.793544e+00,	1.513461e-05	
86	7.244360e+03	2.793544e+00,	1.548714e-05	
87	7.413102e+03	2.793544e+00,	1.584788e-05	
88	7.585776e+03	2.793544e+00,	1.621702e-05	
89	7.762471e+03	2.793544e+00,	1.659476e-05	
90	7.943282e+03	2.793544e+00,	1.698131e-05	
91	8.128305e+03	2.793544e+00,	1.737685e-05	
92	8.317638e+03	2.793544e+00,	1.778161e-05	
93	8.511380e+03	2.793544e+00,	1.819580e-05	
94	8.709636e+03	2.793544e+00,	1.861963e-05	
95	8.912509e+03	2.793544e+00,	1.905334e-05	
96	9.120108e+03	2.793544e+00,	1.949715e-05	
97	9.332543e+03	2.793544e+00,	1.995130e-05	
98	9.549926e+03	2.793544e+00,	2.041602e-05	
99	9.772372e+03	2.793544e+00,	2.089157e-05	
100	1.000000e+04	2.793544e+00,	2.137820e-05	
101	1.023293e+04	2.793544e+00,	2.187616e-05	
102	1.047129e+04	2.793544e+00,	2.238572e-05	
103	1.071519e+04	2.793544e+00,	2.290715e-05	
104	1.096478e+04	2.793544e+00,	2.344073e-05	
105	1.122018e+04	2.793544e+00,	2.398673e-05	
106	1.148154e+04	2.793544e+00,	2.454546e-05	
107	1.174898e+04	2.793544e+00,	2.511719e-05	
108	1.202264e+04	2.793544e+00,	2.570225e-05	
109	1.230269e+04	2.793544e+00,	2.630093e-05	
110	1.258925e+04	2.793544e+00,	2.691356e-05	
111	1.288250e+04	2.793544e+00,	2.754045e-05	
112	1.318257e+04	2.793544e+00,	2.818195e-05	

Index   frequency       vop                             
--------------------------------------------------------------------------------
113	1.348963e+04	2.793544e+00,	2.883840e-05	
114	1.380384e+04	2.793544e+00,	2.951013e-05	
115	1.412538e+04	2.793544e+00,	3.019751e-05	
116	1.445440e+04	2.793544e+00,	3.090090e-05	
117	1.479108e+04	2.793544e+00,	3.162067e-05	
118	1.513561e+04	2.793544e+00,	3.235721e-05	
119	1.548817e+04	2.793544e+00,	3.311091e-05	
120	1.584893e+04	2.793544e+00,	3.388216e-05	
121	1.621810e+04	2.793544e+00,	3.467138e-05	
122	1.659587e+04	2.793544e+00,	3.547898e-05	
123	1.698244e+04	2.793544e+00,	3.630539e-05	
124	1.737801e+04	2.793544e+00,	3.715105e-05	
125	1.778279e+04	2.793544e+00,	3.801641e-05	
126	1.819701e+04	2.793544e+00,	3.890193e-05	
127	1.862087e+04	2.793544e+00,	3.980807e-05	
128	1.905461e+04	2.793544e+00,	4.073532e-05	
129	1.949845e+04	2.793544e+00,	4.168416e-05	
130	1.995262e+04	2.793544e+00,	4.265511e-05	
131	2.041738e+04	2.793544e+00,	4.364868e-05	
132	2.089296e+04	2.793544e+00,	4.466539e-05	
133	2.137962e+04	2.793544e+00,	4.570578e-05	
134	2.187762e+04	2.793544e+00,	4.677040e-05	
135	2.238721e+04	2.793544e+00,	4.785982e-05	
136	2.290868e+04	2.793544e+00,	4.897462e-05	
137	2.344229e+04	2.793544e+00,	5.011539e-05	
138	2.398833e+04	2.793544e+00,	5.128273e-05	
139	2.454709e+04	2.793545e+00,	5.247725e-05	
140	2.511886e+04	2.793545e+00,	5.369961e-05	
141	2.570396e+04	2.793545e+00,	5.495043e-05	
142	2.630268e+04	2.793545e+00,	5.623039e-05	
143	2.691535e+04	2.793545e+00,	5.754016e-05	
144	2.754229e+04	2.793545e+00,	5.888045e-05	
145	2.818383e+04	2.793545e+00,	6.025195e-05	
146	2.884032e+04	2.793545e+00,	6.165540e-05	
147	2.951209e+04	2.793545e+00,	6.309153e-05	
148	3.019952e+04	2.793545e+00,	6.456113e-05	
149	3.090295e+04	2.793545e+00,	6.606495e-05	
150	3.162278e+04	2.793545e+00,	6.760380e-05	
151	3.235937e+04	2.793545e+00,	6.917849e-05	
152	3.311311e+04	2.793545e+00,	7.078987e-05	
153	3.388442e+04	2.793545e+00,	7.243877e-05	
154	3.467369e+04	2.793545e+00,	7.412609e-05	
155	3.548134e+04	2.793545e+00,	7.585271e-05	
156	3.630781e+04	2.793545e+00,	7.761954e-05	
157	3.715352e+04	2.793545e+00,	7.942754e-05	
158	3.801894e+04	2.793545e+00,	8.127764e-05	
159	3.890451e+04	2.793545e+00,	8.317084e-05	
160	3.981072e+04	2.793545e+00,	8.510814e-05	
161	4.073803e+04	2.793545e+00,	8.709056e-05	
162	4.168694e+04	2.793545e+00,	8.911916e-05	
163	4.265795e+04	2.793545e+00,	9.119501e-05	
164	4.365158e+04	2.793545e+00,	9.331922e-05	
165	4.466836e+04	2.793545e+00,	9.549290e-05	
166	4.570882e+04	2.793545e+00,	9.771721e-05	
167	4.677351e+04	2.793545e+00,	9.999334e-05	
168	4.786301e+04	2.793545e+00,	1.023225e-04	
169	4.897788e+04	2.793545e+00,	1.047059e-04	
170	5.011872e+04	2.793545e+00,	1.071448e-04	

Index   frequency       vop                             
--------------------------------------------------------------------------------
171	5.128614e+04	2.793545e+00,	1.096405e-04	
172	5.248075e+04	2.793545e+00,	1.121944e-04	
173	5.370318e+04	2.793545e+00,	1.148077e-04	
174	5.495409e+04	2.793545e+00,	1.174819e-04	
175	5.623413e+04	2.793545e+00,	1.202184e-04	
176	5.754399e+04	2.793545e+00,	1.230187e-04	
177	5.888437e+04	2.793545e+00,	1.258842e-04	
178	6.025596e+04	2.793545e+00,	1.288164e-04	
179	6.165950e+04	2.793545e+00,	1.318169e-04	
180	6.309573e+04	2.793545e+00,	1.348873e-04	
181	6.456542e+04	2.793545e+00,	1.380292e-04	
182	6.606934e+04	2.793545e+00,	1.412443e-04	
183	6.760830e+04	2.793545e+00,	1.445343e-04	
184	6.918310e+04	2.793545e+00,	1.479010e-04	
185	7.079458e+04	2.793545e+00,	1.513460e-04	
186	7.244360e+04	2.793545e+00,	1.548713e-04	
187	7.413102e+04	2.793545e+00,	1.584788e-04	
188	7.585776e+04	2.793545e+00,	1.621702e-04	
189	7.762471e+04	2.793545e+00,	1.659476e-04	
190	7.943282e+04	2.793545e+00,	1.698130e-04	
191	8.128305e+04	2.793545e+00,	1.737685e-04	
192	8.317638e+04	2.793545e+00,	1.778161e-04	
193	8.511380e+04	2.793545e+00,	1.819579e-04	
194	8.709636e+04	2.793545e+00,	1.861963e-04	
195	8.912509e+04	2.793545e+00,	1.905334e-04	
196	9.120108e+04	2.793545e+00,	1.949714e-04	
197	9.332543e+04	2.793545e+00,	1.995129e-04	
198	9.549926e+04	2.793545e+00,	2.041602e-04	
199	9.772372e+04	2.793545e+00,	2.089157e-04	
200	1.000000e+05	2.793545e+00,	2.137819e-04	
201	1.023293e+05	2.793545e+00,	2.187615e-04	
202	1.047129e+05	2.793545e+00,	2.238572e-04	
203	1.071519e+05	2.793545e+00,	2.290715e-04	
204	1.096478e+05	2.793545e+00,	2.344072e-04	
205	1.122018e+05	2.793545e+00,	2.398673e-04	
206	1.148154e+05	2.793545e+00,	2.454545e-04	
207	1.174898e+05	2.793545e+00,	2.511718e-04	
208	1.202264e+05	2.793545e+00,	2.570224e-04	
209	1.230269e+05	2.793545e+00,	2.630092e-04	
210	1.258925e+05	2.793545e+00,	2.691355e-04	
211	1.288250e+05	2.793545e+00,	2.754044e-04	
212	1.318257e+05	2.793545e+00,	2.818194e-04	
213	1.348963e+05	2.793545e+00,	2.883838e-04	
214	1.380384e+05	2.793545e+00,	2.951011e-04	
215	1.412538e+05	2.793545e+00,	3.019749e-04	
216	1.445440e+05	2.793545e+00,	3.090088e-04	
217	1.479108e+05	2.793545e+00,	3.162066e-04	
218	1.513561e+05	2.793545e+00,	3.235719e-04	
219	1.548817e+05	2.793545e+00,	3.311089e-04	
220	1.584893e+05	2.793545e+00,	3.388214e-04	
221	1.621810e+05	2.793545e+00,	3.467136e-04	
222	1.659587e+05	2.793545e+00,	3.547895e-04	
223	1.698244e+05	2.793545e+00,	3.630536e-04	
224	1.737801e+05	2.793545e+00,	3.715102e-04	
225	1.778279e+05	2.793545e+00,	3.801638e-04	
226	1.819701e+05	2.793545e+00,	3.890189e-04	
227	1.862087e+05	2.793545e+00,	3.980803e-04	
228	1.905461e+05	2.793545e+00,	4.073528e-04	

Index   frequency       vop                             
--------------------------------------------------------------------------------
229	1.949845e+05	2.793545e+00,	4.168413e-04	
230	1.995262e+05	2.793545e+00,	4.265507e-04	
231	2.041738e+05	2.793545e+00,	4.364863e-04	
232	2.089296e+05	2.793545e+00,	4.466534e-04	
233	2.137962e+05	2.793545e+00,	4.570573e-04	
234	2.187762e+05	2.793545e+00,	4.677035e-04	
235	2.238721e+05	2.793545e+00,	4.785977e-04	
236	2.290868e+05	2.793545e+00,	4.897456e-04	
237	2.344229e+05	2.793545e+00,	5.011532e-04	
238	2.398833e+05	2.793545e+00,	5.128265e-04	
239	2.454709e+05	2.793545e+00,	5.247718e-04	
240	2.511886e+05	2.793545e+00,	5.369952e-04	
241	2.570396e+05	2.793546e+00,	5.495034e-04	
242	2.630268e+05	2.793546e+00,	5.623030e-04	
243	2.691535e+05	2.793546e+00,	5.754006e-04	
244	2.754229e+05	2.793546e+00,	5.888034e-04	
245	2.818383e+05	2.793546e+00,	6.025183e-04	
246	2.884032e+05	2.793546e+00,	6.165527e-04	
247	2.951209e+05	2.793546e+00,	6.309140e-04	
248	3.019952e+05	2.793546e+00,	6.456098e-04	
249	3.090295e+05	2.793546e+00,	6.606479e-04	
250	3.162278e+05	2.793546e+00,	6.760363e-04	
251	3.235937e+05	2.793546e+00,	6.917832e-04	
252	3.311311e+05	2.793546e+00,	7.078968e-04	
253	3.388442e+05	2.793546e+00,	7.243857e-04	
254	3.467369e+05	2.793546e+00,	7.412587e-04	
255	3.548134e+05	2.793546e+00,	7.585248e-04	
256	3.630781e+05	2.793547e+00,	7.761930e-04	
257	3.715352e+05	2.793547e+00,	7.942727e-04	
258	3.801894e+05	2.793547e+00,	8.127735e-04	
259	3.890451e+05	2.793547e+00,	8.317053e-04	
260	3.981072e+05	2.793547e+00,	8.510781e-04	
261	4.073803e+05	2.793547e+00,	8.709021e-04	
262	4.168694e+05	2.793547e+00,	8.911878e-04	
263	4.265795e+05	2.793547e+00,	9.119461e-04	
264	4.365158e+05	2.793548e+00,	9.331878e-04	
265	4.466836e+05	2.793548e+00,	9.549244e-04	
266	4.570882e+05	2.793548e+00,	9.771672e-04	
267	4.677351e+05	2.793548e+00,	9.999281e-04	
268	4.786301e+05	2.793548e+00,	1.023219e-03	
269	4.897788e+05	2.793548e+00,	1.047053e-03	
270	5.011872e+05	2.793548e+00,	1.071441e-03	
271	5.128614e+05	2.793549e+00,	1.096398e-03	
272	5.248075e+05	2.793549e+00,	1.121936e-03	
273	5.370318e+05	2.793549e+00,	1.148069e-03	
274	5.495409e+05	2.793549e+00,	1.174811e-03	
275	5.623413e+05	2.793549e+00,	1.202175e-03	
276	5.754399e+05	2.793550e+00,	1.230177e-03	
277	5.888437e+05	2.793550e+00,	1.258831e-03	
278	6.025596e+05	2.793550e+00,	1.288152e-03	
279	6.165950e+05	2.793551e+00,	1.318157e-03	
280	6.309573e+05	2.793551e+00,	1.348860e-03	
281	6.456542e+05	2.793551e+00,	1.380278e-03	
282	6.606934e+05	2.793551e+00,	1.412428e-03	
283	6.760830e+05	2.793552e+00,	1.445327e-03	
284	6.918310e+05	2.793552e+00,	1.478993e-03	
285	7.079458e+05	2.793552e+00,	1.513442e-03	
286	7.244360e+05	2.793553e+00,	1.548694e-03	

Index   frequency       vop                             
--------------------------------------------------------------------------------
287	7.413102e+05	2.793553e+00,	1.584766e-03	
288	7.585776e+05	2.793554e+00,	1.621679e-03	
289	7.762471e+05	2.793554e+00,	1.659452e-03	
290	7.943282e+05	2.793554e+00,	1.698104e-03	
291	8.128305e+05	2.793555e+00,	1.737657e-03	
292	8.317638e+05	2.793555e+00,	1.778131e-03	
293	8.511380e+05	2.793556e+00,	1.819547e-03	
294	8.709636e+05	2.793557e+00,	1.861929e-03	
295	8.912509e+05	2.793557e+00,	1.905297e-03	
296	9.120108e+05	2.793558e+00,	1.949675e-03	
297	9.332543e+05	2.793558e+00,	1.995087e-03	
298	9.549926e+05	2.793559e+00,	2.041556e-03	
299	9.772372e+05	2.793560e+00,	2.089108e-03	
300	1.000000e+06	2.793560e+00,	2.137767e-03	
301	1.023293e+06	2.793561e+00,	2.187560e-03	
302	1.047129e+06	2.793562e+00,	2.238512e-03	
303	1.071519e+06	2.793563e+00,	2.290651e-03	
304	1.096478e+06	2.793564e+00,	2.344004e-03	
305	1.122018e+06	2.793564e+00,	2.398599e-03	
306	1.148154e+06	2.793565e+00,	2.454466e-03	
307	1.174898e+06	2.793566e+00,	2.511634e-03	
308	1.202264e+06	2.793567e+00,	2.570134e-03	
309	1.230269e+06	2.793568e+00,	2.629995e-03	
310	1.258925e+06	2.793570e+00,	2.691251e-03	
311	1.288250e+06	2.793571e+00,	2.753933e-03	
312	1.318257e+06	2.793572e+00,	2.818075e-03	
313	1.348963e+06	2.793573e+00,	2.883711e-03	
314	1.380384e+06	2.793575e+00,	2.950875e-03	
315	1.412538e+06	2.793576e+00,	3.019603e-03	
316	1.445440e+06	2.793578e+00,	3.089931e-03	
317	1.479108e+06	2.793579e+00,	3.161897e-03	
318	1.513561e+06	2.793581e+00,	3.235539e-03	
319	1.548817e+06	2.793582e+00,	3.310896e-03	
320	1.584893e+06	2.793584e+00,	3.388007e-03	
321	1.621810e+06	2.793586e+00,	3.466914e-03	
322	1.659587e+06	2.793588e+00,	3.547658e-03	
323	1.698244e+06	2.793590e+00,	3.630282e-03	
324	1.737801e+06	2.793592e+00,	3.714830e-03	
325	1.778279e+06	2.793595e+00,	3.801346e-03	
326	1.819701e+06	2.793597e+00,	3.889876e-03	
327	1.862087e+06	2.793599e+00,	3.980468e-03	
328	1.905461e+06	2.793602e+00,	4.073169e-03	
329	1.949845e+06	2.793605e+00,	4.168027e-03	
330	1.995262e+06	2.793608e+00,	4.265094e-03	
331	2.041738e+06	2.793610e+00,	4.364421e-03	
332	2.089296e+06	2.793614e+00,	4.466060e-03	
333	2.137962e+06	2.793617e+00,	4.570065e-03	
334	2.187762e+06	2.793620e+00,	4.676490e-03	
335	2.238721e+06	2.793624e+00,	4.785393e-03	
336	2.290868e+06	2.793628e+00,	4.896831e-03	
337	2.344229e+06	2.793631e+00,	5.010863e-03	
338	2.398833e+06	2.793636e+00,	5.127548e-03	
339	2.454709e+06	2.793640e+00,	5.246949e-03	
340	2.511886e+06	2.793644e+00,	5.369128e-03	
341	2.570396e+06	2.793649e+00,	5.494151e-03	
342	2.630268e+06	2.793654e+00,	5.622084e-03	
343	2.691535e+06	2.793659e+00,	5.752993e-03	
344	2.754229e+06	2.793665e+00,	5.886948e-03	

Index   frequency       vop                             
--------------------------------------------------------------------------------
345	2.818383e+06	2.793670e+00,	6.024019e-03	
346	2.884032e+06	2.793676e+00,	6.164280e-03	
347	2.951209e+06	2.793682e+00,	6.307804e-03	
348	3.019952e+06	2.793689e+00,	6.454666e-03	
349	3.090295e+06	2.793696e+00,	6.604945e-03	
350	3.162278e+06	2.793703e+00,	6.758719e-03	
351	3.235937e+06	2.793710e+00,	6.916070e-03	
352	3.311311e+06	2.793718e+00,	7.077080e-03	
353	3.388442e+06	2.793726e+00,	7.241834e-03	
354	3.467369e+06	2.793735e+00,	7.410420e-03	
355	3.548134e+06	2.793744e+00,	7.582925e-03	
356	3.630781e+06	2.793753e+00,	7.759441e-03	
357	3.715352e+06	2.793763e+00,	7.940060e-03	
358	3.801894e+06	2.793773e+00,	8.124877e-03	
359	3.890451e+06	2.793784e+00,	8.313991e-03	
360	3.981072e+06	2.793795e+00,	8.507499e-03	
361	4.073803e+06	2.793807e+00,	8.705504e-03	
362	4.168694e+06	2.793820e+00,	8.908110e-03	
363	4.265795e+06	2.793833e+00,	9.115423e-03	
364	4.365158e+06	2.793846e+00,	9.327551e-03	
365	4.466836e+06	2.793860e+00,	9.544607e-03	
366	4.570882e+06	2.793875e+00,	9.766703e-03	
367	4.677351e+06	2.793891e+00,	9.993956e-03	
368	4.786301e+06	2.793907e+00,	1.022649e-02	
369	4.897788e+06	2.793924e+00,	1.046441e-02	
370	5.011872e+06	2.793942e+00,	1.070786e-02	
371	5.128614e+06	2.793961e+00,	1.095696e-02	
372	5.248075e+06	2.793981e+00,	1.121184e-02	
373	5.370318e+06	2.794001e+00,	1.147263e-02	
374	5.495409e+06	2.794023e+00,	1.173947e-02	
375	5.623413e+06	2.794045e+00,	1.201249e-02	
376	5.754399e+06	2.794069e+00,	1.229185e-02	
377	5.888437e+06	2.794093e+00,	1.257768e-02	
378	6.025596e+06	2.794119e+00,	1.287013e-02	
379	6.165950e+06	2.794146e+00,	1.316936e-02	
380	6.309573e+06	2.794175e+00,	1.347551e-02	
381	6.456542e+06	2.794205e+00,	1.378876e-02	
382	6.606934e+06	2.794236e+00,	1.410926e-02	
383	6.760830e+06	2.794268e+00,	1.443717e-02	
384	6.918310e+06	2.794302e+00,	1.477267e-02	
385	7.079458e+06	2.794338e+00,	1.511592e-02	
386	7.244360e+06	2.794375e+00,	1.546711e-02	
387	7.413102e+06	2.794415e+00,	1.582642e-02	
388	7.585776e+06	2.794456e+00,	1.619403e-02	
389	7.762471e+06	2.794499e+00,	1.657012e-02	
390	7.943282e+06	2.794544e+00,	1.695490e-02	
391	8.128305e+06	2.794591e+00,	1.734855e-02	
392	8.317638e+06	2.794640e+00,	1.775127e-02	
393	8.511380e+06	2.794692e+00,	1.816329e-02	
394	8.709636e+06	2.794746e+00,	1.858479e-02	
395	8.912509e+06	2.794802e+00,	1.901599e-02	
396	9.120108e+06	2.794861e+00,	1.945712e-02	
397	9.332543e+06	2.794924e+00,	1.990840e-02	
398	9.549926e+06	2.794989e+00,	2.037004e-02	
399	9.772372e+06	2.795057e+00,	2.084229e-02	
400	1.000000e+07	2.795128e+00,	2.132538e-02	
401	1.023293e+07	2.795202e+00,	2.181955e-02	
402	1.047129e+07	2.795281e+00,	2.232504e-02	

Index   frequency       vop                             
--------------------------------------------------------------------------------
403	1.071519e+07	2.795362e+00,	2.284211e-02	
404	1.096478e+07	2.795448e+00,	2.337101e-02	
405	1.122018e+07	2.795538e+00,	2.391200e-02	
406	1.148154e+07	2.795632e+00,	2.446535e-02	
407	1.174898e+07	2.795730e+00,	2.503133e-02	
408	1.202264e+07	2.795833e+00,	2.561021e-02	
409	1.230269e+07	2.795941e+00,	2.620227e-02	
410	1.258925e+07	2.796054e+00,	2.680779e-02	
411	1.288250e+07	2.796172e+00,	2.742707e-02	
412	1.318257e+07	2.796296e+00,	2.806041e-02	
413	1.348963e+07	2.796426e+00,	2.870809e-02	
414	1.380384e+07	2.796562e+00,	2.937044e-02	
415	1.412538e+07	2.796704e+00,	3.004775e-02	
416	1.445440e+07	2.796853e+00,	3.074034e-02	
