** sch_path: /home/andylithia/openmpw/project-reisen-chip1/xschem/ota_wideband.sch
AC Analysis  Sun Oct 30 17:11:03  2022
--------------------------------------------------------------------------------
Index   frequency       vop                             
--------------------------------------------------------------------------------
0	1.000000e+03	2.661794e+00,	3.298171e-06	
1	1.023293e+03	2.661794e+00,	3.374995e-06	
2	1.047129e+03	2.661794e+00,	3.453609e-06	
3	1.071519e+03	2.661794e+00,	3.534054e-06	
4	1.096478e+03	2.661794e+00,	3.616372e-06	
5	1.122018e+03	2.661794e+00,	3.700608e-06	
6	1.148154e+03	2.661794e+00,	3.786807e-06	
7	1.174898e+03	2.661794e+00,	3.875013e-06	
8	1.202264e+03	2.661794e+00,	3.965273e-06	
9	1.230269e+03	2.661794e+00,	4.057636e-06	
10	1.258925e+03	2.661794e+00,	4.152151e-06	
11	1.288250e+03	2.661794e+00,	4.248867e-06	
12	1.318257e+03	2.661794e+00,	4.347836e-06	
13	1.348963e+03	2.661794e+00,	4.449110e-06	
14	1.380384e+03	2.661794e+00,	4.552743e-06	
15	1.412538e+03	2.661794e+00,	4.658790e-06	
16	1.445440e+03	2.661794e+00,	4.767307e-06	
17	1.479108e+03	2.661794e+00,	4.878352e-06	
18	1.513561e+03	2.661794e+00,	4.991983e-06	
19	1.548817e+03	2.661794e+00,	5.108262e-06	
20	1.584893e+03	2.661794e+00,	5.227248e-06	
21	1.621810e+03	2.661794e+00,	5.349006e-06	
22	1.659587e+03	2.661794e+00,	5.473601e-06	
23	1.698244e+03	2.661794e+00,	5.601097e-06	
24	1.737801e+03	2.661794e+00,	5.731564e-06	
25	1.778279e+03	2.661794e+00,	5.865069e-06	
26	1.819701e+03	2.661794e+00,	6.001684e-06	
27	1.862087e+03	2.661794e+00,	6.141481e-06	
28	1.905461e+03	2.661794e+00,	6.284535e-06	
29	1.949845e+03	2.661794e+00,	6.430920e-06	
30	1.995262e+03	2.661794e+00,	6.580716e-06	
31	2.041738e+03	2.661794e+00,	6.734000e-06	
32	2.089296e+03	2.661794e+00,	6.890855e-06	
33	2.137962e+03	2.661794e+00,	7.051364e-06	
34	2.187762e+03	2.661794e+00,	7.215611e-06	
35	2.238721e+03	2.661794e+00,	7.383684e-06	
36	2.290868e+03	2.661794e+00,	7.555672e-06	
37	2.344229e+03	2.661794e+00,	7.731667e-06	
38	2.398833e+03	2.661794e+00,	7.911760e-06	
39	2.454709e+03	2.661794e+00,	8.096049e-06	
40	2.511886e+03	2.661794e+00,	8.284630e-06	
41	2.570396e+03	2.661794e+00,	8.477604e-06	
42	2.630268e+03	2.661794e+00,	8.675073e-06	
43	2.691535e+03	2.661794e+00,	8.877141e-06	
44	2.754229e+03	2.661794e+00,	9.083916e-06	
45	2.818383e+03	2.661794e+00,	9.295508e-06	
46	2.884032e+03	2.661794e+00,	9.512028e-06	
47	2.951209e+03	2.661794e+00,	9.733592e-06	
48	3.019952e+03	2.661794e+00,	9.960316e-06	
49	3.090295e+03	2.661794e+00,	1.019232e-05	
50	3.162278e+03	2.661794e+00,	1.042973e-05	
51	3.235937e+03	2.661794e+00,	1.067267e-05	
52	3.311311e+03	2.661794e+00,	1.092127e-05	
53	3.388442e+03	2.661794e+00,	1.117566e-05	
54	3.467369e+03	2.661794e+00,	1.143597e-05	

Index   frequency       vop                             
--------------------------------------------------------------------------------
55	3.548134e+03	2.661794e+00,	1.170235e-05	
56	3.630781e+03	2.661794e+00,	1.197493e-05	
57	3.715352e+03	2.661794e+00,	1.225387e-05	
58	3.801894e+03	2.661794e+00,	1.253930e-05	
59	3.890451e+03	2.661794e+00,	1.283137e-05	
60	3.981072e+03	2.661794e+00,	1.313025e-05	
61	4.073803e+03	2.661794e+00,	1.343610e-05	
62	4.168694e+03	2.661794e+00,	1.374906e-05	
63	4.265795e+03	2.661794e+00,	1.406932e-05	
64	4.365158e+03	2.661794e+00,	1.439704e-05	
65	4.466836e+03	2.661794e+00,	1.473239e-05	
66	4.570882e+03	2.661794e+00,	1.507555e-05	
67	4.677351e+03	2.661794e+00,	1.542670e-05	
68	4.786301e+03	2.661794e+00,	1.578604e-05	
69	4.897788e+03	2.661794e+00,	1.615374e-05	
70	5.011872e+03	2.661794e+00,	1.653001e-05	
71	5.128614e+03	2.661794e+00,	1.691504e-05	
72	5.248075e+03	2.661794e+00,	1.730905e-05	
73	5.370318e+03	2.661794e+00,	1.771223e-05	
74	5.495409e+03	2.661794e+00,	1.812480e-05	
75	5.623413e+03	2.661794e+00,	1.854698e-05	
76	5.754399e+03	2.661794e+00,	1.897899e-05	
77	5.888437e+03	2.661794e+00,	1.942107e-05	
78	6.025596e+03	2.661794e+00,	1.987344e-05	
79	6.165950e+03	2.661794e+00,	2.033636e-05	
80	6.309573e+03	2.661794e+00,	2.081005e-05	
81	6.456542e+03	2.661794e+00,	2.129478e-05	
82	6.606934e+03	2.661794e+00,	2.179080e-05	
83	6.760830e+03	2.661794e+00,	2.229837e-05	
84	6.918310e+03	2.661794e+00,	2.281777e-05	
85	7.079458e+03	2.661794e+00,	2.334926e-05	
86	7.244360e+03	2.661794e+00,	2.389313e-05	
87	7.413102e+03	2.661794e+00,	2.444968e-05	
88	7.585776e+03	2.661794e+00,	2.501918e-05	
89	7.762471e+03	2.661794e+00,	2.560195e-05	
90	7.943282e+03	2.661794e+00,	2.619830e-05	
91	8.128305e+03	2.661794e+00,	2.680854e-05	
92	8.317638e+03	2.661794e+00,	2.743299e-05	
93	8.511380e+03	2.661794e+00,	2.807198e-05	
94	8.709636e+03	2.661794e+00,	2.872587e-05	
95	8.912509e+03	2.661794e+00,	2.939498e-05	
96	9.120108e+03	2.661794e+00,	3.007967e-05	
97	9.332543e+03	2.661794e+00,	3.078032e-05	
98	9.549926e+03	2.661794e+00,	3.149729e-05	
99	9.772372e+03	2.661794e+00,	3.223095e-05	
100	1.000000e+04	2.661794e+00,	3.298171e-05	
101	1.023293e+04	2.661794e+00,	3.374995e-05	
102	1.047129e+04	2.661794e+00,	3.453609e-05	
103	1.071519e+04	2.661794e+00,	3.534054e-05	
104	1.096478e+04	2.661794e+00,	3.616372e-05	
105	1.122018e+04	2.661794e+00,	3.700608e-05	
106	1.148154e+04	2.661794e+00,	3.786807e-05	
107	1.174898e+04	2.661794e+00,	3.875013e-05	
108	1.202264e+04	2.661794e+00,	3.965273e-05	
109	1.230269e+04	2.661794e+00,	4.057636e-05	
110	1.258925e+04	2.661794e+00,	4.152151e-05	
111	1.288250e+04	2.661794e+00,	4.248867e-05	
112	1.318257e+04	2.661794e+00,	4.347836e-05	

Index   frequency       vop                             
--------------------------------------------------------------------------------
113	1.348963e+04	2.661794e+00,	4.449110e-05	
114	1.380384e+04	2.661794e+00,	4.552743e-05	
115	1.412538e+04	2.661794e+00,	4.658790e-05	
116	1.445440e+04	2.661794e+00,	4.767307e-05	
117	1.479108e+04	2.661794e+00,	4.878352e-05	
118	1.513561e+04	2.661794e+00,	4.991983e-05	
119	1.548817e+04	2.661794e+00,	5.108261e-05	
120	1.584893e+04	2.661794e+00,	5.227248e-05	
121	1.621810e+04	2.661794e+00,	5.349006e-05	
122	1.659587e+04	2.661794e+00,	5.473601e-05	
123	1.698244e+04	2.661794e+00,	5.601097e-05	
124	1.737801e+04	2.661794e+00,	5.731564e-05	
125	1.778279e+04	2.661794e+00,	5.865069e-05	
126	1.819701e+04	2.661794e+00,	6.001684e-05	
127	1.862087e+04	2.661794e+00,	6.141481e-05	
128	1.905461e+04	2.661794e+00,	6.284535e-05	
129	1.949845e+04	2.661794e+00,	6.430920e-05	
130	1.995262e+04	2.661794e+00,	6.580716e-05	
131	2.041738e+04	2.661794e+00,	6.734000e-05	
132	2.089296e+04	2.661794e+00,	6.890855e-05	
133	2.137962e+04	2.661794e+00,	7.051364e-05	
134	2.187762e+04	2.661794e+00,	7.215611e-05	
135	2.238721e+04	2.661794e+00,	7.383684e-05	
136	2.290868e+04	2.661794e+00,	7.555672e-05	
137	2.344229e+04	2.661794e+00,	7.731667e-05	
138	2.398833e+04	2.661794e+00,	7.911760e-05	
139	2.454709e+04	2.661794e+00,	8.096049e-05	
140	2.511886e+04	2.661794e+00,	8.284630e-05	
141	2.570396e+04	2.661794e+00,	8.477604e-05	
142	2.630268e+04	2.661794e+00,	8.675073e-05	
143	2.691535e+04	2.661794e+00,	8.877141e-05	
144	2.754229e+04	2.661794e+00,	9.083916e-05	
145	2.818383e+04	2.661794e+00,	9.295508e-05	
146	2.884032e+04	2.661794e+00,	9.512028e-05	
147	2.951209e+04	2.661794e+00,	9.733591e-05	
148	3.019952e+04	2.661794e+00,	9.960316e-05	
149	3.090295e+04	2.661794e+00,	1.019232e-04	
150	3.162278e+04	2.661794e+00,	1.042973e-04	
151	3.235937e+04	2.661794e+00,	1.067267e-04	
152	3.311311e+04	2.661794e+00,	1.092127e-04	
153	3.388442e+04	2.661794e+00,	1.117566e-04	
154	3.467369e+04	2.661794e+00,	1.143597e-04	
155	3.548134e+04	2.661794e+00,	1.170235e-04	
156	3.630781e+04	2.661794e+00,	1.197493e-04	
157	3.715352e+04	2.661794e+00,	1.225387e-04	
158	3.801894e+04	2.661794e+00,	1.253929e-04	
159	3.890451e+04	2.661794e+00,	1.283137e-04	
160	3.981072e+04	2.661794e+00,	1.313025e-04	
161	4.073803e+04	2.661794e+00,	1.343610e-04	
162	4.168694e+04	2.661794e+00,	1.374906e-04	
163	4.265795e+04	2.661794e+00,	1.406932e-04	
164	4.365158e+04	2.661794e+00,	1.439704e-04	
165	4.466836e+04	2.661794e+00,	1.473239e-04	
166	4.570882e+04	2.661794e+00,	1.507555e-04	
167	4.677351e+04	2.661794e+00,	1.542670e-04	
168	4.786301e+04	2.661794e+00,	1.578604e-04	
169	4.897788e+04	2.661794e+00,	1.615374e-04	
170	5.011872e+04	2.661794e+00,	1.653001e-04	

Index   frequency       vop                             
--------------------------------------------------------------------------------
171	5.128614e+04	2.661794e+00,	1.691504e-04	
172	5.248075e+04	2.661794e+00,	1.730904e-04	
173	5.370318e+04	2.661794e+00,	1.771222e-04	
174	5.495409e+04	2.661794e+00,	1.812479e-04	
175	5.623413e+04	2.661794e+00,	1.854697e-04	
176	5.754399e+04	2.661794e+00,	1.897899e-04	
177	5.888437e+04	2.661794e+00,	1.942107e-04	
178	6.025596e+04	2.661794e+00,	1.987344e-04	
179	6.165950e+04	2.661794e+00,	2.033635e-04	
180	6.309573e+04	2.661794e+00,	2.081005e-04	
181	6.456542e+04	2.661794e+00,	2.129478e-04	
182	6.606934e+04	2.661794e+00,	2.179079e-04	
183	6.760830e+04	2.661794e+00,	2.229837e-04	
184	6.918310e+04	2.661794e+00,	2.281776e-04	
185	7.079458e+04	2.661794e+00,	2.334926e-04	
186	7.244360e+04	2.661794e+00,	2.389313e-04	
187	7.413102e+04	2.661794e+00,	2.444967e-04	
188	7.585776e+04	2.661794e+00,	2.501918e-04	
189	7.762471e+04	2.661794e+00,	2.560195e-04	
190	7.943282e+04	2.661794e+00,	2.619830e-04	
191	8.128305e+04	2.661794e+00,	2.680853e-04	
192	8.317638e+04	2.661794e+00,	2.743298e-04	
193	8.511380e+04	2.661794e+00,	2.807198e-04	
194	8.709636e+04	2.661794e+00,	2.872586e-04	
195	8.912509e+04	2.661794e+00,	2.939497e-04	
196	9.120108e+04	2.661794e+00,	3.007967e-04	
197	9.332543e+04	2.661794e+00,	3.078031e-04	
198	9.549926e+04	2.661794e+00,	3.149728e-04	
199	9.772372e+04	2.661794e+00,	3.223094e-04	
200	1.000000e+05	2.661794e+00,	3.298170e-04	
201	1.023293e+05	2.661794e+00,	3.374994e-04	
202	1.047129e+05	2.661794e+00,	3.453608e-04	
203	1.071519e+05	2.661794e+00,	3.534052e-04	
204	1.096478e+05	2.661794e+00,	3.616371e-04	
205	1.122018e+05	2.661794e+00,	3.700607e-04	
206	1.148154e+05	2.661794e+00,	3.786805e-04	
207	1.174898e+05	2.661794e+00,	3.875011e-04	
208	1.202264e+05	2.661794e+00,	3.965272e-04	
209	1.230269e+05	2.661794e+00,	4.057635e-04	
210	1.258925e+05	2.661794e+00,	4.152149e-04	
211	1.288250e+05	2.661794e+00,	4.248865e-04	
212	1.318257e+05	2.661794e+00,	4.347834e-04	
213	1.348963e+05	2.661794e+00,	4.449108e-04	
214	1.380384e+05	2.661795e+00,	4.552740e-04	
215	1.412538e+05	2.661795e+00,	4.658787e-04	
216	1.445440e+05	2.661795e+00,	4.767304e-04	
217	1.479108e+05	2.661795e+00,	4.878349e-04	
218	1.513561e+05	2.661795e+00,	4.991980e-04	
219	1.548817e+05	2.661795e+00,	5.108258e-04	
220	1.584893e+05	2.661795e+00,	5.227245e-04	
221	1.621810e+05	2.661795e+00,	5.349003e-04	
222	1.659587e+05	2.661795e+00,	5.473597e-04	
223	1.698244e+05	2.661795e+00,	5.601093e-04	
224	1.737801e+05	2.661795e+00,	5.731559e-04	
225	1.778279e+05	2.661795e+00,	5.865064e-04	
226	1.819701e+05	2.661795e+00,	6.001678e-04	
227	1.862087e+05	2.661795e+00,	6.141475e-04	
228	1.905461e+05	2.661795e+00,	6.284528e-04	

Index   frequency       vop                             
--------------------------------------------------------------------------------
229	1.949845e+05	2.661795e+00,	6.430913e-04	
230	1.995262e+05	2.661795e+00,	6.580708e-04	
231	2.041738e+05	2.661795e+00,	6.733992e-04	
232	2.089296e+05	2.661795e+00,	6.890847e-04	
233	2.137962e+05	2.661795e+00,	7.051355e-04	
234	2.187762e+05	2.661795e+00,	7.215602e-04	
235	2.238721e+05	2.661795e+00,	7.383674e-04	
236	2.290868e+05	2.661795e+00,	7.555661e-04	
237	2.344229e+05	2.661795e+00,	7.731655e-04	
238	2.398833e+05	2.661795e+00,	7.911748e-04	
239	2.454709e+05	2.661795e+00,	8.096035e-04	
240	2.511886e+05	2.661796e+00,	8.284616e-04	
241	2.570396e+05	2.661796e+00,	8.477588e-04	
242	2.630268e+05	2.661796e+00,	8.675056e-04	
243	2.691535e+05	2.661796e+00,	8.877123e-04	
244	2.754229e+05	2.661796e+00,	9.083897e-04	
245	2.818383e+05	2.661796e+00,	9.295487e-04	
246	2.884032e+05	2.661796e+00,	9.512006e-04	
247	2.951209e+05	2.661796e+00,	9.733568e-04	
248	3.019952e+05	2.661796e+00,	9.960291e-04	
249	3.090295e+05	2.661796e+00,	1.019229e-03	
250	3.162278e+05	2.661796e+00,	1.042970e-03	
251	3.235937e+05	2.661796e+00,	1.067264e-03	
252	3.311311e+05	2.661797e+00,	1.092124e-03	
253	3.388442e+05	2.661797e+00,	1.117562e-03	
254	3.467369e+05	2.661797e+00,	1.143593e-03	
255	3.548134e+05	2.661797e+00,	1.170231e-03	
256	3.630781e+05	2.661797e+00,	1.197489e-03	
257	3.715352e+05	2.661797e+00,	1.225382e-03	
258	3.801894e+05	2.661797e+00,	1.253924e-03	
259	3.890451e+05	2.661798e+00,	1.283132e-03	
260	3.981072e+05	2.661798e+00,	1.313020e-03	
261	4.073803e+05	2.661798e+00,	1.343603e-03	
262	4.168694e+05	2.661798e+00,	1.374900e-03	
263	4.265795e+05	2.661798e+00,	1.406925e-03	
264	4.365158e+05	2.661798e+00,	1.439696e-03	
265	4.466836e+05	2.661799e+00,	1.473231e-03	
266	4.570882e+05	2.661799e+00,	1.507546e-03	
267	4.677351e+05	2.661799e+00,	1.542661e-03	
268	4.786301e+05	2.661799e+00,	1.578594e-03	
269	4.897788e+05	2.661800e+00,	1.615363e-03	
270	5.011872e+05	2.661800e+00,	1.652989e-03	
271	5.128614e+05	2.661800e+00,	1.691492e-03	
272	5.248075e+05	2.661800e+00,	1.730891e-03	
273	5.370318e+05	2.661801e+00,	1.771208e-03	
274	5.495409e+05	2.661801e+00,	1.812464e-03	
275	5.623413e+05	2.661801e+00,	1.854681e-03	
276	5.754399e+05	2.661802e+00,	1.897882e-03	
277	5.888437e+05	2.661802e+00,	1.942088e-03	
278	6.025596e+05	2.661802e+00,	1.987324e-03	
279	6.165950e+05	2.661803e+00,	2.033614e-03	
280	6.309573e+05	2.661803e+00,	2.080982e-03	
281	6.456542e+05	2.661804e+00,	2.129453e-03	
282	6.606934e+05	2.661804e+00,	2.179053e-03	
283	6.760830e+05	2.661805e+00,	2.229809e-03	
284	6.918310e+05	2.661805e+00,	2.281746e-03	
285	7.079458e+05	2.661806e+00,	2.334893e-03	
286	7.244360e+05	2.661806e+00,	2.389278e-03	

Index   frequency       vop                             
--------------------------------------------------------------------------------
287	7.413102e+05	2.661807e+00,	2.444930e-03	
288	7.585776e+05	2.661807e+00,	2.501878e-03	
289	7.762471e+05	2.661808e+00,	2.560152e-03	
290	7.943282e+05	2.661809e+00,	2.619784e-03	
291	8.128305e+05	2.661809e+00,	2.680804e-03	
292	8.317638e+05	2.661810e+00,	2.743246e-03	
293	8.511380e+05	2.661811e+00,	2.807142e-03	
294	8.709636e+05	2.661812e+00,	2.872526e-03	
295	8.912509e+05	2.661812e+00,	2.939432e-03	
296	9.120108e+05	2.661813e+00,	3.007898e-03	
297	9.332543e+05	2.661814e+00,	3.077957e-03	
298	9.549926e+05	2.661815e+00,	3.149648e-03	
299	9.772372e+05	2.661816e+00,	3.223009e-03	
300	1.000000e+06	2.661817e+00,	3.298079e-03	
301	1.023293e+06	2.661818e+00,	3.374896e-03	
302	1.047129e+06	2.661820e+00,	3.453503e-03	
303	1.071519e+06	2.661821e+00,	3.533940e-03	
304	1.096478e+06	2.661822e+00,	3.616251e-03	
305	1.122018e+06	2.661823e+00,	3.700478e-03	
306	1.148154e+06	2.661825e+00,	3.786667e-03	
307	1.174898e+06	2.661826e+00,	3.874863e-03	
308	1.202264e+06	2.661828e+00,	3.965113e-03	
309	1.230269e+06	2.661829e+00,	4.057465e-03	
310	1.258925e+06	2.661831e+00,	4.151967e-03	
311	1.288250e+06	2.661833e+00,	4.248670e-03	
312	1.318257e+06	2.661834e+00,	4.347625e-03	
313	1.348963e+06	2.661836e+00,	4.448884e-03	
314	1.380384e+06	2.661838e+00,	4.552501e-03	
315	1.412538e+06	2.661840e+00,	4.658530e-03	
316	1.445440e+06	2.661843e+00,	4.767029e-03	
317	1.479108e+06	2.661845e+00,	4.878054e-03	
318	1.513561e+06	2.661847e+00,	4.991664e-03	
319	1.548817e+06	2.661850e+00,	5.107919e-03	
320	1.584893e+06	2.661852e+00,	5.226882e-03	
321	1.621810e+06	2.661855e+00,	5.348614e-03	
322	1.659587e+06	2.661858e+00,	5.473180e-03	
323	1.698244e+06	2.661861e+00,	5.600646e-03	
324	1.737801e+06	2.661864e+00,	5.731080e-03	
325	1.778279e+06	2.661867e+00,	5.864551e-03	
326	1.819701e+06	2.661871e+00,	6.001129e-03	
327	1.862087e+06	2.661875e+00,	6.140886e-03	
328	1.905461e+06	2.661878e+00,	6.283897e-03	
329	1.949845e+06	2.661882e+00,	6.430237e-03	
330	1.995262e+06	2.661886e+00,	6.579984e-03	
331	2.041738e+06	2.661891e+00,	6.733216e-03	
332	2.089296e+06	2.661895e+00,	6.890015e-03	
333	2.137962e+06	2.661900e+00,	7.050464e-03	
334	2.187762e+06	2.661905e+00,	7.214647e-03	
335	2.238721e+06	2.661910e+00,	7.382651e-03	
336	2.290868e+06	2.661916e+00,	7.554565e-03	
337	2.344229e+06	2.661922e+00,	7.730480e-03	
338	2.398833e+06	2.661928e+00,	7.910489e-03	
339	2.454709e+06	2.661934e+00,	8.094686e-03	
340	2.511886e+06	2.661940e+00,	8.283170e-03	
341	2.570396e+06	2.661947e+00,	8.476039e-03	
342	2.630268e+06	2.661955e+00,	8.673396e-03	
343	2.691535e+06	2.661962e+00,	8.875345e-03	
344	2.754229e+06	2.661970e+00,	9.081991e-03	

Index   frequency       vop                             
--------------------------------------------------------------------------------
345	2.818383e+06	2.661978e+00,	9.293445e-03	
346	2.884032e+06	2.661987e+00,	9.509818e-03	
347	2.951209e+06	2.661996e+00,	9.731224e-03	
348	3.019952e+06	2.662006e+00,	9.957779e-03	
349	3.090295e+06	2.662016e+00,	1.018960e-02	
350	3.162278e+06	2.662026e+00,	1.042682e-02	
351	3.235937e+06	2.662037e+00,	1.066955e-02	
352	3.311311e+06	2.662048e+00,	1.091792e-02	
353	3.388442e+06	2.662060e+00,	1.117207e-02	
354	3.467369e+06	2.662073e+00,	1.143213e-02	
355	3.548134e+06	2.662086e+00,	1.169824e-02	
356	3.630781e+06	2.662100e+00,	1.197052e-02	
357	3.715352e+06	2.662114e+00,	1.224914e-02	
358	3.801894e+06	2.662129e+00,	1.253423e-02	
359	3.890451e+06	2.662145e+00,	1.282595e-02	
360	3.981072e+06	2.662162e+00,	1.312444e-02	
361	4.073803e+06	2.662179e+00,	1.342987e-02	
362	4.168694e+06	2.662197e+00,	1.374239e-02	
363	4.265795e+06	2.662216e+00,	1.406217e-02	
364	4.365158e+06	2.662236e+00,	1.438937e-02	
365	4.466836e+06	2.662257e+00,	1.472417e-02	
366	4.570882e+06	2.662279e+00,	1.506675e-02	
367	4.677351e+06	2.662302e+00,	1.541727e-02	
368	4.786301e+06	2.662325e+00,	1.577593e-02	
369	4.897788e+06	2.662351e+00,	1.614291e-02	
370	5.011872e+06	2.662377e+00,	1.651841e-02	
371	5.128614e+06	2.662404e+00,	1.690261e-02	
372	5.248075e+06	2.662433e+00,	1.729572e-02	
373	5.370318e+06	2.662463e+00,	1.769795e-02	
374	5.495409e+06	2.662495e+00,	1.810949e-02	
375	5.623413e+06	2.662528e+00,	1.853058e-02	
376	5.754399e+06	2.662562e+00,	1.896142e-02	
377	5.888437e+06	2.662598e+00,	1.940224e-02	
378	6.025596e+06	2.662636e+00,	1.985327e-02	
379	6.165950e+06	2.662676e+00,	2.031474e-02	
380	6.309573e+06	2.662717e+00,	2.078688e-02	
381	6.456542e+06	2.662761e+00,	2.126995e-02	
382	6.606934e+06	2.662807e+00,	2.176420e-02	
383	6.760830e+06	2.662854e+00,	2.226986e-02	
384	6.918310e+06	2.662904e+00,	2.278722e-02	
385	7.079458e+06	2.662956e+00,	2.331653e-02	
386	7.244360e+06	2.663011e+00,	2.385806e-02	
387	7.413102e+06	2.663069e+00,	2.441209e-02	
388	7.585776e+06	2.663129e+00,	2.497890e-02	
389	7.762471e+06	2.663191e+00,	2.555879e-02	
390	7.943282e+06	2.663257e+00,	2.615204e-02	
391	8.128305e+06	2.663326e+00,	2.675897e-02	
392	8.317638e+06	2.663398e+00,	2.737987e-02	
393	8.511380e+06	2.663474e+00,	2.801506e-02	
394	8.709636e+06	2.663553e+00,	2.866486e-02	
395	8.912509e+06	2.663636e+00,	2.932960e-02	
396	9.120108e+06	2.663723e+00,	3.000961e-02	
397	9.332543e+06	2.663814e+00,	3.070524e-02	
398	9.549926e+06	2.663909e+00,	3.141682e-02	
399	9.772372e+06	2.664008e+00,	3.214472e-02	
400	1.000000e+07	2.664113e+00,	3.288930e-02	
401	1.023293e+07	2.664222e+00,	3.365091e-02	
402	1.047129e+07	2.664336e+00,	3.442995e-02	

Index   frequency       vop                             
--------------------------------------------------------------------------------
403	1.071519e+07	2.664456e+00,	3.522679e-02	
404	1.096478e+07	2.664581e+00,	3.604182e-02	
405	1.122018e+07	2.664712e+00,	3.687544e-02	
406	1.148154e+07	2.664850e+00,	3.772806e-02	
407	1.174898e+07	2.664994e+00,	3.860007e-02	
408	1.202264e+07	2.665144e+00,	3.949192e-02	
409	1.230269e+07	2.665302e+00,	4.040401e-02	
410	1.258925e+07	2.665467e+00,	4.133679e-02	
411	1.288250e+07	2.665640e+00,	4.229069e-02	
412	1.318257e+07	2.665821e+00,	4.326617e-02	
413	1.348963e+07	2.666010e+00,	4.426368e-02	
414	1.380384e+07	2.666209e+00,	4.528368e-02	
415	1.412538e+07	2.666416e+00,	4.632665e-02	
416	1.445440e+07	2.666634e+00,	4.739306e-02	
