** sch_path: /home/andylithia/openmpw/project-reisen-chip1/xschem/ota_wideband.sch
AC Analysis  Sun Oct 30 17:11:03  2022
--------------------------------------------------------------------------------
Index   frequency       vop                             
--------------------------------------------------------------------------------
0	1.000000e+03	3.472441e+00,	-1.73371e-06	
1	1.023293e+03	3.472441e+00,	-1.77410e-06	
2	1.047129e+03	3.472441e+00,	-1.81542e-06	
3	1.071519e+03	3.472441e+00,	-1.85771e-06	
4	1.096478e+03	3.472441e+00,	-1.90098e-06	
5	1.122018e+03	3.472441e+00,	-1.94526e-06	
6	1.148154e+03	3.472441e+00,	-1.99057e-06	
7	1.174898e+03	3.472441e+00,	-2.03693e-06	
8	1.202264e+03	3.472441e+00,	-2.08438e-06	
9	1.230269e+03	3.472441e+00,	-2.13293e-06	
10	1.258925e+03	3.472441e+00,	-2.18261e-06	
11	1.288250e+03	3.472441e+00,	-2.23345e-06	
12	1.318257e+03	3.472441e+00,	-2.28548e-06	
13	1.348963e+03	3.472441e+00,	-2.33871e-06	
14	1.380384e+03	3.472441e+00,	-2.39319e-06	
15	1.412538e+03	3.472441e+00,	-2.44893e-06	
16	1.445440e+03	3.472441e+00,	-2.50598e-06	
17	1.479108e+03	3.472441e+00,	-2.56435e-06	
18	1.513561e+03	3.472441e+00,	-2.62408e-06	
19	1.548817e+03	3.472441e+00,	-2.68520e-06	
20	1.584893e+03	3.472441e+00,	-2.74775e-06	
21	1.621810e+03	3.472441e+00,	-2.81175e-06	
22	1.659587e+03	3.472441e+00,	-2.87725e-06	
23	1.698244e+03	3.472441e+00,	-2.94427e-06	
24	1.737801e+03	3.472441e+00,	-3.01285e-06	
25	1.778279e+03	3.472441e+00,	-3.08303e-06	
26	1.819701e+03	3.472441e+00,	-3.15484e-06	
27	1.862087e+03	3.472441e+00,	-3.22832e-06	
28	1.905461e+03	3.472441e+00,	-3.30352e-06	
29	1.949845e+03	3.472441e+00,	-3.38047e-06	
30	1.995262e+03	3.472441e+00,	-3.45921e-06	
31	2.041738e+03	3.472441e+00,	-3.53979e-06	
32	2.089296e+03	3.472441e+00,	-3.62224e-06	
33	2.137962e+03	3.472441e+00,	-3.70661e-06	
34	2.187762e+03	3.472441e+00,	-3.79295e-06	
35	2.238721e+03	3.472441e+00,	-3.88130e-06	
36	2.290868e+03	3.472441e+00,	-3.97171e-06	
37	2.344229e+03	3.472441e+00,	-4.06422e-06	
38	2.398833e+03	3.472441e+00,	-4.15889e-06	
39	2.454709e+03	3.472441e+00,	-4.25576e-06	
40	2.511886e+03	3.472441e+00,	-4.35489e-06	
41	2.570396e+03	3.472441e+00,	-4.45633e-06	
42	2.630268e+03	3.472441e+00,	-4.56013e-06	
43	2.691535e+03	3.472441e+00,	-4.66635e-06	
44	2.754229e+03	3.472441e+00,	-4.77504e-06	
45	2.818383e+03	3.472441e+00,	-4.88627e-06	
46	2.884032e+03	3.472441e+00,	-5.00008e-06	
47	2.951209e+03	3.472441e+00,	-5.11655e-06	
48	3.019952e+03	3.472441e+00,	-5.23573e-06	
49	3.090295e+03	3.472441e+00,	-5.35768e-06	
50	3.162278e+03	3.472441e+00,	-5.48248e-06	
51	3.235937e+03	3.472441e+00,	-5.61018e-06	
52	3.311311e+03	3.472441e+00,	-5.74086e-06	
53	3.388442e+03	3.472441e+00,	-5.87458e-06	
54	3.467369e+03	3.472441e+00,	-6.01142e-06	

Index   frequency       vop                             
--------------------------------------------------------------------------------
55	3.548134e+03	3.472441e+00,	-6.15144e-06	
56	3.630781e+03	3.472441e+00,	-6.29473e-06	
57	3.715352e+03	3.472441e+00,	-6.44135e-06	
58	3.801894e+03	3.472441e+00,	-6.59139e-06	
59	3.890451e+03	3.472441e+00,	-6.74492e-06	
60	3.981072e+03	3.472441e+00,	-6.90203e-06	
61	4.073803e+03	3.472441e+00,	-7.06280e-06	
62	4.168694e+03	3.472441e+00,	-7.22732e-06	
63	4.265795e+03	3.472441e+00,	-7.39566e-06	
64	4.365158e+03	3.472441e+00,	-7.56793e-06	
65	4.466836e+03	3.472441e+00,	-7.74421e-06	
66	4.570882e+03	3.472441e+00,	-7.92460e-06	
67	4.677351e+03	3.472441e+00,	-8.10918e-06	
68	4.786301e+03	3.472441e+00,	-8.29807e-06	
69	4.897788e+03	3.472441e+00,	-8.49136e-06	
70	5.011872e+03	3.472441e+00,	-8.68915e-06	
71	5.128614e+03	3.472441e+00,	-8.89154e-06	
72	5.248075e+03	3.472441e+00,	-9.09865e-06	
73	5.370318e+03	3.472441e+00,	-9.31059e-06	
74	5.495409e+03	3.472441e+00,	-9.52746e-06	
75	5.623413e+03	3.472441e+00,	-9.74938e-06	
76	5.754399e+03	3.472441e+00,	-9.97647e-06	
77	5.888437e+03	3.472441e+00,	-1.02089e-05	
78	6.025596e+03	3.472441e+00,	-1.04467e-05	
79	6.165950e+03	3.472441e+00,	-1.06900e-05	
80	6.309573e+03	3.472441e+00,	-1.09390e-05	
81	6.456542e+03	3.472441e+00,	-1.11938e-05	
82	6.606934e+03	3.472441e+00,	-1.14545e-05	
83	6.760830e+03	3.472441e+00,	-1.17213e-05	
84	6.918310e+03	3.472441e+00,	-1.19944e-05	
85	7.079458e+03	3.472441e+00,	-1.22737e-05	
86	7.244360e+03	3.472441e+00,	-1.25596e-05	
87	7.413102e+03	3.472441e+00,	-1.28522e-05	
88	7.585776e+03	3.472441e+00,	-1.31516e-05	
89	7.762471e+03	3.472441e+00,	-1.34579e-05	
90	7.943282e+03	3.472441e+00,	-1.37714e-05	
91	8.128305e+03	3.472441e+00,	-1.40921e-05	
92	8.317638e+03	3.472441e+00,	-1.44204e-05	
93	8.511380e+03	3.472441e+00,	-1.47563e-05	
94	8.709636e+03	3.472441e+00,	-1.51000e-05	
95	8.912509e+03	3.472441e+00,	-1.54517e-05	
96	9.120108e+03	3.472441e+00,	-1.58116e-05	
97	9.332543e+03	3.472441e+00,	-1.61799e-05	
98	9.549926e+03	3.472441e+00,	-1.65568e-05	
99	9.772372e+03	3.472441e+00,	-1.69425e-05	
100	1.000000e+04	3.472441e+00,	-1.73371e-05	
101	1.023293e+04	3.472441e+00,	-1.77410e-05	
102	1.047129e+04	3.472441e+00,	-1.81542e-05	
103	1.071519e+04	3.472441e+00,	-1.85771e-05	
104	1.096478e+04	3.472441e+00,	-1.90098e-05	
105	1.122018e+04	3.472441e+00,	-1.94526e-05	
106	1.148154e+04	3.472441e+00,	-1.99057e-05	
107	1.174898e+04	3.472441e+00,	-2.03693e-05	
108	1.202264e+04	3.472441e+00,	-2.08438e-05	
109	1.230269e+04	3.472441e+00,	-2.13293e-05	
110	1.258925e+04	3.472441e+00,	-2.18261e-05	
111	1.288250e+04	3.472441e+00,	-2.23345e-05	
112	1.318257e+04	3.472441e+00,	-2.28548e-05	

Index   frequency       vop                             
--------------------------------------------------------------------------------
113	1.348963e+04	3.472441e+00,	-2.33871e-05	
114	1.380384e+04	3.472441e+00,	-2.39319e-05	
115	1.412538e+04	3.472441e+00,	-2.44893e-05	
116	1.445440e+04	3.472441e+00,	-2.50598e-05	
117	1.479108e+04	3.472441e+00,	-2.56435e-05	
118	1.513561e+04	3.472441e+00,	-2.62408e-05	
119	1.548817e+04	3.472441e+00,	-2.68520e-05	
120	1.584893e+04	3.472441e+00,	-2.74775e-05	
121	1.621810e+04	3.472441e+00,	-2.81175e-05	
122	1.659587e+04	3.472441e+00,	-2.87725e-05	
123	1.698244e+04	3.472441e+00,	-2.94427e-05	
124	1.737801e+04	3.472441e+00,	-3.01285e-05	
125	1.778279e+04	3.472441e+00,	-3.08303e-05	
126	1.819701e+04	3.472441e+00,	-3.15484e-05	
127	1.862087e+04	3.472441e+00,	-3.22832e-05	
128	1.905461e+04	3.472441e+00,	-3.30352e-05	
129	1.949845e+04	3.472441e+00,	-3.38047e-05	
130	1.995262e+04	3.472441e+00,	-3.45921e-05	
131	2.041738e+04	3.472441e+00,	-3.53979e-05	
132	2.089296e+04	3.472441e+00,	-3.62224e-05	
133	2.137962e+04	3.472441e+00,	-3.70661e-05	
134	2.187762e+04	3.472441e+00,	-3.79295e-05	
135	2.238721e+04	3.472441e+00,	-3.88130e-05	
136	2.290868e+04	3.472441e+00,	-3.97171e-05	
137	2.344229e+04	3.472441e+00,	-4.06422e-05	
138	2.398833e+04	3.472441e+00,	-4.15889e-05	
139	2.454709e+04	3.472441e+00,	-4.25576e-05	
140	2.511886e+04	3.472441e+00,	-4.35489e-05	
141	2.570396e+04	3.472441e+00,	-4.45633e-05	
142	2.630268e+04	3.472441e+00,	-4.56013e-05	
143	2.691535e+04	3.472441e+00,	-4.66635e-05	
144	2.754229e+04	3.472441e+00,	-4.77504e-05	
145	2.818383e+04	3.472441e+00,	-4.88627e-05	
146	2.884032e+04	3.472441e+00,	-5.00008e-05	
147	2.951209e+04	3.472441e+00,	-5.11655e-05	
148	3.019952e+04	3.472441e+00,	-5.23573e-05	
149	3.090295e+04	3.472441e+00,	-5.35768e-05	
150	3.162278e+04	3.472441e+00,	-5.48248e-05	
151	3.235937e+04	3.472441e+00,	-5.61018e-05	
152	3.311311e+04	3.472441e+00,	-5.74086e-05	
153	3.388442e+04	3.472441e+00,	-5.87458e-05	
154	3.467369e+04	3.472441e+00,	-6.01142e-05	
155	3.548134e+04	3.472441e+00,	-6.15144e-05	
156	3.630781e+04	3.472441e+00,	-6.29473e-05	
157	3.715352e+04	3.472441e+00,	-6.44135e-05	
158	3.801894e+04	3.472441e+00,	-6.59139e-05	
159	3.890451e+04	3.472441e+00,	-6.74492e-05	
160	3.981072e+04	3.472441e+00,	-6.90203e-05	
161	4.073803e+04	3.472441e+00,	-7.06280e-05	
162	4.168694e+04	3.472441e+00,	-7.22732e-05	
163	4.265795e+04	3.472441e+00,	-7.39566e-05	
164	4.365158e+04	3.472441e+00,	-7.56793e-05	
165	4.466836e+04	3.472441e+00,	-7.74421e-05	
166	4.570882e+04	3.472441e+00,	-7.92460e-05	
167	4.677351e+04	3.472441e+00,	-8.10918e-05	
168	4.786301e+04	3.472441e+00,	-8.29807e-05	
169	4.897788e+04	3.472441e+00,	-8.49136e-05	
170	5.011872e+04	3.472441e+00,	-8.68915e-05	

Index   frequency       vop                             
--------------------------------------------------------------------------------
171	5.128614e+04	3.472441e+00,	-8.89154e-05	
172	5.248075e+04	3.472441e+00,	-9.09865e-05	
173	5.370318e+04	3.472441e+00,	-9.31059e-05	
174	5.495409e+04	3.472441e+00,	-9.52746e-05	
175	5.623413e+04	3.472441e+00,	-9.74938e-05	
176	5.754399e+04	3.472441e+00,	-9.97647e-05	
177	5.888437e+04	3.472441e+00,	-1.02089e-04	
178	6.025596e+04	3.472441e+00,	-1.04467e-04	
179	6.165950e+04	3.472441e+00,	-1.06900e-04	
180	6.309573e+04	3.472441e+00,	-1.09390e-04	
181	6.456542e+04	3.472441e+00,	-1.11938e-04	
182	6.606934e+04	3.472441e+00,	-1.14545e-04	
183	6.760830e+04	3.472441e+00,	-1.17213e-04	
184	6.918310e+04	3.472441e+00,	-1.19944e-04	
185	7.079458e+04	3.472441e+00,	-1.22737e-04	
186	7.244360e+04	3.472441e+00,	-1.25596e-04	
187	7.413102e+04	3.472441e+00,	-1.28522e-04	
188	7.585776e+04	3.472441e+00,	-1.31516e-04	
189	7.762471e+04	3.472441e+00,	-1.34579e-04	
190	7.943282e+04	3.472441e+00,	-1.37714e-04	
191	8.128305e+04	3.472441e+00,	-1.40921e-04	
192	8.317638e+04	3.472441e+00,	-1.44204e-04	
193	8.511380e+04	3.472441e+00,	-1.47563e-04	
194	8.709636e+04	3.472441e+00,	-1.51000e-04	
195	8.912509e+04	3.472441e+00,	-1.54517e-04	
196	9.120108e+04	3.472441e+00,	-1.58116e-04	
197	9.332543e+04	3.472441e+00,	-1.61799e-04	
198	9.549926e+04	3.472441e+00,	-1.65568e-04	
199	9.772372e+04	3.472441e+00,	-1.69425e-04	
200	1.000000e+05	3.472441e+00,	-1.73371e-04	
201	1.023293e+05	3.472441e+00,	-1.77410e-04	
202	1.047129e+05	3.472441e+00,	-1.81542e-04	
203	1.071519e+05	3.472441e+00,	-1.85771e-04	
204	1.096478e+05	3.472441e+00,	-1.90098e-04	
205	1.122018e+05	3.472441e+00,	-1.94526e-04	
206	1.148154e+05	3.472441e+00,	-1.99057e-04	
207	1.174898e+05	3.472441e+00,	-2.03693e-04	
208	1.202264e+05	3.472441e+00,	-2.08438e-04	
209	1.230269e+05	3.472441e+00,	-2.13293e-04	
210	1.258925e+05	3.472441e+00,	-2.18261e-04	
211	1.288250e+05	3.472441e+00,	-2.23345e-04	
212	1.318257e+05	3.472441e+00,	-2.28548e-04	
213	1.348963e+05	3.472441e+00,	-2.33871e-04	
214	1.380384e+05	3.472441e+00,	-2.39319e-04	
215	1.412538e+05	3.472441e+00,	-2.44893e-04	
216	1.445440e+05	3.472441e+00,	-2.50598e-04	
217	1.479108e+05	3.472441e+00,	-2.56435e-04	
218	1.513561e+05	3.472441e+00,	-2.62408e-04	
219	1.548817e+05	3.472441e+00,	-2.68520e-04	
220	1.584893e+05	3.472441e+00,	-2.74775e-04	
221	1.621810e+05	3.472441e+00,	-2.81175e-04	
222	1.659587e+05	3.472441e+00,	-2.87725e-04	
223	1.698244e+05	3.472441e+00,	-2.94427e-04	
224	1.737801e+05	3.472441e+00,	-3.01285e-04	
225	1.778279e+05	3.472441e+00,	-3.08303e-04	
226	1.819701e+05	3.472441e+00,	-3.15484e-04	
227	1.862087e+05	3.472441e+00,	-3.22832e-04	
228	1.905461e+05	3.472441e+00,	-3.30352e-04	

Index   frequency       vop                             
--------------------------------------------------------------------------------
229	1.949845e+05	3.472441e+00,	-3.38047e-04	
230	1.995262e+05	3.472441e+00,	-3.45921e-04	
231	2.041738e+05	3.472441e+00,	-3.53979e-04	
232	2.089296e+05	3.472441e+00,	-3.62224e-04	
233	2.137962e+05	3.472441e+00,	-3.70661e-04	
234	2.187762e+05	3.472441e+00,	-3.79295e-04	
235	2.238721e+05	3.472441e+00,	-3.88130e-04	
236	2.290868e+05	3.472441e+00,	-3.97171e-04	
237	2.344229e+05	3.472441e+00,	-4.06422e-04	
238	2.398833e+05	3.472441e+00,	-4.15889e-04	
239	2.454709e+05	3.472441e+00,	-4.25576e-04	
240	2.511886e+05	3.472441e+00,	-4.35489e-04	
241	2.570396e+05	3.472441e+00,	-4.45633e-04	
242	2.630268e+05	3.472441e+00,	-4.56013e-04	
243	2.691535e+05	3.472441e+00,	-4.66635e-04	
244	2.754229e+05	3.472441e+00,	-4.77504e-04	
245	2.818383e+05	3.472441e+00,	-4.88626e-04	
246	2.884032e+05	3.472441e+00,	-5.00008e-04	
247	2.951209e+05	3.472441e+00,	-5.11655e-04	
248	3.019952e+05	3.472441e+00,	-5.23573e-04	
249	3.090295e+05	3.472441e+00,	-5.35768e-04	
250	3.162278e+05	3.472441e+00,	-5.48248e-04	
251	3.235937e+05	3.472441e+00,	-5.61018e-04	
252	3.311311e+05	3.472441e+00,	-5.74086e-04	
253	3.388442e+05	3.472441e+00,	-5.87458e-04	
254	3.467369e+05	3.472441e+00,	-6.01142e-04	
255	3.548134e+05	3.472441e+00,	-6.15144e-04	
256	3.630781e+05	3.472441e+00,	-6.29473e-04	
257	3.715352e+05	3.472441e+00,	-6.44135e-04	
258	3.801894e+05	3.472441e+00,	-6.59139e-04	
259	3.890451e+05	3.472441e+00,	-6.74492e-04	
260	3.981072e+05	3.472441e+00,	-6.90203e-04	
261	4.073803e+05	3.472441e+00,	-7.06280e-04	
262	4.168694e+05	3.472441e+00,	-7.22731e-04	
263	4.265795e+05	3.472441e+00,	-7.39566e-04	
264	4.365158e+05	3.472441e+00,	-7.56793e-04	
265	4.466836e+05	3.472441e+00,	-7.74421e-04	
266	4.570882e+05	3.472441e+00,	-7.92459e-04	
267	4.677351e+05	3.472441e+00,	-8.10918e-04	
268	4.786301e+05	3.472441e+00,	-8.29806e-04	
269	4.897788e+05	3.472441e+00,	-8.49135e-04	
270	5.011872e+05	3.472441e+00,	-8.68914e-04	
271	5.128614e+05	3.472441e+00,	-8.89154e-04	
272	5.248075e+05	3.472441e+00,	-9.09865e-04	
273	5.370318e+05	3.472441e+00,	-9.31058e-04	
274	5.495409e+05	3.472441e+00,	-9.52745e-04	
275	5.623413e+05	3.472441e+00,	-9.74937e-04	
276	5.754399e+05	3.472441e+00,	-9.97647e-04	
277	5.888437e+05	3.472441e+00,	-1.02088e-03	
278	6.025596e+05	3.472441e+00,	-1.04466e-03	
279	6.165950e+05	3.472441e+00,	-1.06900e-03	
280	6.309573e+05	3.472441e+00,	-1.09390e-03	
281	6.456542e+05	3.472441e+00,	-1.11938e-03	
282	6.606934e+05	3.472441e+00,	-1.14545e-03	
283	6.760830e+05	3.472441e+00,	-1.17213e-03	
284	6.918310e+05	3.472441e+00,	-1.19943e-03	
285	7.079458e+05	3.472441e+00,	-1.22737e-03	
286	7.244360e+05	3.472441e+00,	-1.25596e-03	

Index   frequency       vop                             
--------------------------------------------------------------------------------
287	7.413102e+05	3.472441e+00,	-1.28522e-03	
288	7.585776e+05	3.472441e+00,	-1.31515e-03	
289	7.762471e+05	3.472441e+00,	-1.34579e-03	
290	7.943282e+05	3.472441e+00,	-1.37713e-03	
291	8.128305e+05	3.472441e+00,	-1.40921e-03	
292	8.317638e+05	3.472441e+00,	-1.44204e-03	
293	8.511380e+05	3.472441e+00,	-1.47563e-03	
294	8.709636e+05	3.472441e+00,	-1.51000e-03	
295	8.912509e+05	3.472441e+00,	-1.54517e-03	
296	9.120108e+05	3.472441e+00,	-1.58116e-03	
297	9.332543e+05	3.472441e+00,	-1.61799e-03	
298	9.549926e+05	3.472441e+00,	-1.65568e-03	
299	9.772372e+05	3.472441e+00,	-1.69424e-03	
300	1.000000e+06	3.472441e+00,	-1.73371e-03	
301	1.023293e+06	3.472441e+00,	-1.77409e-03	
302	1.047129e+06	3.472440e+00,	-1.81541e-03	
303	1.071519e+06	3.472440e+00,	-1.85770e-03	
304	1.096478e+06	3.472440e+00,	-1.90097e-03	
305	1.122018e+06	3.472440e+00,	-1.94525e-03	
306	1.148154e+06	3.472440e+00,	-1.99056e-03	
307	1.174898e+06	3.472440e+00,	-2.03693e-03	
308	1.202264e+06	3.472440e+00,	-2.08437e-03	
309	1.230269e+06	3.472440e+00,	-2.13292e-03	
310	1.258925e+06	3.472440e+00,	-2.18261e-03	
311	1.288250e+06	3.472440e+00,	-2.23344e-03	
312	1.318257e+06	3.472440e+00,	-2.28547e-03	
313	1.348963e+06	3.472440e+00,	-2.33870e-03	
314	1.380384e+06	3.472440e+00,	-2.39318e-03	
315	1.412538e+06	3.472440e+00,	-2.44892e-03	
316	1.445440e+06	3.472440e+00,	-2.50596e-03	
317	1.479108e+06	3.472440e+00,	-2.56433e-03	
318	1.513561e+06	3.472440e+00,	-2.62406e-03	
319	1.548817e+06	3.472440e+00,	-2.68519e-03	
320	1.584893e+06	3.472440e+00,	-2.74773e-03	
321	1.621810e+06	3.472439e+00,	-2.81173e-03	
322	1.659587e+06	3.472439e+00,	-2.87723e-03	
323	1.698244e+06	3.472439e+00,	-2.94424e-03	
324	1.737801e+06	3.472439e+00,	-3.01282e-03	
325	1.778279e+06	3.472439e+00,	-3.08300e-03	
326	1.819701e+06	3.472439e+00,	-3.15481e-03	
327	1.862087e+06	3.472439e+00,	-3.22829e-03	
328	1.905461e+06	3.472439e+00,	-3.30349e-03	
329	1.949845e+06	3.472439e+00,	-3.38044e-03	
330	1.995262e+06	3.472439e+00,	-3.45917e-03	
331	2.041738e+06	3.472438e+00,	-3.53975e-03	
332	2.089296e+06	3.472438e+00,	-3.62220e-03	
333	2.137962e+06	3.472438e+00,	-3.70657e-03	
334	2.187762e+06	3.472438e+00,	-3.79290e-03	
335	2.238721e+06	3.472438e+00,	-3.88125e-03	
336	2.290868e+06	3.472438e+00,	-3.97165e-03	
337	2.344229e+06	3.472438e+00,	-4.06416e-03	
338	2.398833e+06	3.472437e+00,	-4.15882e-03	
339	2.454709e+06	3.472437e+00,	-4.25569e-03	
340	2.511886e+06	3.472437e+00,	-4.35482e-03	
341	2.570396e+06	3.472437e+00,	-4.45625e-03	
342	2.630268e+06	3.472437e+00,	-4.56004e-03	
343	2.691535e+06	3.472436e+00,	-4.66626e-03	
344	2.754229e+06	3.472436e+00,	-4.77494e-03	

Index   frequency       vop                             
--------------------------------------------------------------------------------
345	2.818383e+06	3.472436e+00,	-4.88616e-03	
346	2.884032e+06	3.472436e+00,	-4.99997e-03	
347	2.951209e+06	3.472435e+00,	-5.11643e-03	
348	3.019952e+06	3.472435e+00,	-5.23560e-03	
349	3.090295e+06	3.472435e+00,	-5.35755e-03	
350	3.162278e+06	3.472435e+00,	-5.48233e-03	
351	3.235937e+06	3.472434e+00,	-5.61003e-03	
352	3.311311e+06	3.472434e+00,	-5.74069e-03	
353	3.388442e+06	3.472434e+00,	-5.87440e-03	
354	3.467369e+06	3.472433e+00,	-6.01123e-03	
355	3.548134e+06	3.472433e+00,	-6.15124e-03	
356	3.630781e+06	3.472432e+00,	-6.29451e-03	
357	3.715352e+06	3.472432e+00,	-6.44112e-03	
358	3.801894e+06	3.472432e+00,	-6.59114e-03	
359	3.890451e+06	3.472431e+00,	-6.74465e-03	
360	3.981072e+06	3.472431e+00,	-6.90174e-03	
361	4.073803e+06	3.472430e+00,	-7.06249e-03	
362	4.168694e+06	3.472430e+00,	-7.22698e-03	
363	4.265795e+06	3.472429e+00,	-7.39530e-03	
364	4.365158e+06	3.472429e+00,	-7.56755e-03	
365	4.466836e+06	3.472428e+00,	-7.74380e-03	
366	4.570882e+06	3.472427e+00,	-7.92415e-03	
367	4.677351e+06	3.472427e+00,	-8.10871e-03	
368	4.786301e+06	3.472426e+00,	-8.29756e-03	
369	4.897788e+06	3.472425e+00,	-8.49081e-03	
370	5.011872e+06	3.472425e+00,	-8.68856e-03	
371	5.128614e+06	3.472424e+00,	-8.89092e-03	
372	5.248075e+06	3.472423e+00,	-9.09799e-03	
373	5.370318e+06	3.472422e+00,	-9.30987e-03	
374	5.495409e+06	3.472421e+00,	-9.52669e-03	
375	5.623413e+06	3.472420e+00,	-9.74856e-03	
376	5.754399e+06	3.472419e+00,	-9.97560e-03	
377	5.888437e+06	3.472418e+00,	-1.02079e-02	
378	6.025596e+06	3.472417e+00,	-1.04456e-02	
379	6.165950e+06	3.472416e+00,	-1.06889e-02	
380	6.309573e+06	3.472415e+00,	-1.09378e-02	
381	6.456542e+06	3.472414e+00,	-1.11926e-02	
382	6.606934e+06	3.472412e+00,	-1.14532e-02	
383	6.760830e+06	3.472411e+00,	-1.17199e-02	
384	6.918310e+06	3.472410e+00,	-1.19928e-02	
385	7.079458e+06	3.472408e+00,	-1.22721e-02	
386	7.244360e+06	3.472407e+00,	-1.25579e-02	
387	7.413102e+06	3.472405e+00,	-1.28503e-02	
388	7.585776e+06	3.472403e+00,	-1.31496e-02	
389	7.762471e+06	3.472401e+00,	-1.34558e-02	
390	7.943282e+06	3.472400e+00,	-1.37691e-02	
391	8.128305e+06	3.472398e+00,	-1.40897e-02	
392	8.317638e+06	3.472396e+00,	-1.44178e-02	
393	8.511380e+06	3.472393e+00,	-1.47535e-02	
394	8.709636e+06	3.472391e+00,	-1.50970e-02	
395	8.912509e+06	3.472389e+00,	-1.54485e-02	
396	9.120108e+06	3.472386e+00,	-1.58082e-02	
397	9.332543e+06	3.472384e+00,	-1.61763e-02	
398	9.549926e+06	3.472381e+00,	-1.65529e-02	
399	9.772372e+06	3.472378e+00,	-1.69383e-02	
400	1.000000e+07	3.472375e+00,	-1.73326e-02	
401	1.023293e+07	3.472372e+00,	-1.77361e-02	
402	1.047129e+07	3.472369e+00,	-1.81490e-02	

Index   frequency       vop                             
--------------------------------------------------------------------------------
403	1.071519e+07	3.472366e+00,	-1.85715e-02	
404	1.096478e+07	3.472362e+00,	-1.90038e-02	
405	1.122018e+07	3.472359e+00,	-1.94462e-02	
406	1.148154e+07	3.472355e+00,	-1.98989e-02	
407	1.174898e+07	3.472351e+00,	-2.03621e-02	
408	1.202264e+07	3.472347e+00,	-2.08360e-02	
409	1.230269e+07	3.472342e+00,	-2.13210e-02	
410	1.258925e+07	3.472338e+00,	-2.18172e-02	
411	1.288250e+07	3.472333e+00,	-2.23250e-02	
412	1.318257e+07	3.472328e+00,	-2.28446e-02	
413	1.348963e+07	3.472323e+00,	-2.33762e-02	
414	1.380384e+07	3.472317e+00,	-2.39202e-02	
415	1.412538e+07	3.472311e+00,	-2.44769e-02	
416	1.445440e+07	3.472305e+00,	-2.50465e-02	
