** sch_path: /home/andylithia/openmpw/project-reisen-chip1/xschem/ota_wideband.sch
AC Analysis  Sun Oct 30 17:11:03  2022
--------------------------------------------------------------------------------
Index   frequency       vop                             
--------------------------------------------------------------------------------
0	1.000000e+03	3.572783e+00,	-2.00684e-06	
1	1.023293e+03	3.572783e+00,	-2.05359e-06	
2	1.047129e+03	3.572783e+00,	-2.10142e-06	
3	1.071519e+03	3.572783e+00,	-2.15037e-06	
4	1.096478e+03	3.572783e+00,	-2.20046e-06	
5	1.122018e+03	3.572783e+00,	-2.25172e-06	
6	1.148154e+03	3.572783e+00,	-2.30416e-06	
7	1.174898e+03	3.572783e+00,	-2.35784e-06	
8	1.202264e+03	3.572783e+00,	-2.41276e-06	
9	1.230269e+03	3.572783e+00,	-2.46896e-06	
10	1.258925e+03	3.572783e+00,	-2.52647e-06	
11	1.288250e+03	3.572783e+00,	-2.58532e-06	
12	1.318257e+03	3.572783e+00,	-2.64554e-06	
13	1.348963e+03	3.572783e+00,	-2.70716e-06	
14	1.380384e+03	3.572783e+00,	-2.77022e-06	
15	1.412538e+03	3.572783e+00,	-2.83474e-06	
16	1.445440e+03	3.572783e+00,	-2.90077e-06	
17	1.479108e+03	3.572783e+00,	-2.96834e-06	
18	1.513561e+03	3.572783e+00,	-3.03748e-06	
19	1.548817e+03	3.572783e+00,	-3.10823e-06	
20	1.584893e+03	3.572783e+00,	-3.18063e-06	
21	1.621810e+03	3.572783e+00,	-3.25472e-06	
22	1.659587e+03	3.572783e+00,	-3.33053e-06	
23	1.698244e+03	3.572783e+00,	-3.40811e-06	
24	1.737801e+03	3.572783e+00,	-3.48749e-06	
25	1.778279e+03	3.572783e+00,	-3.56873e-06	
26	1.819701e+03	3.572783e+00,	-3.65185e-06	
27	1.862087e+03	3.572783e+00,	-3.73692e-06	
28	1.905461e+03	3.572783e+00,	-3.82396e-06	
29	1.949845e+03	3.572783e+00,	-3.91303e-06	
30	1.995262e+03	3.572783e+00,	-4.00418e-06	
31	2.041738e+03	3.572783e+00,	-4.09745e-06	
32	2.089296e+03	3.572783e+00,	-4.19289e-06	
33	2.137962e+03	3.572783e+00,	-4.29056e-06	
34	2.187762e+03	3.572783e+00,	-4.39050e-06	
35	2.238721e+03	3.572783e+00,	-4.49276e-06	
36	2.290868e+03	3.572783e+00,	-4.59741e-06	
37	2.344229e+03	3.572783e+00,	-4.70450e-06	
38	2.398833e+03	3.572783e+00,	-4.81408e-06	
39	2.454709e+03	3.572783e+00,	-4.92622e-06	
40	2.511886e+03	3.572783e+00,	-5.04096e-06	
41	2.570396e+03	3.572783e+00,	-5.15838e-06	
42	2.630268e+03	3.572783e+00,	-5.27854e-06	
43	2.691535e+03	3.572783e+00,	-5.40149e-06	
44	2.754229e+03	3.572783e+00,	-5.52731e-06	
45	2.818383e+03	3.572783e+00,	-5.65605e-06	
46	2.884032e+03	3.572783e+00,	-5.78780e-06	
47	2.951209e+03	3.572783e+00,	-5.92262e-06	
48	3.019952e+03	3.572783e+00,	-6.06057e-06	
49	3.090295e+03	3.572783e+00,	-6.20174e-06	
50	3.162278e+03	3.572783e+00,	-6.34620e-06	
51	3.235937e+03	3.572783e+00,	-6.49402e-06	
52	3.311311e+03	3.572783e+00,	-6.64528e-06	
53	3.388442e+03	3.572783e+00,	-6.80007e-06	
54	3.467369e+03	3.572783e+00,	-6.95847e-06	

Index   frequency       vop                             
--------------------------------------------------------------------------------
55	3.548134e+03	3.572783e+00,	-7.12055e-06	
56	3.630781e+03	3.572783e+00,	-7.28641e-06	
57	3.715352e+03	3.572783e+00,	-7.45613e-06	
58	3.801894e+03	3.572783e+00,	-7.62981e-06	
59	3.890451e+03	3.572783e+00,	-7.80753e-06	
60	3.981072e+03	3.572783e+00,	-7.98939e-06	
61	4.073803e+03	3.572783e+00,	-8.17548e-06	
62	4.168694e+03	3.572783e+00,	-8.36592e-06	
63	4.265795e+03	3.572783e+00,	-8.56078e-06	
64	4.365158e+03	3.572783e+00,	-8.76019e-06	
65	4.466836e+03	3.572783e+00,	-8.96424e-06	
66	4.570882e+03	3.572783e+00,	-9.17305e-06	
67	4.677351e+03	3.572783e+00,	-9.38671e-06	
68	4.786301e+03	3.572783e+00,	-9.60536e-06	
69	4.897788e+03	3.572783e+00,	-9.82909e-06	
70	5.011872e+03	3.572783e+00,	-1.00580e-05	
71	5.128614e+03	3.572783e+00,	-1.02923e-05	
72	5.248075e+03	3.572783e+00,	-1.05321e-05	
73	5.370318e+03	3.572783e+00,	-1.07774e-05	
74	5.495409e+03	3.572783e+00,	-1.10284e-05	
75	5.623413e+03	3.572783e+00,	-1.12853e-05	
76	5.754399e+03	3.572783e+00,	-1.15482e-05	
77	5.888437e+03	3.572783e+00,	-1.18172e-05	
78	6.025596e+03	3.572783e+00,	-1.20924e-05	
79	6.165950e+03	3.572783e+00,	-1.23741e-05	
80	6.309573e+03	3.572783e+00,	-1.26623e-05	
81	6.456542e+03	3.572783e+00,	-1.29573e-05	
82	6.606934e+03	3.572783e+00,	-1.32591e-05	
83	6.760830e+03	3.572783e+00,	-1.35679e-05	
84	6.918310e+03	3.572783e+00,	-1.38840e-05	
85	7.079458e+03	3.572783e+00,	-1.42074e-05	
86	7.244360e+03	3.572783e+00,	-1.45383e-05	
87	7.413102e+03	3.572783e+00,	-1.48769e-05	
88	7.585776e+03	3.572783e+00,	-1.52235e-05	
89	7.762471e+03	3.572783e+00,	-1.55781e-05	
90	7.943282e+03	3.572783e+00,	-1.59409e-05	
91	8.128305e+03	3.572783e+00,	-1.63122e-05	
92	8.317638e+03	3.572783e+00,	-1.66922e-05	
93	8.511380e+03	3.572783e+00,	-1.70810e-05	
94	8.709636e+03	3.572783e+00,	-1.74789e-05	
95	8.912509e+03	3.572783e+00,	-1.78860e-05	
96	9.120108e+03	3.572783e+00,	-1.83026e-05	
97	9.332543e+03	3.572783e+00,	-1.87290e-05	
98	9.549926e+03	3.572783e+00,	-1.91652e-05	
99	9.772372e+03	3.572783e+00,	-1.96116e-05	
100	1.000000e+04	3.572783e+00,	-2.00684e-05	
101	1.023293e+04	3.572783e+00,	-2.05359e-05	
102	1.047129e+04	3.572783e+00,	-2.10142e-05	
103	1.071519e+04	3.572783e+00,	-2.15037e-05	
104	1.096478e+04	3.572783e+00,	-2.20046e-05	
105	1.122018e+04	3.572783e+00,	-2.25172e-05	
106	1.148154e+04	3.572783e+00,	-2.30416e-05	
107	1.174898e+04	3.572783e+00,	-2.35784e-05	
108	1.202264e+04	3.572783e+00,	-2.41276e-05	
109	1.230269e+04	3.572783e+00,	-2.46896e-05	
110	1.258925e+04	3.572783e+00,	-2.52647e-05	
111	1.288250e+04	3.572783e+00,	-2.58532e-05	
112	1.318257e+04	3.572783e+00,	-2.64554e-05	

Index   frequency       vop                             
--------------------------------------------------------------------------------
113	1.348963e+04	3.572783e+00,	-2.70716e-05	
114	1.380384e+04	3.572783e+00,	-2.77022e-05	
115	1.412538e+04	3.572783e+00,	-2.83474e-05	
116	1.445440e+04	3.572783e+00,	-2.90077e-05	
117	1.479108e+04	3.572783e+00,	-2.96834e-05	
118	1.513561e+04	3.572783e+00,	-3.03748e-05	
119	1.548817e+04	3.572783e+00,	-3.10823e-05	
120	1.584893e+04	3.572783e+00,	-3.18063e-05	
121	1.621810e+04	3.572783e+00,	-3.25472e-05	
122	1.659587e+04	3.572783e+00,	-3.33053e-05	
123	1.698244e+04	3.572783e+00,	-3.40811e-05	
124	1.737801e+04	3.572783e+00,	-3.48749e-05	
125	1.778279e+04	3.572783e+00,	-3.56873e-05	
126	1.819701e+04	3.572783e+00,	-3.65185e-05	
127	1.862087e+04	3.572783e+00,	-3.73692e-05	
128	1.905461e+04	3.572783e+00,	-3.82396e-05	
129	1.949845e+04	3.572783e+00,	-3.91303e-05	
130	1.995262e+04	3.572783e+00,	-4.00418e-05	
131	2.041738e+04	3.572783e+00,	-4.09745e-05	
132	2.089296e+04	3.572783e+00,	-4.19289e-05	
133	2.137962e+04	3.572783e+00,	-4.29056e-05	
134	2.187762e+04	3.572783e+00,	-4.39050e-05	
135	2.238721e+04	3.572783e+00,	-4.49276e-05	
136	2.290868e+04	3.572783e+00,	-4.59741e-05	
137	2.344229e+04	3.572783e+00,	-4.70450e-05	
138	2.398833e+04	3.572783e+00,	-4.81408e-05	
139	2.454709e+04	3.572783e+00,	-4.92622e-05	
140	2.511886e+04	3.572783e+00,	-5.04096e-05	
141	2.570396e+04	3.572783e+00,	-5.15838e-05	
142	2.630268e+04	3.572783e+00,	-5.27854e-05	
143	2.691535e+04	3.572783e+00,	-5.40149e-05	
144	2.754229e+04	3.572783e+00,	-5.52731e-05	
145	2.818383e+04	3.572783e+00,	-5.65605e-05	
146	2.884032e+04	3.572783e+00,	-5.78780e-05	
147	2.951209e+04	3.572783e+00,	-5.92262e-05	
148	3.019952e+04	3.572783e+00,	-6.06057e-05	
149	3.090295e+04	3.572783e+00,	-6.20174e-05	
150	3.162278e+04	3.572783e+00,	-6.34620e-05	
151	3.235937e+04	3.572783e+00,	-6.49402e-05	
152	3.311311e+04	3.572783e+00,	-6.64528e-05	
153	3.388442e+04	3.572783e+00,	-6.80007e-05	
154	3.467369e+04	3.572783e+00,	-6.95847e-05	
155	3.548134e+04	3.572783e+00,	-7.12055e-05	
156	3.630781e+04	3.572783e+00,	-7.28641e-05	
157	3.715352e+04	3.572783e+00,	-7.45613e-05	
158	3.801894e+04	3.572783e+00,	-7.62981e-05	
159	3.890451e+04	3.572783e+00,	-7.80753e-05	
160	3.981072e+04	3.572783e+00,	-7.98939e-05	
161	4.073803e+04	3.572783e+00,	-8.17548e-05	
162	4.168694e+04	3.572783e+00,	-8.36592e-05	
163	4.265795e+04	3.572783e+00,	-8.56078e-05	
164	4.365158e+04	3.572783e+00,	-8.76019e-05	
165	4.466836e+04	3.572783e+00,	-8.96424e-05	
166	4.570882e+04	3.572783e+00,	-9.17304e-05	
167	4.677351e+04	3.572783e+00,	-9.38671e-05	
168	4.786301e+04	3.572783e+00,	-9.60536e-05	
169	4.897788e+04	3.572783e+00,	-9.82909e-05	
170	5.011872e+04	3.572783e+00,	-1.00580e-04	

Index   frequency       vop                             
--------------------------------------------------------------------------------
171	5.128614e+04	3.572783e+00,	-1.02923e-04	
172	5.248075e+04	3.572783e+00,	-1.05321e-04	
173	5.370318e+04	3.572783e+00,	-1.07774e-04	
174	5.495409e+04	3.572783e+00,	-1.10284e-04	
175	5.623413e+04	3.572783e+00,	-1.12853e-04	
176	5.754399e+04	3.572783e+00,	-1.15482e-04	
177	5.888437e+04	3.572783e+00,	-1.18172e-04	
178	6.025596e+04	3.572783e+00,	-1.20924e-04	
179	6.165950e+04	3.572783e+00,	-1.23741e-04	
180	6.309573e+04	3.572783e+00,	-1.26623e-04	
181	6.456542e+04	3.572783e+00,	-1.29573e-04	
182	6.606934e+04	3.572783e+00,	-1.32591e-04	
183	6.760830e+04	3.572783e+00,	-1.35679e-04	
184	6.918310e+04	3.572783e+00,	-1.38840e-04	
185	7.079458e+04	3.572783e+00,	-1.42074e-04	
186	7.244360e+04	3.572783e+00,	-1.45383e-04	
187	7.413102e+04	3.572783e+00,	-1.48769e-04	
188	7.585776e+04	3.572783e+00,	-1.52235e-04	
189	7.762471e+04	3.572783e+00,	-1.55781e-04	
190	7.943282e+04	3.572783e+00,	-1.59409e-04	
191	8.128305e+04	3.572783e+00,	-1.63122e-04	
192	8.317638e+04	3.572783e+00,	-1.66922e-04	
193	8.511380e+04	3.572783e+00,	-1.70810e-04	
194	8.709636e+04	3.572783e+00,	-1.74789e-04	
195	8.912509e+04	3.572783e+00,	-1.78860e-04	
196	9.120108e+04	3.572783e+00,	-1.83026e-04	
197	9.332543e+04	3.572783e+00,	-1.87290e-04	
198	9.549926e+04	3.572783e+00,	-1.91652e-04	
199	9.772372e+04	3.572783e+00,	-1.96116e-04	
200	1.000000e+05	3.572783e+00,	-2.00684e-04	
201	1.023293e+05	3.572783e+00,	-2.05359e-04	
202	1.047129e+05	3.572783e+00,	-2.10142e-04	
203	1.071519e+05	3.572783e+00,	-2.15037e-04	
204	1.096478e+05	3.572783e+00,	-2.20046e-04	
205	1.122018e+05	3.572783e+00,	-2.25172e-04	
206	1.148154e+05	3.572783e+00,	-2.30416e-04	
207	1.174898e+05	3.572783e+00,	-2.35784e-04	
208	1.202264e+05	3.572783e+00,	-2.41276e-04	
209	1.230269e+05	3.572783e+00,	-2.46896e-04	
210	1.258925e+05	3.572783e+00,	-2.52647e-04	
211	1.288250e+05	3.572783e+00,	-2.58532e-04	
212	1.318257e+05	3.572783e+00,	-2.64553e-04	
213	1.348963e+05	3.572783e+00,	-2.70716e-04	
214	1.380384e+05	3.572783e+00,	-2.77022e-04	
215	1.412538e+05	3.572783e+00,	-2.83474e-04	
216	1.445440e+05	3.572783e+00,	-2.90077e-04	
217	1.479108e+05	3.572783e+00,	-2.96834e-04	
218	1.513561e+05	3.572783e+00,	-3.03748e-04	
219	1.548817e+05	3.572783e+00,	-3.10823e-04	
220	1.584893e+05	3.572783e+00,	-3.18063e-04	
221	1.621810e+05	3.572783e+00,	-3.25472e-04	
222	1.659587e+05	3.572783e+00,	-3.33053e-04	
223	1.698244e+05	3.572783e+00,	-3.40811e-04	
224	1.737801e+05	3.572783e+00,	-3.48749e-04	
225	1.778279e+05	3.572783e+00,	-3.56873e-04	
226	1.819701e+05	3.572783e+00,	-3.65185e-04	
227	1.862087e+05	3.572783e+00,	-3.73692e-04	
228	1.905461e+05	3.572783e+00,	-3.82396e-04	

Index   frequency       vop                             
--------------------------------------------------------------------------------
229	1.949845e+05	3.572783e+00,	-3.91303e-04	
230	1.995262e+05	3.572783e+00,	-4.00418e-04	
231	2.041738e+05	3.572783e+00,	-4.09745e-04	
232	2.089296e+05	3.572783e+00,	-4.19289e-04	
233	2.137962e+05	3.572783e+00,	-4.29056e-04	
234	2.187762e+05	3.572783e+00,	-4.39049e-04	
235	2.238721e+05	3.572783e+00,	-4.49276e-04	
236	2.290868e+05	3.572783e+00,	-4.59741e-04	
237	2.344229e+05	3.572783e+00,	-4.70450e-04	
238	2.398833e+05	3.572783e+00,	-4.81408e-04	
239	2.454709e+05	3.572783e+00,	-4.92622e-04	
240	2.511886e+05	3.572783e+00,	-5.04096e-04	
241	2.570396e+05	3.572783e+00,	-5.15838e-04	
242	2.630268e+05	3.572783e+00,	-5.27854e-04	
243	2.691535e+05	3.572783e+00,	-5.40149e-04	
244	2.754229e+05	3.572783e+00,	-5.52731e-04	
245	2.818383e+05	3.572783e+00,	-5.65605e-04	
246	2.884032e+05	3.572783e+00,	-5.78780e-04	
247	2.951209e+05	3.572783e+00,	-5.92261e-04	
248	3.019952e+05	3.572783e+00,	-6.06057e-04	
249	3.090295e+05	3.572783e+00,	-6.20174e-04	
250	3.162278e+05	3.572783e+00,	-6.34620e-04	
251	3.235937e+05	3.572783e+00,	-6.49402e-04	
252	3.311311e+05	3.572783e+00,	-6.64528e-04	
253	3.388442e+05	3.572783e+00,	-6.80007e-04	
254	3.467369e+05	3.572783e+00,	-6.95846e-04	
255	3.548134e+05	3.572783e+00,	-7.12055e-04	
256	3.630781e+05	3.572783e+00,	-7.28641e-04	
257	3.715352e+05	3.572783e+00,	-7.45613e-04	
258	3.801894e+05	3.572783e+00,	-7.62980e-04	
259	3.890451e+05	3.572783e+00,	-7.80753e-04	
260	3.981072e+05	3.572783e+00,	-7.98939e-04	
261	4.073803e+05	3.572783e+00,	-8.17548e-04	
262	4.168694e+05	3.572783e+00,	-8.36591e-04	
263	4.265795e+05	3.572783e+00,	-8.56078e-04	
264	4.365158e+05	3.572783e+00,	-8.76019e-04	
265	4.466836e+05	3.572783e+00,	-8.96424e-04	
266	4.570882e+05	3.572783e+00,	-9.17304e-04	
267	4.677351e+05	3.572783e+00,	-9.38671e-04	
268	4.786301e+05	3.572783e+00,	-9.60535e-04	
269	4.897788e+05	3.572783e+00,	-9.82909e-04	
270	5.011872e+05	3.572783e+00,	-1.00580e-03	
271	5.128614e+05	3.572783e+00,	-1.02923e-03	
272	5.248075e+05	3.572783e+00,	-1.05321e-03	
273	5.370318e+05	3.572783e+00,	-1.07774e-03	
274	5.495409e+05	3.572783e+00,	-1.10284e-03	
275	5.623413e+05	3.572783e+00,	-1.12853e-03	
276	5.754399e+05	3.572783e+00,	-1.15482e-03	
277	5.888437e+05	3.572783e+00,	-1.18172e-03	
278	6.025596e+05	3.572783e+00,	-1.20924e-03	
279	6.165950e+05	3.572783e+00,	-1.23741e-03	
280	6.309573e+05	3.572783e+00,	-1.26623e-03	
281	6.456542e+05	3.572783e+00,	-1.29573e-03	
282	6.606934e+05	3.572783e+00,	-1.32591e-03	
283	6.760830e+05	3.572783e+00,	-1.35679e-03	
284	6.918310e+05	3.572783e+00,	-1.38840e-03	
285	7.079458e+05	3.572783e+00,	-1.42074e-03	
286	7.244360e+05	3.572783e+00,	-1.45383e-03	

Index   frequency       vop                             
--------------------------------------------------------------------------------
287	7.413102e+05	3.572783e+00,	-1.48769e-03	
288	7.585776e+05	3.572783e+00,	-1.52234e-03	
289	7.762471e+05	3.572783e+00,	-1.55780e-03	
290	7.943282e+05	3.572783e+00,	-1.59409e-03	
291	8.128305e+05	3.572783e+00,	-1.63122e-03	
292	8.317638e+05	3.572782e+00,	-1.66922e-03	
293	8.511380e+05	3.572782e+00,	-1.70810e-03	
294	8.709636e+05	3.572782e+00,	-1.74789e-03	
295	8.912509e+05	3.572782e+00,	-1.78860e-03	
296	9.120108e+05	3.572782e+00,	-1.83026e-03	
297	9.332543e+05	3.572782e+00,	-1.87289e-03	
298	9.549926e+05	3.572782e+00,	-1.91652e-03	
299	9.772372e+05	3.572782e+00,	-1.96116e-03	
300	1.000000e+06	3.572782e+00,	-2.00684e-03	
301	1.023293e+06	3.572782e+00,	-2.05358e-03	
302	1.047129e+06	3.572782e+00,	-2.10142e-03	
303	1.071519e+06	3.572782e+00,	-2.15037e-03	
304	1.096478e+06	3.572782e+00,	-2.20045e-03	
305	1.122018e+06	3.572782e+00,	-2.25171e-03	
306	1.148154e+06	3.572782e+00,	-2.30416e-03	
307	1.174898e+06	3.572782e+00,	-2.35783e-03	
308	1.202264e+06	3.572782e+00,	-2.41275e-03	
309	1.230269e+06	3.572782e+00,	-2.46895e-03	
310	1.258925e+06	3.572782e+00,	-2.52646e-03	
311	1.288250e+06	3.572781e+00,	-2.58531e-03	
312	1.318257e+06	3.572781e+00,	-2.64553e-03	
313	1.348963e+06	3.572781e+00,	-2.70715e-03	
314	1.380384e+06	3.572781e+00,	-2.77020e-03	
315	1.412538e+06	3.572781e+00,	-2.83473e-03	
316	1.445440e+06	3.572781e+00,	-2.90076e-03	
317	1.479108e+06	3.572781e+00,	-2.96833e-03	
318	1.513561e+06	3.572781e+00,	-3.03747e-03	
319	1.548817e+06	3.572781e+00,	-3.10822e-03	
320	1.584893e+06	3.572780e+00,	-3.18062e-03	
321	1.621810e+06	3.572780e+00,	-3.25470e-03	
322	1.659587e+06	3.572780e+00,	-3.33051e-03	
323	1.698244e+06	3.572780e+00,	-3.40809e-03	
324	1.737801e+06	3.572780e+00,	-3.48747e-03	
325	1.778279e+06	3.572780e+00,	-3.56871e-03	
326	1.819701e+06	3.572780e+00,	-3.65183e-03	
327	1.862087e+06	3.572779e+00,	-3.73689e-03	
328	1.905461e+06	3.572779e+00,	-3.82393e-03	
329	1.949845e+06	3.572779e+00,	-3.91300e-03	
330	1.995262e+06	3.572779e+00,	-4.00415e-03	
331	2.041738e+06	3.572779e+00,	-4.09741e-03	
332	2.089296e+06	3.572778e+00,	-4.19285e-03	
333	2.137962e+06	3.572778e+00,	-4.29052e-03	
334	2.187762e+06	3.572778e+00,	-4.39045e-03	
335	2.238721e+06	3.572778e+00,	-4.49272e-03	
336	2.290868e+06	3.572777e+00,	-4.59737e-03	
337	2.344229e+06	3.572777e+00,	-4.70445e-03	
338	2.398833e+06	3.572777e+00,	-4.81403e-03	
339	2.454709e+06	3.572777e+00,	-4.92616e-03	
340	2.511886e+06	3.572776e+00,	-5.04090e-03	
341	2.570396e+06	3.572776e+00,	-5.15831e-03	
342	2.630268e+06	3.572776e+00,	-5.27846e-03	
343	2.691535e+06	3.572775e+00,	-5.40141e-03	
344	2.754229e+06	3.572775e+00,	-5.52722e-03	

Index   frequency       vop                             
--------------------------------------------------------------------------------
345	2.818383e+06	3.572774e+00,	-5.65596e-03	
346	2.884032e+06	3.572774e+00,	-5.78770e-03	
347	2.951209e+06	3.572774e+00,	-5.92251e-03	
348	3.019952e+06	3.572773e+00,	-6.06046e-03	
349	3.090295e+06	3.572773e+00,	-6.20162e-03	
350	3.162278e+06	3.572772e+00,	-6.34607e-03	
351	3.235937e+06	3.572772e+00,	-6.49388e-03	
352	3.311311e+06	3.572771e+00,	-6.64514e-03	
353	3.388442e+06	3.572771e+00,	-6.79992e-03	
354	3.467369e+06	3.572770e+00,	-6.95830e-03	
355	3.548134e+06	3.572769e+00,	-7.12037e-03	
356	3.630781e+06	3.572769e+00,	-7.28622e-03	
357	3.715352e+06	3.572768e+00,	-7.45593e-03	
358	3.801894e+06	3.572767e+00,	-7.62959e-03	
359	3.890451e+06	3.572767e+00,	-7.80729e-03	
360	3.981072e+06	3.572766e+00,	-7.98914e-03	
361	4.073803e+06	3.572765e+00,	-8.17522e-03	
362	4.168694e+06	3.572764e+00,	-8.36563e-03	
363	4.265795e+06	3.572763e+00,	-8.56047e-03	
364	4.365158e+06	3.572762e+00,	-8.75986e-03	
365	4.466836e+06	3.572761e+00,	-8.96389e-03	
366	4.570882e+06	3.572760e+00,	-9.17267e-03	
367	4.677351e+06	3.572759e+00,	-9.38631e-03	
368	4.786301e+06	3.572758e+00,	-9.60492e-03	
369	4.897788e+06	3.572757e+00,	-9.82863e-03	
370	5.011872e+06	3.572756e+00,	-1.00575e-02	
371	5.128614e+06	3.572754e+00,	-1.02918e-02	
372	5.248075e+06	3.572753e+00,	-1.05315e-02	
373	5.370318e+06	3.572751e+00,	-1.07768e-02	
374	5.495409e+06	3.572750e+00,	-1.10278e-02	
375	5.623413e+06	3.572748e+00,	-1.12846e-02	
376	5.754399e+06	3.572747e+00,	-1.15474e-02	
377	5.888437e+06	3.572745e+00,	-1.18164e-02	
378	6.025596e+06	3.572743e+00,	-1.20916e-02	
379	6.165950e+06	3.572741e+00,	-1.23732e-02	
380	6.309573e+06	3.572739e+00,	-1.26613e-02	
381	6.456542e+06	3.572737e+00,	-1.29562e-02	
382	6.606934e+06	3.572735e+00,	-1.32579e-02	
383	6.760830e+06	3.572733e+00,	-1.35667e-02	
384	6.918310e+06	3.572730e+00,	-1.38827e-02	
385	7.079458e+06	3.572728e+00,	-1.42060e-02	
386	7.244360e+06	3.572725e+00,	-1.45368e-02	
387	7.413102e+06	3.572723e+00,	-1.48753e-02	
388	7.585776e+06	3.572720e+00,	-1.52217e-02	
389	7.762471e+06	3.572717e+00,	-1.55762e-02	
390	7.943282e+06	3.572714e+00,	-1.59389e-02	
391	8.128305e+06	3.572710e+00,	-1.63101e-02	
392	8.317638e+06	3.572707e+00,	-1.66899e-02	
393	8.511380e+06	3.572703e+00,	-1.70786e-02	
394	8.709636e+06	3.572700e+00,	-1.74763e-02	
395	8.912509e+06	3.572696e+00,	-1.78832e-02	
396	9.120108e+06	3.572692e+00,	-1.82997e-02	
397	9.332543e+06	3.572687e+00,	-1.87258e-02	
398	9.549926e+06	3.572683e+00,	-1.91618e-02	
399	9.772372e+06	3.572678e+00,	-1.96080e-02	
400	1.000000e+07	3.572673e+00,	-2.00645e-02	
401	1.023293e+07	3.572668e+00,	-2.05317e-02	
402	1.047129e+07	3.572663e+00,	-2.10097e-02	

Index   frequency       vop                             
--------------------------------------------------------------------------------
403	1.071519e+07	3.572657e+00,	-2.14989e-02	
404	1.096478e+07	3.572651e+00,	-2.19995e-02	
405	1.122018e+07	3.572645e+00,	-2.25117e-02	
406	1.148154e+07	3.572638e+00,	-2.30358e-02	
407	1.174898e+07	3.572632e+00,	-2.35721e-02	
408	1.202264e+07	3.572625e+00,	-2.41208e-02	
409	1.230269e+07	3.572617e+00,	-2.46824e-02	
410	1.258925e+07	3.572609e+00,	-2.52570e-02	
411	1.288250e+07	3.572601e+00,	-2.58449e-02	
412	1.318257e+07	3.572593e+00,	-2.64465e-02	
413	1.348963e+07	3.572584e+00,	-2.70621e-02	
414	1.380384e+07	3.572574e+00,	-2.76921e-02	
415	1.412538e+07	3.572565e+00,	-2.83366e-02	
416	1.445440e+07	3.572555e+00,	-2.89962e-02	
