** sch_path: /home/andylithia/openmpw/project-reisen-chip1/xschem/ota_wideband.sch
AC Analysis  Sun Oct 30 17:11:03  2022
--------------------------------------------------------------------------------
Index   frequency       vop                             
--------------------------------------------------------------------------------
0	1.000000e+03	3.578095e+00,	-2.01915e-06	
1	1.023293e+03	3.578095e+00,	-2.06618e-06	
2	1.047129e+03	3.578095e+00,	-2.11431e-06	
3	1.071519e+03	3.578095e+00,	-2.16356e-06	
4	1.096478e+03	3.578095e+00,	-2.21395e-06	
5	1.122018e+03	3.578095e+00,	-2.26552e-06	
6	1.148154e+03	3.578095e+00,	-2.31829e-06	
7	1.174898e+03	3.578095e+00,	-2.37229e-06	
8	1.202264e+03	3.578095e+00,	-2.42755e-06	
9	1.230269e+03	3.578095e+00,	-2.48410e-06	
10	1.258925e+03	3.578095e+00,	-2.54196e-06	
11	1.288250e+03	3.578095e+00,	-2.60117e-06	
12	1.318257e+03	3.578095e+00,	-2.66176e-06	
13	1.348963e+03	3.578095e+00,	-2.72376e-06	
14	1.380384e+03	3.578095e+00,	-2.78720e-06	
15	1.412538e+03	3.578095e+00,	-2.85213e-06	
16	1.445440e+03	3.578095e+00,	-2.91856e-06	
17	1.479108e+03	3.578095e+00,	-2.98654e-06	
18	1.513561e+03	3.578095e+00,	-3.05611e-06	
19	1.548817e+03	3.578095e+00,	-3.12729e-06	
20	1.584893e+03	3.578095e+00,	-3.20014e-06	
21	1.621810e+03	3.578095e+00,	-3.27468e-06	
22	1.659587e+03	3.578095e+00,	-3.35096e-06	
23	1.698244e+03	3.578095e+00,	-3.42901e-06	
24	1.737801e+03	3.578095e+00,	-3.50888e-06	
25	1.778279e+03	3.578095e+00,	-3.59061e-06	
26	1.819701e+03	3.578095e+00,	-3.67425e-06	
27	1.862087e+03	3.578095e+00,	-3.75983e-06	
28	1.905461e+03	3.578095e+00,	-3.84741e-06	
29	1.949845e+03	3.578095e+00,	-3.93703e-06	
30	1.995262e+03	3.578095e+00,	-4.02873e-06	
31	2.041738e+03	3.578095e+00,	-4.12258e-06	
32	2.089296e+03	3.578095e+00,	-4.21860e-06	
33	2.137962e+03	3.578095e+00,	-4.31687e-06	
34	2.187762e+03	3.578095e+00,	-4.41742e-06	
35	2.238721e+03	3.578095e+00,	-4.52031e-06	
36	2.290868e+03	3.578095e+00,	-4.62561e-06	
37	2.344229e+03	3.578095e+00,	-4.73335e-06	
38	2.398833e+03	3.578095e+00,	-4.84360e-06	
39	2.454709e+03	3.578095e+00,	-4.95643e-06	
40	2.511886e+03	3.578095e+00,	-5.07188e-06	
41	2.570396e+03	3.578095e+00,	-5.19001e-06	
42	2.630268e+03	3.578095e+00,	-5.31091e-06	
43	2.691535e+03	3.578095e+00,	-5.43461e-06	
44	2.754229e+03	3.578095e+00,	-5.56120e-06	
45	2.818383e+03	3.578095e+00,	-5.69074e-06	
46	2.884032e+03	3.578095e+00,	-5.82329e-06	
47	2.951209e+03	3.578095e+00,	-5.95893e-06	
48	3.019952e+03	3.578095e+00,	-6.09774e-06	
49	3.090295e+03	3.578095e+00,	-6.23977e-06	
50	3.162278e+03	3.578095e+00,	-6.38511e-06	
51	3.235937e+03	3.578095e+00,	-6.53384e-06	
52	3.311311e+03	3.578095e+00,	-6.68603e-06	
53	3.388442e+03	3.578095e+00,	-6.84177e-06	
54	3.467369e+03	3.578095e+00,	-7.00114e-06	

Index   frequency       vop                             
--------------------------------------------------------------------------------
55	3.548134e+03	3.578095e+00,	-7.16421e-06	
56	3.630781e+03	3.578095e+00,	-7.33109e-06	
57	3.715352e+03	3.578095e+00,	-7.50185e-06	
58	3.801894e+03	3.578095e+00,	-7.67659e-06	
59	3.890451e+03	3.578095e+00,	-7.85541e-06	
60	3.981072e+03	3.578095e+00,	-8.03838e-06	
61	4.073803e+03	3.578095e+00,	-8.22562e-06	
62	4.168694e+03	3.578095e+00,	-8.41722e-06	
63	4.265795e+03	3.578095e+00,	-8.61328e-06	
64	4.365158e+03	3.578095e+00,	-8.81391e-06	
65	4.466836e+03	3.578095e+00,	-9.01921e-06	
66	4.570882e+03	3.578095e+00,	-9.22930e-06	
67	4.677351e+03	3.578095e+00,	-9.44427e-06	
68	4.786301e+03	3.578095e+00,	-9.66426e-06	
69	4.897788e+03	3.578095e+00,	-9.88937e-06	
70	5.011872e+03	3.578095e+00,	-1.01197e-05	
71	5.128614e+03	3.578095e+00,	-1.03554e-05	
72	5.248075e+03	3.578095e+00,	-1.05967e-05	
73	5.370318e+03	3.578095e+00,	-1.08435e-05	
74	5.495409e+03	3.578095e+00,	-1.10961e-05	
75	5.623413e+03	3.578095e+00,	-1.13545e-05	
76	5.754399e+03	3.578095e+00,	-1.16190e-05	
77	5.888437e+03	3.578095e+00,	-1.18896e-05	
78	6.025596e+03	3.578095e+00,	-1.21666e-05	
79	6.165950e+03	3.578095e+00,	-1.24500e-05	
80	6.309573e+03	3.578095e+00,	-1.27400e-05	
81	6.456542e+03	3.578095e+00,	-1.30367e-05	
82	6.606934e+03	3.578095e+00,	-1.33404e-05	
83	6.760830e+03	3.578095e+00,	-1.36511e-05	
84	6.918310e+03	3.578095e+00,	-1.39691e-05	
85	7.079458e+03	3.578095e+00,	-1.42945e-05	
86	7.244360e+03	3.578095e+00,	-1.46274e-05	
87	7.413102e+03	3.578095e+00,	-1.49682e-05	
88	7.585776e+03	3.578095e+00,	-1.53168e-05	
89	7.762471e+03	3.578095e+00,	-1.56736e-05	
90	7.943282e+03	3.578095e+00,	-1.60387e-05	
91	8.128305e+03	3.578095e+00,	-1.64123e-05	
92	8.317638e+03	3.578095e+00,	-1.67946e-05	
93	8.511380e+03	3.578095e+00,	-1.71858e-05	
94	8.709636e+03	3.578095e+00,	-1.75861e-05	
95	8.912509e+03	3.578095e+00,	-1.79957e-05	
96	9.120108e+03	3.578095e+00,	-1.84149e-05	
97	9.332543e+03	3.578095e+00,	-1.88438e-05	
98	9.549926e+03	3.578095e+00,	-1.92827e-05	
99	9.772372e+03	3.578095e+00,	-1.97319e-05	
100	1.000000e+04	3.578095e+00,	-2.01915e-05	
101	1.023293e+04	3.578095e+00,	-2.06618e-05	
102	1.047129e+04	3.578095e+00,	-2.11431e-05	
103	1.071519e+04	3.578095e+00,	-2.16356e-05	
104	1.096478e+04	3.578095e+00,	-2.21395e-05	
105	1.122018e+04	3.578095e+00,	-2.26552e-05	
106	1.148154e+04	3.578095e+00,	-2.31829e-05	
107	1.174898e+04	3.578095e+00,	-2.37229e-05	
108	1.202264e+04	3.578095e+00,	-2.42755e-05	
109	1.230269e+04	3.578095e+00,	-2.48410e-05	
110	1.258925e+04	3.578095e+00,	-2.54196e-05	
111	1.288250e+04	3.578095e+00,	-2.60117e-05	
112	1.318257e+04	3.578095e+00,	-2.66176e-05	

Index   frequency       vop                             
--------------------------------------------------------------------------------
113	1.348963e+04	3.578095e+00,	-2.72376e-05	
114	1.380384e+04	3.578095e+00,	-2.78720e-05	
115	1.412538e+04	3.578095e+00,	-2.85213e-05	
116	1.445440e+04	3.578095e+00,	-2.91856e-05	
117	1.479108e+04	3.578095e+00,	-2.98654e-05	
118	1.513561e+04	3.578095e+00,	-3.05611e-05	
119	1.548817e+04	3.578095e+00,	-3.12729e-05	
120	1.584893e+04	3.578095e+00,	-3.20014e-05	
121	1.621810e+04	3.578095e+00,	-3.27468e-05	
122	1.659587e+04	3.578095e+00,	-3.35096e-05	
123	1.698244e+04	3.578095e+00,	-3.42901e-05	
124	1.737801e+04	3.578095e+00,	-3.50888e-05	
125	1.778279e+04	3.578095e+00,	-3.59061e-05	
126	1.819701e+04	3.578095e+00,	-3.67425e-05	
127	1.862087e+04	3.578095e+00,	-3.75983e-05	
128	1.905461e+04	3.578095e+00,	-3.84741e-05	
129	1.949845e+04	3.578095e+00,	-3.93703e-05	
130	1.995262e+04	3.578095e+00,	-4.02873e-05	
131	2.041738e+04	3.578095e+00,	-4.12258e-05	
132	2.089296e+04	3.578095e+00,	-4.21860e-05	
133	2.137962e+04	3.578095e+00,	-4.31687e-05	
134	2.187762e+04	3.578095e+00,	-4.41742e-05	
135	2.238721e+04	3.578095e+00,	-4.52031e-05	
136	2.290868e+04	3.578095e+00,	-4.62561e-05	
137	2.344229e+04	3.578095e+00,	-4.73335e-05	
138	2.398833e+04	3.578095e+00,	-4.84360e-05	
139	2.454709e+04	3.578095e+00,	-4.95643e-05	
140	2.511886e+04	3.578095e+00,	-5.07188e-05	
141	2.570396e+04	3.578095e+00,	-5.19001e-05	
142	2.630268e+04	3.578095e+00,	-5.31091e-05	
143	2.691535e+04	3.578095e+00,	-5.43461e-05	
144	2.754229e+04	3.578095e+00,	-5.56120e-05	
145	2.818383e+04	3.578095e+00,	-5.69074e-05	
146	2.884032e+04	3.578095e+00,	-5.82329e-05	
147	2.951209e+04	3.578095e+00,	-5.95893e-05	
148	3.019952e+04	3.578095e+00,	-6.09774e-05	
149	3.090295e+04	3.578095e+00,	-6.23977e-05	
150	3.162278e+04	3.578095e+00,	-6.38511e-05	
151	3.235937e+04	3.578095e+00,	-6.53384e-05	
152	3.311311e+04	3.578095e+00,	-6.68603e-05	
153	3.388442e+04	3.578095e+00,	-6.84177e-05	
154	3.467369e+04	3.578095e+00,	-7.00114e-05	
155	3.548134e+04	3.578095e+00,	-7.16421e-05	
156	3.630781e+04	3.578095e+00,	-7.33109e-05	
157	3.715352e+04	3.578095e+00,	-7.50185e-05	
158	3.801894e+04	3.578095e+00,	-7.67659e-05	
159	3.890451e+04	3.578095e+00,	-7.85541e-05	
160	3.981072e+04	3.578095e+00,	-8.03838e-05	
161	4.073803e+04	3.578095e+00,	-8.22562e-05	
162	4.168694e+04	3.578095e+00,	-8.41722e-05	
163	4.265795e+04	3.578095e+00,	-8.61328e-05	
164	4.365158e+04	3.578095e+00,	-8.81391e-05	
165	4.466836e+04	3.578095e+00,	-9.01921e-05	
166	4.570882e+04	3.578095e+00,	-9.22930e-05	
167	4.677351e+04	3.578095e+00,	-9.44427e-05	
168	4.786301e+04	3.578095e+00,	-9.66426e-05	
169	4.897788e+04	3.578095e+00,	-9.88937e-05	
170	5.011872e+04	3.578095e+00,	-1.01197e-04	

Index   frequency       vop                             
--------------------------------------------------------------------------------
171	5.128614e+04	3.578095e+00,	-1.03554e-04	
172	5.248075e+04	3.578095e+00,	-1.05967e-04	
173	5.370318e+04	3.578095e+00,	-1.08435e-04	
174	5.495409e+04	3.578095e+00,	-1.10961e-04	
175	5.623413e+04	3.578095e+00,	-1.13545e-04	
176	5.754399e+04	3.578095e+00,	-1.16190e-04	
177	5.888437e+04	3.578095e+00,	-1.18896e-04	
178	6.025596e+04	3.578095e+00,	-1.21666e-04	
179	6.165950e+04	3.578095e+00,	-1.24500e-04	
180	6.309573e+04	3.578095e+00,	-1.27400e-04	
181	6.456542e+04	3.578095e+00,	-1.30367e-04	
182	6.606934e+04	3.578095e+00,	-1.33404e-04	
183	6.760830e+04	3.578095e+00,	-1.36511e-04	
184	6.918310e+04	3.578095e+00,	-1.39691e-04	
185	7.079458e+04	3.578095e+00,	-1.42945e-04	
186	7.244360e+04	3.578095e+00,	-1.46274e-04	
187	7.413102e+04	3.578095e+00,	-1.49682e-04	
188	7.585776e+04	3.578095e+00,	-1.53168e-04	
189	7.762471e+04	3.578095e+00,	-1.56736e-04	
190	7.943282e+04	3.578095e+00,	-1.60387e-04	
191	8.128305e+04	3.578095e+00,	-1.64123e-04	
192	8.317638e+04	3.578095e+00,	-1.67946e-04	
193	8.511380e+04	3.578095e+00,	-1.71858e-04	
194	8.709636e+04	3.578095e+00,	-1.75861e-04	
195	8.912509e+04	3.578095e+00,	-1.79957e-04	
196	9.120108e+04	3.578095e+00,	-1.84149e-04	
197	9.332543e+04	3.578095e+00,	-1.88438e-04	
198	9.549926e+04	3.578095e+00,	-1.92827e-04	
199	9.772372e+04	3.578095e+00,	-1.97319e-04	
200	1.000000e+05	3.578095e+00,	-2.01915e-04	
201	1.023293e+05	3.578095e+00,	-2.06618e-04	
202	1.047129e+05	3.578095e+00,	-2.11431e-04	
203	1.071519e+05	3.578095e+00,	-2.16356e-04	
204	1.096478e+05	3.578095e+00,	-2.21395e-04	
205	1.122018e+05	3.578095e+00,	-2.26552e-04	
206	1.148154e+05	3.578095e+00,	-2.31829e-04	
207	1.174898e+05	3.578095e+00,	-2.37229e-04	
208	1.202264e+05	3.578095e+00,	-2.42755e-04	
209	1.230269e+05	3.578095e+00,	-2.48410e-04	
210	1.258925e+05	3.578095e+00,	-2.54196e-04	
211	1.288250e+05	3.578095e+00,	-2.60117e-04	
212	1.318257e+05	3.578095e+00,	-2.66176e-04	
213	1.348963e+05	3.578095e+00,	-2.72376e-04	
214	1.380384e+05	3.578095e+00,	-2.78720e-04	
215	1.412538e+05	3.578095e+00,	-2.85213e-04	
216	1.445440e+05	3.578095e+00,	-2.91856e-04	
217	1.479108e+05	3.578095e+00,	-2.98654e-04	
218	1.513561e+05	3.578095e+00,	-3.05611e-04	
219	1.548817e+05	3.578095e+00,	-3.12729e-04	
220	1.584893e+05	3.578095e+00,	-3.20014e-04	
221	1.621810e+05	3.578095e+00,	-3.27468e-04	
222	1.659587e+05	3.578095e+00,	-3.35095e-04	
223	1.698244e+05	3.578095e+00,	-3.42901e-04	
224	1.737801e+05	3.578095e+00,	-3.50888e-04	
225	1.778279e+05	3.578095e+00,	-3.59061e-04	
226	1.819701e+05	3.578095e+00,	-3.67425e-04	
227	1.862087e+05	3.578095e+00,	-3.75983e-04	
228	1.905461e+05	3.578095e+00,	-3.84741e-04	

Index   frequency       vop                             
--------------------------------------------------------------------------------
229	1.949845e+05	3.578095e+00,	-3.93703e-04	
230	1.995262e+05	3.578095e+00,	-4.02873e-04	
231	2.041738e+05	3.578095e+00,	-4.12258e-04	
232	2.089296e+05	3.578095e+00,	-4.21860e-04	
233	2.137962e+05	3.578095e+00,	-4.31687e-04	
234	2.187762e+05	3.578095e+00,	-4.41742e-04	
235	2.238721e+05	3.578095e+00,	-4.52031e-04	
236	2.290868e+05	3.578095e+00,	-4.62561e-04	
237	2.344229e+05	3.578095e+00,	-4.73335e-04	
238	2.398833e+05	3.578095e+00,	-4.84360e-04	
239	2.454709e+05	3.578095e+00,	-4.95643e-04	
240	2.511886e+05	3.578095e+00,	-5.07188e-04	
241	2.570396e+05	3.578095e+00,	-5.19001e-04	
242	2.630268e+05	3.578095e+00,	-5.31091e-04	
243	2.691535e+05	3.578095e+00,	-5.43461e-04	
244	2.754229e+05	3.578095e+00,	-5.56120e-04	
245	2.818383e+05	3.578095e+00,	-5.69074e-04	
246	2.884032e+05	3.578095e+00,	-5.82329e-04	
247	2.951209e+05	3.578095e+00,	-5.95893e-04	
248	3.019952e+05	3.578095e+00,	-6.09773e-04	
249	3.090295e+05	3.578095e+00,	-6.23977e-04	
250	3.162278e+05	3.578095e+00,	-6.38511e-04	
251	3.235937e+05	3.578095e+00,	-6.53384e-04	
252	3.311311e+05	3.578095e+00,	-6.68603e-04	
253	3.388442e+05	3.578095e+00,	-6.84177e-04	
254	3.467369e+05	3.578095e+00,	-7.00114e-04	
255	3.548134e+05	3.578095e+00,	-7.16421e-04	
256	3.630781e+05	3.578095e+00,	-7.33109e-04	
257	3.715352e+05	3.578095e+00,	-7.50185e-04	
258	3.801894e+05	3.578095e+00,	-7.67659e-04	
259	3.890451e+05	3.578095e+00,	-7.85540e-04	
260	3.981072e+05	3.578095e+00,	-8.03838e-04	
261	4.073803e+05	3.578095e+00,	-8.22562e-04	
262	4.168694e+05	3.578095e+00,	-8.41722e-04	
263	4.265795e+05	3.578095e+00,	-8.61328e-04	
264	4.365158e+05	3.578095e+00,	-8.81391e-04	
265	4.466836e+05	3.578095e+00,	-9.01921e-04	
266	4.570882e+05	3.578095e+00,	-9.22929e-04	
267	4.677351e+05	3.578095e+00,	-9.44427e-04	
268	4.786301e+05	3.578095e+00,	-9.66426e-04	
269	4.897788e+05	3.578095e+00,	-9.88936e-04	
270	5.011872e+05	3.578095e+00,	-1.01197e-03	
271	5.128614e+05	3.578095e+00,	-1.03554e-03	
272	5.248075e+05	3.578095e+00,	-1.05966e-03	
273	5.370318e+05	3.578095e+00,	-1.08435e-03	
274	5.495409e+05	3.578094e+00,	-1.10960e-03	
275	5.623413e+05	3.578094e+00,	-1.13545e-03	
276	5.754399e+05	3.578094e+00,	-1.16190e-03	
277	5.888437e+05	3.578094e+00,	-1.18896e-03	
278	6.025596e+05	3.578094e+00,	-1.21666e-03	
279	6.165950e+05	3.578094e+00,	-1.24500e-03	
280	6.309573e+05	3.578094e+00,	-1.27400e-03	
281	6.456542e+05	3.578094e+00,	-1.30367e-03	
282	6.606934e+05	3.578094e+00,	-1.33404e-03	
283	6.760830e+05	3.578094e+00,	-1.36511e-03	
284	6.918310e+05	3.578094e+00,	-1.39691e-03	
285	7.079458e+05	3.578094e+00,	-1.42945e-03	
286	7.244360e+05	3.578094e+00,	-1.46274e-03	

Index   frequency       vop                             
--------------------------------------------------------------------------------
287	7.413102e+05	3.578094e+00,	-1.49682e-03	
288	7.585776e+05	3.578094e+00,	-1.53168e-03	
289	7.762471e+05	3.578094e+00,	-1.56736e-03	
290	7.943282e+05	3.578094e+00,	-1.60387e-03	
291	8.128305e+05	3.578094e+00,	-1.64122e-03	
292	8.317638e+05	3.578094e+00,	-1.67945e-03	
293	8.511380e+05	3.578094e+00,	-1.71857e-03	
294	8.709636e+05	3.578094e+00,	-1.75860e-03	
295	8.912509e+05	3.578094e+00,	-1.79957e-03	
296	9.120108e+05	3.578094e+00,	-1.84148e-03	
297	9.332543e+05	3.578094e+00,	-1.88438e-03	
298	9.549926e+05	3.578094e+00,	-1.92827e-03	
299	9.772372e+05	3.578094e+00,	-1.97318e-03	
300	1.000000e+06	3.578094e+00,	-2.01915e-03	
301	1.023293e+06	3.578094e+00,	-2.06618e-03	
302	1.047129e+06	3.578094e+00,	-2.11431e-03	
303	1.071519e+06	3.578094e+00,	-2.16355e-03	
304	1.096478e+06	3.578093e+00,	-2.21395e-03	
305	1.122018e+06	3.578093e+00,	-2.26552e-03	
306	1.148154e+06	3.578093e+00,	-2.31829e-03	
307	1.174898e+06	3.578093e+00,	-2.37229e-03	
308	1.202264e+06	3.578093e+00,	-2.42755e-03	
309	1.230269e+06	3.578093e+00,	-2.48409e-03	
310	1.258925e+06	3.578093e+00,	-2.54195e-03	
311	1.288250e+06	3.578093e+00,	-2.60116e-03	
312	1.318257e+06	3.578093e+00,	-2.66175e-03	
313	1.348963e+06	3.578093e+00,	-2.72375e-03	
314	1.380384e+06	3.578093e+00,	-2.78719e-03	
315	1.412538e+06	3.578093e+00,	-2.85211e-03	
316	1.445440e+06	3.578092e+00,	-2.91855e-03	
317	1.479108e+06	3.578092e+00,	-2.98653e-03	
318	1.513561e+06	3.578092e+00,	-3.05609e-03	
319	1.548817e+06	3.578092e+00,	-3.12728e-03	
320	1.584893e+06	3.578092e+00,	-3.20012e-03	
321	1.621810e+06	3.578092e+00,	-3.27466e-03	
322	1.659587e+06	3.578092e+00,	-3.35094e-03	
323	1.698244e+06	3.578092e+00,	-3.42899e-03	
324	1.737801e+06	3.578091e+00,	-3.50886e-03	
325	1.778279e+06	3.578091e+00,	-3.59059e-03	
326	1.819701e+06	3.578091e+00,	-3.67423e-03	
327	1.862087e+06	3.578091e+00,	-3.75981e-03	
328	1.905461e+06	3.578091e+00,	-3.84738e-03	
329	1.949845e+06	3.578091e+00,	-3.93700e-03	
330	1.995262e+06	3.578090e+00,	-4.02870e-03	
331	2.041738e+06	3.578090e+00,	-4.12254e-03	
332	2.089296e+06	3.578090e+00,	-4.21857e-03	
333	2.137962e+06	3.578090e+00,	-4.31683e-03	
334	2.187762e+06	3.578089e+00,	-4.41738e-03	
335	2.238721e+06	3.578089e+00,	-4.52027e-03	
336	2.290868e+06	3.578089e+00,	-4.62556e-03	
337	2.344229e+06	3.578089e+00,	-4.73330e-03	
338	2.398833e+06	3.578088e+00,	-4.84355e-03	
339	2.454709e+06	3.578088e+00,	-4.95637e-03	
340	2.511886e+06	3.578088e+00,	-5.07181e-03	
341	2.570396e+06	3.578087e+00,	-5.18995e-03	
342	2.630268e+06	3.578087e+00,	-5.31083e-03	
343	2.691535e+06	3.578087e+00,	-5.43454e-03	
344	2.754229e+06	3.578086e+00,	-5.56112e-03	

Index   frequency       vop                             
--------------------------------------------------------------------------------
345	2.818383e+06	3.578086e+00,	-5.69065e-03	
346	2.884032e+06	3.578086e+00,	-5.82320e-03	
347	2.951209e+06	3.578085e+00,	-5.95883e-03	
348	3.019952e+06	3.578085e+00,	-6.09763e-03	
349	3.090295e+06	3.578084e+00,	-6.23965e-03	
350	3.162278e+06	3.578084e+00,	-6.38499e-03	
351	3.235937e+06	3.578083e+00,	-6.53371e-03	
352	3.311311e+06	3.578083e+00,	-6.68589e-03	
353	3.388442e+06	3.578082e+00,	-6.84162e-03	
354	3.467369e+06	3.578081e+00,	-7.00097e-03	
355	3.548134e+06	3.578081e+00,	-7.16404e-03	
356	3.630781e+06	3.578080e+00,	-7.33090e-03	
357	3.715352e+06	3.578079e+00,	-7.50165e-03	
358	3.801894e+06	3.578079e+00,	-7.67638e-03	
359	3.890451e+06	3.578078e+00,	-7.85517e-03	
360	3.981072e+06	3.578077e+00,	-8.03813e-03	
361	4.073803e+06	3.578076e+00,	-8.22535e-03	
362	4.168694e+06	3.578075e+00,	-8.41693e-03	
363	4.265795e+06	3.578074e+00,	-8.61298e-03	
364	4.365158e+06	3.578073e+00,	-8.81358e-03	
365	4.466836e+06	3.578072e+00,	-9.01886e-03	
366	4.570882e+06	3.578071e+00,	-9.22892e-03	
367	4.677351e+06	3.578070e+00,	-9.44387e-03	
368	4.786301e+06	3.578069e+00,	-9.66383e-03	
369	4.897788e+06	3.578068e+00,	-9.88891e-03	
370	5.011872e+06	3.578067e+00,	-1.01192e-02	
371	5.128614e+06	3.578065e+00,	-1.03549e-02	
372	5.248075e+06	3.578064e+00,	-1.05961e-02	
373	5.370318e+06	3.578063e+00,	-1.08429e-02	
374	5.495409e+06	3.578061e+00,	-1.10954e-02	
375	5.623413e+06	3.578059e+00,	-1.13538e-02	
376	5.754399e+06	3.578058e+00,	-1.16182e-02	
377	5.888437e+06	3.578056e+00,	-1.18888e-02	
378	6.025596e+06	3.578054e+00,	-1.21657e-02	
379	6.165950e+06	3.578052e+00,	-1.24491e-02	
380	6.309573e+06	3.578050e+00,	-1.27390e-02	
381	6.456542e+06	3.578048e+00,	-1.30357e-02	
382	6.606934e+06	3.578046e+00,	-1.33393e-02	
383	6.760830e+06	3.578044e+00,	-1.36499e-02	
384	6.918310e+06	3.578041e+00,	-1.39678e-02	
385	7.079458e+06	3.578039e+00,	-1.42931e-02	
386	7.244360e+06	3.578036e+00,	-1.46260e-02	
387	7.413102e+06	3.578033e+00,	-1.49666e-02	
388	7.585776e+06	3.578030e+00,	-1.53151e-02	
389	7.762471e+06	3.578027e+00,	-1.56718e-02	
390	7.943282e+06	3.578024e+00,	-1.60367e-02	
391	8.128305e+06	3.578021e+00,	-1.64102e-02	
392	8.317638e+06	3.578018e+00,	-1.67923e-02	
393	8.511380e+06	3.578014e+00,	-1.71834e-02	
394	8.709636e+06	3.578010e+00,	-1.75835e-02	
395	8.912509e+06	3.578006e+00,	-1.79929e-02	
396	9.120108e+06	3.578002e+00,	-1.84119e-02	
397	9.332543e+06	3.577998e+00,	-1.88407e-02	
398	9.549926e+06	3.577993e+00,	-1.92794e-02	
399	9.772372e+06	3.577988e+00,	-1.97283e-02	
400	1.000000e+07	3.577983e+00,	-2.01876e-02	
401	1.023293e+07	3.577978e+00,	-2.06577e-02	
402	1.047129e+07	3.577973e+00,	-2.11387e-02	

Index   frequency       vop                             
--------------------------------------------------------------------------------
403	1.071519e+07	3.577967e+00,	-2.16308e-02	
404	1.096478e+07	3.577961e+00,	-2.21345e-02	
405	1.122018e+07	3.577955e+00,	-2.26498e-02	
406	1.148154e+07	3.577948e+00,	-2.31771e-02	
407	1.174898e+07	3.577941e+00,	-2.37167e-02	
408	1.202264e+07	3.577934e+00,	-2.42689e-02	
409	1.230269e+07	3.577926e+00,	-2.48339e-02	
410	1.258925e+07	3.577918e+00,	-2.54120e-02	
411	1.288250e+07	3.577910e+00,	-2.60035e-02	
412	1.318257e+07	3.577902e+00,	-2.66089e-02	
413	1.348963e+07	3.577893e+00,	-2.72283e-02	
414	1.380384e+07	3.577883e+00,	-2.78621e-02	
415	1.412538e+07	3.577873e+00,	-2.85106e-02	
416	1.445440e+07	3.577863e+00,	-2.91742e-02	
