** sch_path: /home/andylithia/openmpw/project-reisen-chip1/xschem/ota_wideband.sch
AC Analysis  Sun Oct 30 17:11:03  2022
--------------------------------------------------------------------------------
Index   frequency       vop                             
--------------------------------------------------------------------------------
0	1.000000e+03	3.502338e+00,	-1.78426e-06	
1	1.023293e+03	3.502338e+00,	-1.82582e-06	
2	1.047129e+03	3.502338e+00,	-1.86835e-06	
3	1.071519e+03	3.502338e+00,	-1.91187e-06	
4	1.096478e+03	3.502338e+00,	-1.95640e-06	
5	1.122018e+03	3.502338e+00,	-2.00197e-06	
6	1.148154e+03	3.502338e+00,	-2.04860e-06	
7	1.174898e+03	3.502338e+00,	-2.09632e-06	
8	1.202264e+03	3.502338e+00,	-2.14515e-06	
9	1.230269e+03	3.502338e+00,	-2.19512e-06	
10	1.258925e+03	3.502338e+00,	-2.24625e-06	
11	1.288250e+03	3.502338e+00,	-2.29857e-06	
12	1.318257e+03	3.502338e+00,	-2.35211e-06	
13	1.348963e+03	3.502338e+00,	-2.40690e-06	
14	1.380384e+03	3.502338e+00,	-2.46296e-06	
15	1.412538e+03	3.502338e+00,	-2.52033e-06	
16	1.445440e+03	3.502338e+00,	-2.57904e-06	
17	1.479108e+03	3.502338e+00,	-2.63911e-06	
18	1.513561e+03	3.502338e+00,	-2.70058e-06	
19	1.548817e+03	3.502338e+00,	-2.76349e-06	
20	1.584893e+03	3.502338e+00,	-2.82786e-06	
21	1.621810e+03	3.502338e+00,	-2.89373e-06	
22	1.659587e+03	3.502338e+00,	-2.96113e-06	
23	1.698244e+03	3.502338e+00,	-3.03010e-06	
24	1.737801e+03	3.502338e+00,	-3.10068e-06	
25	1.778279e+03	3.502338e+00,	-3.17291e-06	
26	1.819701e+03	3.502338e+00,	-3.24681e-06	
27	1.862087e+03	3.502338e+00,	-3.32244e-06	
28	1.905461e+03	3.502338e+00,	-3.39983e-06	
29	1.949845e+03	3.502338e+00,	-3.47902e-06	
30	1.995262e+03	3.502338e+00,	-3.56006e-06	
31	2.041738e+03	3.502338e+00,	-3.64299e-06	
32	2.089296e+03	3.502338e+00,	-3.72784e-06	
33	2.137962e+03	3.502338e+00,	-3.81467e-06	
34	2.187762e+03	3.502338e+00,	-3.90353e-06	
35	2.238721e+03	3.502338e+00,	-3.99445e-06	
36	2.290868e+03	3.502338e+00,	-4.08750e-06	
37	2.344229e+03	3.502338e+00,	-4.18271e-06	
38	2.398833e+03	3.502338e+00,	-4.28014e-06	
39	2.454709e+03	3.502338e+00,	-4.37983e-06	
40	2.511886e+03	3.502338e+00,	-4.48185e-06	
41	2.570396e+03	3.502338e+00,	-4.58625e-06	
42	2.630268e+03	3.502338e+00,	-4.69308e-06	
43	2.691535e+03	3.502338e+00,	-4.80239e-06	
44	2.754229e+03	3.502338e+00,	-4.91425e-06	
45	2.818383e+03	3.502338e+00,	-5.02872e-06	
46	2.884032e+03	3.502338e+00,	-5.14585e-06	
47	2.951209e+03	3.502338e+00,	-5.26572e-06	
48	3.019952e+03	3.502338e+00,	-5.38837e-06	
49	3.090295e+03	3.502338e+00,	-5.51388e-06	
50	3.162278e+03	3.502338e+00,	-5.64232e-06	
51	3.235937e+03	3.502338e+00,	-5.77374e-06	
52	3.311311e+03	3.502338e+00,	-5.90823e-06	
53	3.388442e+03	3.502338e+00,	-6.04585e-06	
54	3.467369e+03	3.502338e+00,	-6.18668e-06	

Index   frequency       vop                             
--------------------------------------------------------------------------------
55	3.548134e+03	3.502338e+00,	-6.33078e-06	
56	3.630781e+03	3.502338e+00,	-6.47825e-06	
57	3.715352e+03	3.502338e+00,	-6.62915e-06	
58	3.801894e+03	3.502338e+00,	-6.78356e-06	
59	3.890451e+03	3.502338e+00,	-6.94157e-06	
60	3.981072e+03	3.502338e+00,	-7.10326e-06	
61	4.073803e+03	3.502338e+00,	-7.26871e-06	
62	4.168694e+03	3.502338e+00,	-7.43802e-06	
63	4.265795e+03	3.502338e+00,	-7.61128e-06	
64	4.365158e+03	3.502338e+00,	-7.78857e-06	
65	4.466836e+03	3.502338e+00,	-7.96999e-06	
66	4.570882e+03	3.502338e+00,	-8.15563e-06	
67	4.677351e+03	3.502338e+00,	-8.34560e-06	
68	4.786301e+03	3.502338e+00,	-8.53999e-06	
69	4.897788e+03	3.502338e+00,	-8.73892e-06	
70	5.011872e+03	3.502338e+00,	-8.94247e-06	
71	5.128614e+03	3.502338e+00,	-9.15077e-06	
72	5.248075e+03	3.502338e+00,	-9.36392e-06	
73	5.370318e+03	3.502338e+00,	-9.58203e-06	
74	5.495409e+03	3.502338e+00,	-9.80522e-06	
75	5.623413e+03	3.502338e+00,	-1.00336e-05	
76	5.754399e+03	3.502338e+00,	-1.02673e-05	
77	5.888437e+03	3.502338e+00,	-1.05065e-05	
78	6.025596e+03	3.502338e+00,	-1.07512e-05	
79	6.165950e+03	3.502338e+00,	-1.10016e-05	
80	6.309573e+03	3.502338e+00,	-1.12579e-05	
81	6.456542e+03	3.502338e+00,	-1.15201e-05	
82	6.606934e+03	3.502338e+00,	-1.17885e-05	
83	6.760830e+03	3.502338e+00,	-1.20631e-05	
84	6.918310e+03	3.502338e+00,	-1.23440e-05	
85	7.079458e+03	3.502338e+00,	-1.26316e-05	
86	7.244360e+03	3.502338e+00,	-1.29258e-05	
87	7.413102e+03	3.502338e+00,	-1.32269e-05	
88	7.585776e+03	3.502338e+00,	-1.35350e-05	
89	7.762471e+03	3.502338e+00,	-1.38502e-05	
90	7.943282e+03	3.502338e+00,	-1.41729e-05	
91	8.128305e+03	3.502338e+00,	-1.45030e-05	
92	8.317638e+03	3.502338e+00,	-1.48408e-05	
93	8.511380e+03	3.502338e+00,	-1.51865e-05	
94	8.709636e+03	3.502338e+00,	-1.55402e-05	
95	8.912509e+03	3.502338e+00,	-1.59022e-05	
96	9.120108e+03	3.502338e+00,	-1.62726e-05	
97	9.332543e+03	3.502338e+00,	-1.66517e-05	
98	9.549926e+03	3.502338e+00,	-1.70395e-05	
99	9.772372e+03	3.502338e+00,	-1.74364e-05	
100	1.000000e+04	3.502338e+00,	-1.78426e-05	
101	1.023293e+04	3.502338e+00,	-1.82582e-05	
102	1.047129e+04	3.502338e+00,	-1.86835e-05	
103	1.071519e+04	3.502338e+00,	-1.91187e-05	
104	1.096478e+04	3.502338e+00,	-1.95640e-05	
105	1.122018e+04	3.502338e+00,	-2.00197e-05	
106	1.148154e+04	3.502338e+00,	-2.04860e-05	
107	1.174898e+04	3.502338e+00,	-2.09632e-05	
108	1.202264e+04	3.502338e+00,	-2.14515e-05	
109	1.230269e+04	3.502338e+00,	-2.19512e-05	
110	1.258925e+04	3.502338e+00,	-2.24625e-05	
111	1.288250e+04	3.502338e+00,	-2.29857e-05	
112	1.318257e+04	3.502338e+00,	-2.35211e-05	

Index   frequency       vop                             
--------------------------------------------------------------------------------
113	1.348963e+04	3.502338e+00,	-2.40690e-05	
114	1.380384e+04	3.502338e+00,	-2.46296e-05	
115	1.412538e+04	3.502338e+00,	-2.52033e-05	
116	1.445440e+04	3.502338e+00,	-2.57904e-05	
117	1.479108e+04	3.502338e+00,	-2.63911e-05	
118	1.513561e+04	3.502338e+00,	-2.70058e-05	
119	1.548817e+04	3.502338e+00,	-2.76349e-05	
120	1.584893e+04	3.502338e+00,	-2.82786e-05	
121	1.621810e+04	3.502338e+00,	-2.89373e-05	
122	1.659587e+04	3.502338e+00,	-2.96113e-05	
123	1.698244e+04	3.502338e+00,	-3.03010e-05	
124	1.737801e+04	3.502338e+00,	-3.10068e-05	
125	1.778279e+04	3.502338e+00,	-3.17291e-05	
126	1.819701e+04	3.502338e+00,	-3.24681e-05	
127	1.862087e+04	3.502338e+00,	-3.32244e-05	
128	1.905461e+04	3.502338e+00,	-3.39983e-05	
129	1.949845e+04	3.502338e+00,	-3.47902e-05	
130	1.995262e+04	3.502338e+00,	-3.56006e-05	
131	2.041738e+04	3.502338e+00,	-3.64299e-05	
132	2.089296e+04	3.502338e+00,	-3.72784e-05	
133	2.137962e+04	3.502338e+00,	-3.81467e-05	
134	2.187762e+04	3.502338e+00,	-3.90353e-05	
135	2.238721e+04	3.502338e+00,	-3.99445e-05	
136	2.290868e+04	3.502338e+00,	-4.08750e-05	
137	2.344229e+04	3.502338e+00,	-4.18271e-05	
138	2.398833e+04	3.502338e+00,	-4.28014e-05	
139	2.454709e+04	3.502338e+00,	-4.37983e-05	
140	2.511886e+04	3.502338e+00,	-4.48185e-05	
141	2.570396e+04	3.502338e+00,	-4.58625e-05	
142	2.630268e+04	3.502338e+00,	-4.69308e-05	
143	2.691535e+04	3.502338e+00,	-4.80239e-05	
144	2.754229e+04	3.502338e+00,	-4.91425e-05	
145	2.818383e+04	3.502338e+00,	-5.02872e-05	
146	2.884032e+04	3.502338e+00,	-5.14585e-05	
147	2.951209e+04	3.502338e+00,	-5.26572e-05	
148	3.019952e+04	3.502338e+00,	-5.38837e-05	
149	3.090295e+04	3.502338e+00,	-5.51388e-05	
150	3.162278e+04	3.502338e+00,	-5.64232e-05	
151	3.235937e+04	3.502338e+00,	-5.77374e-05	
152	3.311311e+04	3.502338e+00,	-5.90823e-05	
153	3.388442e+04	3.502338e+00,	-6.04585e-05	
154	3.467369e+04	3.502338e+00,	-6.18668e-05	
155	3.548134e+04	3.502338e+00,	-6.33078e-05	
156	3.630781e+04	3.502338e+00,	-6.47825e-05	
157	3.715352e+04	3.502338e+00,	-6.62915e-05	
158	3.801894e+04	3.502338e+00,	-6.78356e-05	
159	3.890451e+04	3.502338e+00,	-6.94157e-05	
160	3.981072e+04	3.502338e+00,	-7.10326e-05	
161	4.073803e+04	3.502338e+00,	-7.26871e-05	
162	4.168694e+04	3.502338e+00,	-7.43802e-05	
163	4.265795e+04	3.502338e+00,	-7.61128e-05	
164	4.365158e+04	3.502338e+00,	-7.78857e-05	
165	4.466836e+04	3.502338e+00,	-7.96999e-05	
166	4.570882e+04	3.502338e+00,	-8.15563e-05	
167	4.677351e+04	3.502338e+00,	-8.34560e-05	
168	4.786301e+04	3.502338e+00,	-8.53999e-05	
169	4.897788e+04	3.502338e+00,	-8.73892e-05	
170	5.011872e+04	3.502338e+00,	-8.94247e-05	

Index   frequency       vop                             
--------------------------------------------------------------------------------
171	5.128614e+04	3.502338e+00,	-9.15077e-05	
172	5.248075e+04	3.502338e+00,	-9.36392e-05	
173	5.370318e+04	3.502338e+00,	-9.58203e-05	
174	5.495409e+04	3.502338e+00,	-9.80522e-05	
175	5.623413e+04	3.502338e+00,	-1.00336e-04	
176	5.754399e+04	3.502338e+00,	-1.02673e-04	
177	5.888437e+04	3.502338e+00,	-1.05065e-04	
178	6.025596e+04	3.502338e+00,	-1.07512e-04	
179	6.165950e+04	3.502338e+00,	-1.10016e-04	
180	6.309573e+04	3.502338e+00,	-1.12579e-04	
181	6.456542e+04	3.502338e+00,	-1.15201e-04	
182	6.606934e+04	3.502338e+00,	-1.17885e-04	
183	6.760830e+04	3.502338e+00,	-1.20631e-04	
184	6.918310e+04	3.502338e+00,	-1.23440e-04	
185	7.079458e+04	3.502338e+00,	-1.26316e-04	
186	7.244360e+04	3.502338e+00,	-1.29258e-04	
187	7.413102e+04	3.502338e+00,	-1.32269e-04	
188	7.585776e+04	3.502338e+00,	-1.35350e-04	
189	7.762471e+04	3.502338e+00,	-1.38502e-04	
190	7.943282e+04	3.502338e+00,	-1.41729e-04	
191	8.128305e+04	3.502338e+00,	-1.45030e-04	
192	8.317638e+04	3.502338e+00,	-1.48408e-04	
193	8.511380e+04	3.502338e+00,	-1.51865e-04	
194	8.709636e+04	3.502338e+00,	-1.55402e-04	
195	8.912509e+04	3.502338e+00,	-1.59022e-04	
196	9.120108e+04	3.502338e+00,	-1.62726e-04	
197	9.332543e+04	3.502338e+00,	-1.66517e-04	
198	9.549926e+04	3.502338e+00,	-1.70395e-04	
199	9.772372e+04	3.502338e+00,	-1.74364e-04	
200	1.000000e+05	3.502338e+00,	-1.78426e-04	
201	1.023293e+05	3.502338e+00,	-1.82582e-04	
202	1.047129e+05	3.502338e+00,	-1.86835e-04	
203	1.071519e+05	3.502338e+00,	-1.91187e-04	
204	1.096478e+05	3.502338e+00,	-1.95640e-04	
205	1.122018e+05	3.502338e+00,	-2.00197e-04	
206	1.148154e+05	3.502338e+00,	-2.04860e-04	
207	1.174898e+05	3.502338e+00,	-2.09632e-04	
208	1.202264e+05	3.502338e+00,	-2.14515e-04	
209	1.230269e+05	3.502338e+00,	-2.19512e-04	
210	1.258925e+05	3.502338e+00,	-2.24625e-04	
211	1.288250e+05	3.502338e+00,	-2.29857e-04	
212	1.318257e+05	3.502338e+00,	-2.35211e-04	
213	1.348963e+05	3.502338e+00,	-2.40690e-04	
214	1.380384e+05	3.502338e+00,	-2.46296e-04	
215	1.412538e+05	3.502338e+00,	-2.52033e-04	
216	1.445440e+05	3.502338e+00,	-2.57904e-04	
217	1.479108e+05	3.502338e+00,	-2.63911e-04	
218	1.513561e+05	3.502338e+00,	-2.70058e-04	
219	1.548817e+05	3.502338e+00,	-2.76349e-04	
220	1.584893e+05	3.502338e+00,	-2.82786e-04	
221	1.621810e+05	3.502338e+00,	-2.89373e-04	
222	1.659587e+05	3.502338e+00,	-2.96113e-04	
223	1.698244e+05	3.502338e+00,	-3.03010e-04	
224	1.737801e+05	3.502338e+00,	-3.10068e-04	
225	1.778279e+05	3.502338e+00,	-3.17291e-04	
226	1.819701e+05	3.502338e+00,	-3.24682e-04	
227	1.862087e+05	3.502338e+00,	-3.32244e-04	
228	1.905461e+05	3.502338e+00,	-3.39983e-04	

Index   frequency       vop                             
--------------------------------------------------------------------------------
229	1.949845e+05	3.502338e+00,	-3.47903e-04	
230	1.995262e+05	3.502338e+00,	-3.56006e-04	
231	2.041738e+05	3.502338e+00,	-3.64299e-04	
232	2.089296e+05	3.502338e+00,	-3.72784e-04	
233	2.137962e+05	3.502338e+00,	-3.81468e-04	
234	2.187762e+05	3.502338e+00,	-3.90353e-04	
235	2.238721e+05	3.502338e+00,	-3.99446e-04	
236	2.290868e+05	3.502338e+00,	-4.08750e-04	
237	2.344229e+05	3.502338e+00,	-4.18271e-04	
238	2.398833e+05	3.502338e+00,	-4.28014e-04	
239	2.454709e+05	3.502338e+00,	-4.37983e-04	
240	2.511886e+05	3.502338e+00,	-4.48185e-04	
241	2.570396e+05	3.502338e+00,	-4.58625e-04	
242	2.630268e+05	3.502338e+00,	-4.69308e-04	
243	2.691535e+05	3.502338e+00,	-4.80239e-04	
244	2.754229e+05	3.502338e+00,	-4.91425e-04	
245	2.818383e+05	3.502338e+00,	-5.02872e-04	
246	2.884032e+05	3.502338e+00,	-5.14586e-04	
247	2.951209e+05	3.502338e+00,	-5.26572e-04	
248	3.019952e+05	3.502338e+00,	-5.38837e-04	
249	3.090295e+05	3.502338e+00,	-5.51388e-04	
250	3.162278e+05	3.502338e+00,	-5.64232e-04	
251	3.235937e+05	3.502338e+00,	-5.77375e-04	
252	3.311311e+05	3.502338e+00,	-5.90823e-04	
253	3.388442e+05	3.502338e+00,	-6.04585e-04	
254	3.467369e+05	3.502338e+00,	-6.18668e-04	
255	3.548134e+05	3.502338e+00,	-6.33079e-04	
256	3.630781e+05	3.502338e+00,	-6.47825e-04	
257	3.715352e+05	3.502338e+00,	-6.62915e-04	
258	3.801894e+05	3.502338e+00,	-6.78356e-04	
259	3.890451e+05	3.502338e+00,	-6.94157e-04	
260	3.981072e+05	3.502338e+00,	-7.10326e-04	
261	4.073803e+05	3.502338e+00,	-7.26872e-04	
262	4.168694e+05	3.502338e+00,	-7.43803e-04	
263	4.265795e+05	3.502338e+00,	-7.61128e-04	
264	4.365158e+05	3.502338e+00,	-7.78857e-04	
265	4.466836e+05	3.502338e+00,	-7.96999e-04	
266	4.570882e+05	3.502338e+00,	-8.15564e-04	
267	4.677351e+05	3.502338e+00,	-8.34560e-04	
268	4.786301e+05	3.502338e+00,	-8.54000e-04	
269	4.897788e+05	3.502338e+00,	-8.73892e-04	
270	5.011872e+05	3.502338e+00,	-8.94248e-04	
271	5.128614e+05	3.502338e+00,	-9.15077e-04	
272	5.248075e+05	3.502338e+00,	-9.36392e-04	
273	5.370318e+05	3.502338e+00,	-9.58204e-04	
274	5.495409e+05	3.502338e+00,	-9.80523e-04	
275	5.623413e+05	3.502338e+00,	-1.00336e-03	
276	5.754399e+05	3.502338e+00,	-1.02673e-03	
277	5.888437e+05	3.502338e+00,	-1.05065e-03	
278	6.025596e+05	3.502338e+00,	-1.07512e-03	
279	6.165950e+05	3.502338e+00,	-1.10017e-03	
280	6.309573e+05	3.502338e+00,	-1.12579e-03	
281	6.456542e+05	3.502338e+00,	-1.15201e-03	
282	6.606934e+05	3.502338e+00,	-1.17885e-03	
283	6.760830e+05	3.502338e+00,	-1.20631e-03	
284	6.918310e+05	3.502338e+00,	-1.23441e-03	
285	7.079458e+05	3.502338e+00,	-1.26316e-03	
286	7.244360e+05	3.502338e+00,	-1.29258e-03	

Index   frequency       vop                             
--------------------------------------------------------------------------------
287	7.413102e+05	3.502338e+00,	-1.32269e-03	
288	7.585776e+05	3.502338e+00,	-1.35350e-03	
289	7.762471e+05	3.502338e+00,	-1.38503e-03	
290	7.943282e+05	3.502338e+00,	-1.41729e-03	
291	8.128305e+05	3.502338e+00,	-1.45030e-03	
292	8.317638e+05	3.502338e+00,	-1.48408e-03	
293	8.511380e+05	3.502338e+00,	-1.51865e-03	
294	8.709636e+05	3.502338e+00,	-1.55403e-03	
295	8.912509e+05	3.502338e+00,	-1.59022e-03	
296	9.120108e+05	3.502338e+00,	-1.62727e-03	
297	9.332543e+05	3.502338e+00,	-1.66517e-03	
298	9.549926e+05	3.502338e+00,	-1.70396e-03	
299	9.772372e+05	3.502338e+00,	-1.74365e-03	
300	1.000000e+06	3.502338e+00,	-1.78426e-03	
301	1.023293e+06	3.502338e+00,	-1.82582e-03	
302	1.047129e+06	3.502338e+00,	-1.86835e-03	
303	1.071519e+06	3.502338e+00,	-1.91187e-03	
304	1.096478e+06	3.502338e+00,	-1.95641e-03	
305	1.122018e+06	3.502338e+00,	-2.00198e-03	
306	1.148154e+06	3.502338e+00,	-2.04861e-03	
307	1.174898e+06	3.502338e+00,	-2.09633e-03	
308	1.202264e+06	3.502338e+00,	-2.14516e-03	
309	1.230269e+06	3.502338e+00,	-2.19513e-03	
310	1.258925e+06	3.502338e+00,	-2.24626e-03	
311	1.288250e+06	3.502338e+00,	-2.29858e-03	
312	1.318257e+06	3.502338e+00,	-2.35212e-03	
313	1.348963e+06	3.502338e+00,	-2.40691e-03	
314	1.380384e+06	3.502338e+00,	-2.46297e-03	
315	1.412538e+06	3.502338e+00,	-2.52035e-03	
316	1.445440e+06	3.502338e+00,	-2.57905e-03	
317	1.479108e+06	3.502338e+00,	-2.63913e-03	
318	1.513561e+06	3.502338e+00,	-2.70060e-03	
319	1.548817e+06	3.502338e+00,	-2.76351e-03	
320	1.584893e+06	3.502338e+00,	-2.82788e-03	
321	1.621810e+06	3.502338e+00,	-2.89375e-03	
322	1.659587e+06	3.502338e+00,	-2.96115e-03	
323	1.698244e+06	3.502338e+00,	-3.03013e-03	
324	1.737801e+06	3.502338e+00,	-3.10071e-03	
325	1.778279e+06	3.502338e+00,	-3.17294e-03	
326	1.819701e+06	3.502338e+00,	-3.24685e-03	
327	1.862087e+06	3.502338e+00,	-3.32248e-03	
328	1.905461e+06	3.502338e+00,	-3.39987e-03	
329	1.949845e+06	3.502338e+00,	-3.47906e-03	
330	1.995262e+06	3.502338e+00,	-3.56010e-03	
331	2.041738e+06	3.502338e+00,	-3.64303e-03	
332	2.089296e+06	3.502338e+00,	-3.72789e-03	
333	2.137962e+06	3.502338e+00,	-3.81472e-03	
334	2.187762e+06	3.502338e+00,	-3.90358e-03	
335	2.238721e+06	3.502337e+00,	-3.99451e-03	
336	2.290868e+06	3.502337e+00,	-4.08756e-03	
337	2.344229e+06	3.502337e+00,	-4.18277e-03	
338	2.398833e+06	3.502337e+00,	-4.28021e-03	
339	2.454709e+06	3.502337e+00,	-4.37991e-03	
340	2.511886e+06	3.502337e+00,	-4.48193e-03	
341	2.570396e+06	3.502337e+00,	-4.58634e-03	
342	2.630268e+06	3.502337e+00,	-4.69317e-03	
343	2.691535e+06	3.502337e+00,	-4.80249e-03	
344	2.754229e+06	3.502337e+00,	-4.91436e-03	

Index   frequency       vop                             
--------------------------------------------------------------------------------
345	2.818383e+06	3.502337e+00,	-5.02884e-03	
346	2.884032e+06	3.502337e+00,	-5.14598e-03	
347	2.951209e+06	3.502337e+00,	-5.26585e-03	
348	3.019952e+06	3.502337e+00,	-5.38851e-03	
349	3.090295e+06	3.502337e+00,	-5.51403e-03	
350	3.162278e+06	3.502337e+00,	-5.64248e-03	
351	3.235937e+06	3.502336e+00,	-5.77392e-03	
352	3.311311e+06	3.502336e+00,	-5.90842e-03	
353	3.388442e+06	3.502336e+00,	-6.04605e-03	
354	3.467369e+06	3.502336e+00,	-6.18689e-03	
355	3.548134e+06	3.502336e+00,	-6.33101e-03	
356	3.630781e+06	3.502336e+00,	-6.47849e-03	
357	3.715352e+06	3.502336e+00,	-6.62941e-03	
358	3.801894e+06	3.502336e+00,	-6.78384e-03	
359	3.890451e+06	3.502336e+00,	-6.94187e-03	
360	3.981072e+06	3.502335e+00,	-7.10358e-03	
361	4.073803e+06	3.502335e+00,	-7.26906e-03	
362	4.168694e+06	3.502335e+00,	-7.43839e-03	
363	4.265795e+06	3.502335e+00,	-7.61167e-03	
364	4.365158e+06	3.502335e+00,	-7.78899e-03	
365	4.466836e+06	3.502335e+00,	-7.97044e-03	
366	4.570882e+06	3.502334e+00,	-8.15612e-03	
367	4.677351e+06	3.502334e+00,	-8.34612e-03	
368	4.786301e+06	3.502334e+00,	-8.54055e-03	
369	4.897788e+06	3.502334e+00,	-8.73952e-03	
370	5.011872e+06	3.502334e+00,	-8.94311e-03	
371	5.128614e+06	3.502333e+00,	-9.15146e-03	
372	5.248075e+06	3.502333e+00,	-9.36465e-03	
373	5.370318e+06	3.502333e+00,	-9.58282e-03	
374	5.495409e+06	3.502333e+00,	-9.80607e-03	
375	5.623413e+06	3.502332e+00,	-1.00345e-02	
376	5.754399e+06	3.502332e+00,	-1.02683e-02	
377	5.888437e+06	3.502332e+00,	-1.05075e-02	
378	6.025596e+06	3.502332e+00,	-1.07523e-02	
379	6.165950e+06	3.502331e+00,	-1.10028e-02	
380	6.309573e+06	3.502331e+00,	-1.12592e-02	
381	6.456542e+06	3.502331e+00,	-1.15215e-02	
382	6.606934e+06	3.502330e+00,	-1.17899e-02	
383	6.760830e+06	3.502330e+00,	-1.20646e-02	
384	6.918310e+06	3.502329e+00,	-1.23457e-02	
385	7.079458e+06	3.502329e+00,	-1.26334e-02	
386	7.244360e+06	3.502328e+00,	-1.29277e-02	
387	7.413102e+06	3.502328e+00,	-1.32290e-02	
388	7.585776e+06	3.502327e+00,	-1.35372e-02	
389	7.762471e+06	3.502327e+00,	-1.38526e-02	
390	7.943282e+06	3.502326e+00,	-1.41754e-02	
391	8.128305e+06	3.502326e+00,	-1.45057e-02	
392	8.317638e+06	3.502325e+00,	-1.48437e-02	
393	8.511380e+06	3.502325e+00,	-1.51896e-02	
394	8.709636e+06	3.502324e+00,	-1.55436e-02	
395	8.912509e+06	3.502323e+00,	-1.59058e-02	
396	9.120108e+06	3.502322e+00,	-1.62765e-02	
397	9.332543e+06	3.502322e+00,	-1.66558e-02	
398	9.549926e+06	3.502321e+00,	-1.70439e-02	
399	9.772372e+06	3.502320e+00,	-1.74411e-02	
400	1.000000e+07	3.502319e+00,	-1.78476e-02	
401	1.023293e+07	3.502318e+00,	-1.82636e-02	
402	1.047129e+07	3.502317e+00,	-1.86892e-02	

Index   frequency       vop                             
--------------------------------------------------------------------------------
403	1.071519e+07	3.502316e+00,	-1.91248e-02	
404	1.096478e+07	3.502315e+00,	-1.95706e-02	
405	1.122018e+07	3.502314e+00,	-2.00268e-02	
406	1.148154e+07	3.502313e+00,	-2.04936e-02	
407	1.174898e+07	3.502311e+00,	-2.09713e-02	
408	1.202264e+07	3.502310e+00,	-2.14602e-02	
409	1.230269e+07	3.502309e+00,	-2.19604e-02	
410	1.258925e+07	3.502307e+00,	-2.24724e-02	
411	1.288250e+07	3.502306e+00,	-2.29963e-02	
412	1.318257e+07	3.502304e+00,	-2.35325e-02	
413	1.348963e+07	3.502302e+00,	-2.40811e-02	
414	1.380384e+07	3.502300e+00,	-2.46426e-02	
415	1.412538e+07	3.502298e+00,	-2.52172e-02	
416	1.445440e+07	3.502296e+00,	-2.58052e-02	
