  ** sch_path: /home/andylithia/openmpw/project-reisen-chip1/xschem/ctle_3.sch
  AC Analysis  Sun Oct 30 23:22:42  2022
--------------------------------------------------------------------------------
Index   frequency       vop                             
--------------------------------------------------------------------------------
0	1.000000e+03	1.075966e-01,	7.759426e-07	
1	1.023293e+03	1.075966e-01,	7.940166e-07	
2	1.047129e+03	1.075966e-01,	8.125116e-07	
3	1.071519e+03	1.075966e-01,	8.314375e-07	
4	1.096478e+03	1.075966e-01,	8.508041e-07	
5	1.122018e+03	1.075966e-01,	8.706219e-07	
6	1.148154e+03	1.075966e-01,	8.909013e-07	
7	1.174898e+03	1.075966e-01,	9.116530e-07	
8	1.202264e+03	1.075966e-01,	9.328882e-07	
9	1.230269e+03	1.075966e-01,	9.546179e-07	
10	1.258925e+03	1.075966e-01,	9.768538e-07	
11	1.288250e+03	1.075966e-01,	9.996077e-07	
12	1.318257e+03	1.075966e-01,	1.022892e-06	
13	1.348963e+03	1.075966e-01,	1.046718e-06	
14	1.380384e+03	1.075966e-01,	1.071099e-06	
15	1.412538e+03	1.075966e-01,	1.096048e-06	
16	1.445440e+03	1.075966e-01,	1.121578e-06	
17	1.479108e+03	1.075966e-01,	1.147703e-06	
18	1.513561e+03	1.075966e-01,	1.174437e-06	
19	1.548817e+03	1.075966e-01,	1.201793e-06	
20	1.584893e+03	1.075966e-01,	1.229786e-06	
21	1.621810e+03	1.075966e-01,	1.258432e-06	
22	1.659587e+03	1.075966e-01,	1.287744e-06	
23	1.698244e+03	1.075966e-01,	1.317740e-06	
24	1.737801e+03	1.075966e-01,	1.348434e-06	
25	1.778279e+03	1.075966e-01,	1.379843e-06	
26	1.819701e+03	1.075966e-01,	1.411983e-06	
27	1.862087e+03	1.075966e-01,	1.444873e-06	
28	1.905461e+03	1.075966e-01,	1.478528e-06	
29	1.949845e+03	1.075966e-01,	1.512967e-06	
30	1.995262e+03	1.075966e-01,	1.548209e-06	
31	2.041738e+03	1.075966e-01,	1.584271e-06	
32	2.089296e+03	1.075966e-01,	1.621174e-06	
33	2.137962e+03	1.075966e-01,	1.658936e-06	
34	2.187762e+03	1.075966e-01,	1.697577e-06	
35	2.238721e+03	1.075966e-01,	1.737119e-06	
36	2.290868e+03	1.075966e-01,	1.777582e-06	
37	2.344229e+03	1.075966e-01,	1.818987e-06	
38	2.398833e+03	1.075966e-01,	1.861357e-06	
39	2.454709e+03	1.075966e-01,	1.904713e-06	
40	2.511886e+03	1.075966e-01,	1.949080e-06	
41	2.570396e+03	1.075966e-01,	1.994480e-06	
42	2.630268e+03	1.075966e-01,	2.040937e-06	
43	2.691535e+03	1.075966e-01,	2.088476e-06	
44	2.754229e+03	1.075966e-01,	2.137123e-06	
45	2.818383e+03	1.075966e-01,	2.186903e-06	
46	2.884032e+03	1.075966e-01,	2.237843e-06	
47	2.951209e+03	1.075966e-01,	2.289969e-06	
48	3.019952e+03	1.075966e-01,	2.343309e-06	
49	3.090295e+03	1.075966e-01,	2.397892e-06	
50	3.162278e+03	1.075966e-01,	2.453746e-06	
51	3.235937e+03	1.075966e-01,	2.510901e-06	
52	3.311311e+03	1.075966e-01,	2.569387e-06	
53	3.388442e+03	1.075966e-01,	2.629236e-06	
54	3.467369e+03	1.075966e-01,	2.690479e-06	

Index   frequency       vop                             
--------------------------------------------------------------------------------
55	3.548134e+03	1.075966e-01,	2.753148e-06	
56	3.630781e+03	1.075966e-01,	2.817277e-06	
57	3.715352e+03	1.075966e-01,	2.882900e-06	
58	3.801894e+03	1.075966e-01,	2.950051e-06	
59	3.890451e+03	1.075966e-01,	3.018767e-06	
60	3.981072e+03	1.075966e-01,	3.089083e-06	
61	4.073803e+03	1.075966e-01,	3.161037e-06	
62	4.168694e+03	1.075966e-01,	3.234667e-06	
63	4.265795e+03	1.075966e-01,	3.310012e-06	
64	4.365158e+03	1.075966e-01,	3.387112e-06	
65	4.466836e+03	1.075966e-01,	3.466008e-06	
66	4.570882e+03	1.075966e-01,	3.546742e-06	
67	4.677351e+03	1.075966e-01,	3.629356e-06	
68	4.786301e+03	1.075966e-01,	3.713895e-06	
69	4.897788e+03	1.075966e-01,	3.800402e-06	
70	5.011872e+03	1.075966e-01,	3.888925e-06	
71	5.128614e+03	1.075966e-01,	3.979510e-06	
72	5.248075e+03	1.075966e-01,	4.072205e-06	
73	5.370318e+03	1.075966e-01,	4.167058e-06	
74	5.495409e+03	1.075966e-01,	4.264122e-06	
75	5.623413e+03	1.075966e-01,	4.363446e-06	
76	5.754399e+03	1.075966e-01,	4.465083e-06	
77	5.888437e+03	1.075966e-01,	4.569089e-06	
78	6.025596e+03	1.075966e-01,	4.675516e-06	
79	6.165950e+03	1.075966e-01,	4.784423e-06	
80	6.309573e+03	1.075966e-01,	4.895867e-06	
81	6.456542e+03	1.075966e-01,	5.009906e-06	
82	6.606934e+03	1.075966e-01,	5.126602e-06	
83	6.760830e+03	1.075966e-01,	5.246016e-06	
84	6.918310e+03	1.075966e-01,	5.368211e-06	
85	7.079458e+03	1.075966e-01,	5.493253e-06	
86	7.244360e+03	1.075966e-01,	5.621207e-06	
87	7.413102e+03	1.075966e-01,	5.752142e-06	
88	7.585776e+03	1.075966e-01,	5.886126e-06	
89	7.762471e+03	1.075966e-01,	6.023232e-06	
90	7.943282e+03	1.075966e-01,	6.163531e-06	
91	8.128305e+03	1.075966e-01,	6.307098e-06	
92	8.317638e+03	1.075966e-01,	6.454009e-06	
93	8.511380e+03	1.075966e-01,	6.604342e-06	
94	8.709636e+03	1.075966e-01,	6.758177e-06	
95	8.912509e+03	1.075966e-01,	6.915595e-06	
96	9.120108e+03	1.075966e-01,	7.076680e-06	
97	9.332543e+03	1.075966e-01,	7.241517e-06	
98	9.549926e+03	1.075966e-01,	7.410194e-06	
99	9.772372e+03	1.075966e-01,	7.582800e-06	
100	1.000000e+04	1.075966e-01,	7.759426e-06	
101	1.023293e+04	1.075966e-01,	7.940166e-06	
102	1.047129e+04	1.075966e-01,	8.125116e-06	
103	1.071519e+04	1.075966e-01,	8.314375e-06	
104	1.096478e+04	1.075966e-01,	8.508041e-06	
105	1.122018e+04	1.075966e-01,	8.706219e-06	
106	1.148154e+04	1.075966e-01,	8.909013e-06	
107	1.174898e+04	1.075966e-01,	9.116530e-06	
108	1.202264e+04	1.075966e-01,	9.328882e-06	
109	1.230269e+04	1.075966e-01,	9.546179e-06	
110	1.258925e+04	1.075966e-01,	9.768538e-06	
111	1.288250e+04	1.075966e-01,	9.996077e-06	
112	1.318257e+04	1.075966e-01,	1.022892e-05	

Index   frequency       vop                             
--------------------------------------------------------------------------------
113	1.348963e+04	1.075966e-01,	1.046718e-05	
114	1.380384e+04	1.075966e-01,	1.071099e-05	
115	1.412538e+04	1.075966e-01,	1.096048e-05	
116	1.445440e+04	1.075966e-01,	1.121578e-05	
117	1.479108e+04	1.075966e-01,	1.147703e-05	
118	1.513561e+04	1.075966e-01,	1.174437e-05	
119	1.548817e+04	1.075966e-01,	1.201793e-05	
120	1.584893e+04	1.075966e-01,	1.229786e-05	
121	1.621810e+04	1.075966e-01,	1.258432e-05	
122	1.659587e+04	1.075966e-01,	1.287744e-05	
123	1.698244e+04	1.075966e-01,	1.317740e-05	
124	1.737801e+04	1.075966e-01,	1.348434e-05	
125	1.778279e+04	1.075966e-01,	1.379843e-05	
126	1.819701e+04	1.075966e-01,	1.411983e-05	
127	1.862087e+04	1.075966e-01,	1.444873e-05	
128	1.905461e+04	1.075966e-01,	1.478528e-05	
129	1.949845e+04	1.075966e-01,	1.512967e-05	
130	1.995262e+04	1.075966e-01,	1.548209e-05	
131	2.041738e+04	1.075966e-01,	1.584271e-05	
132	2.089296e+04	1.075966e-01,	1.621174e-05	
133	2.137962e+04	1.075966e-01,	1.658936e-05	
134	2.187762e+04	1.075966e-01,	1.697577e-05	
135	2.238721e+04	1.075966e-01,	1.737119e-05	
136	2.290868e+04	1.075966e-01,	1.777582e-05	
137	2.344229e+04	1.075966e-01,	1.818987e-05	
138	2.398833e+04	1.075966e-01,	1.861357e-05	
139	2.454709e+04	1.075966e-01,	1.904713e-05	
140	2.511886e+04	1.075966e-01,	1.949080e-05	
141	2.570396e+04	1.075966e-01,	1.994480e-05	
142	2.630268e+04	1.075966e-01,	2.040937e-05	
143	2.691535e+04	1.075966e-01,	2.088476e-05	
144	2.754229e+04	1.075966e-01,	2.137123e-05	
145	2.818383e+04	1.075966e-01,	2.186903e-05	
146	2.884032e+04	1.075966e-01,	2.237843e-05	
147	2.951209e+04	1.075966e-01,	2.289969e-05	
148	3.019952e+04	1.075966e-01,	2.343309e-05	
149	3.090295e+04	1.075966e-01,	2.397892e-05	
150	3.162278e+04	1.075966e-01,	2.453746e-05	
151	3.235937e+04	1.075966e-01,	2.510901e-05	
152	3.311311e+04	1.075966e-01,	2.569387e-05	
153	3.388442e+04	1.075966e-01,	2.629236e-05	
154	3.467369e+04	1.075966e-01,	2.690479e-05	
155	3.548134e+04	1.075966e-01,	2.753148e-05	
156	3.630781e+04	1.075966e-01,	2.817277e-05	
157	3.715352e+04	1.075966e-01,	2.882900e-05	
158	3.801894e+04	1.075966e-01,	2.950051e-05	
159	3.890451e+04	1.075966e-01,	3.018767e-05	
160	3.981072e+04	1.075966e-01,	3.089083e-05	
161	4.073803e+04	1.075966e-01,	3.161037e-05	
162	4.168694e+04	1.075966e-01,	3.234667e-05	
163	4.265795e+04	1.075966e-01,	3.310012e-05	
164	4.365158e+04	1.075966e-01,	3.387112e-05	
165	4.466836e+04	1.075966e-01,	3.466008e-05	
166	4.570882e+04	1.075966e-01,	3.546742e-05	
167	4.677351e+04	1.075966e-01,	3.629356e-05	
168	4.786301e+04	1.075966e-01,	3.713895e-05	
169	4.897788e+04	1.075966e-01,	3.800402e-05	
170	5.011872e+04	1.075966e-01,	3.888925e-05	

Index   frequency       vop                             
--------------------------------------------------------------------------------
171	5.128614e+04	1.075966e-01,	3.979510e-05	
172	5.248075e+04	1.075966e-01,	4.072205e-05	
173	5.370318e+04	1.075966e-01,	4.167058e-05	
174	5.495409e+04	1.075966e-01,	4.264122e-05	
175	5.623413e+04	1.075966e-01,	4.363446e-05	
176	5.754399e+04	1.075966e-01,	4.465084e-05	
177	5.888437e+04	1.075966e-01,	4.569089e-05	
178	6.025596e+04	1.075966e-01,	4.675516e-05	
179	6.165950e+04	1.075966e-01,	4.784423e-05	
180	6.309573e+04	1.075966e-01,	4.895867e-05	
181	6.456542e+04	1.075966e-01,	5.009906e-05	
182	6.606934e+04	1.075966e-01,	5.126602e-05	
183	6.760830e+04	1.075966e-01,	5.246016e-05	
184	6.918310e+04	1.075966e-01,	5.368211e-05	
185	7.079458e+04	1.075966e-01,	5.493253e-05	
186	7.244360e+04	1.075966e-01,	5.621207e-05	
187	7.413102e+04	1.075966e-01,	5.752142e-05	
188	7.585776e+04	1.075966e-01,	5.886127e-05	
189	7.762471e+04	1.075966e-01,	6.023232e-05	
190	7.943282e+04	1.075966e-01,	6.163531e-05	
191	8.128305e+04	1.075966e-01,	6.307098e-05	
192	8.317638e+04	1.075966e-01,	6.454010e-05	
193	8.511380e+04	1.075966e-01,	6.604343e-05	
194	8.709636e+04	1.075966e-01,	6.758178e-05	
195	8.912509e+04	1.075966e-01,	6.915596e-05	
196	9.120108e+04	1.075966e-01,	7.076681e-05	
197	9.332543e+04	1.075966e-01,	7.241518e-05	
198	9.549926e+04	1.075966e-01,	7.410195e-05	
199	9.772372e+04	1.075966e-01,	7.582800e-05	
200	1.000000e+05	1.075966e-01,	7.759426e-05	
201	1.023293e+05	1.075966e-01,	7.940167e-05	
202	1.047129e+05	1.075966e-01,	8.125117e-05	
203	1.071519e+05	1.075966e-01,	8.314375e-05	
204	1.096478e+05	1.075966e-01,	8.508042e-05	
205	1.122018e+05	1.075966e-01,	8.706220e-05	
206	1.148154e+05	1.075966e-01,	8.909014e-05	
207	1.174898e+05	1.075966e-01,	9.116531e-05	
208	1.202264e+05	1.075966e-01,	9.328883e-05	
209	1.230269e+05	1.075966e-01,	9.546180e-05	
210	1.258925e+05	1.075966e-01,	9.768539e-05	
211	1.288250e+05	1.075966e-01,	9.996078e-05	
212	1.318257e+05	1.075966e-01,	1.022892e-04	
213	1.348963e+05	1.075966e-01,	1.046718e-04	
214	1.380384e+05	1.075966e-01,	1.071099e-04	
215	1.412538e+05	1.075966e-01,	1.096048e-04	
216	1.445440e+05	1.075966e-01,	1.121578e-04	
217	1.479108e+05	1.075966e-01,	1.147703e-04	
218	1.513561e+05	1.075966e-01,	1.174437e-04	
219	1.548817e+05	1.075966e-01,	1.201793e-04	
220	1.584893e+05	1.075966e-01,	1.229786e-04	
221	1.621810e+05	1.075966e-01,	1.258432e-04	
222	1.659587e+05	1.075966e-01,	1.287744e-04	
223	1.698244e+05	1.075966e-01,	1.317740e-04	
224	1.737801e+05	1.075966e-01,	1.348434e-04	
225	1.778279e+05	1.075966e-01,	1.379843e-04	
226	1.819701e+05	1.075966e-01,	1.411984e-04	
227	1.862087e+05	1.075966e-01,	1.444873e-04	
228	1.905461e+05	1.075966e-01,	1.478528e-04	

Index   frequency       vop                             
--------------------------------------------------------------------------------
229	1.949845e+05	1.075966e-01,	1.512968e-04	
230	1.995262e+05	1.075966e-01,	1.548209e-04	
231	2.041738e+05	1.075966e-01,	1.584272e-04	
232	2.089296e+05	1.075966e-01,	1.621174e-04	
233	2.137962e+05	1.075966e-01,	1.658936e-04	
234	2.187762e+05	1.075966e-01,	1.697578e-04	
235	2.238721e+05	1.075966e-01,	1.737120e-04	
236	2.290868e+05	1.075966e-01,	1.777582e-04	
237	2.344229e+05	1.075966e-01,	1.818988e-04	
238	2.398833e+05	1.075966e-01,	1.861357e-04	
239	2.454709e+05	1.075966e-01,	1.904714e-04	
240	2.511886e+05	1.075966e-01,	1.949080e-04	
241	2.570396e+05	1.075966e-01,	1.994480e-04	
242	2.630268e+05	1.075966e-01,	2.040938e-04	
243	2.691535e+05	1.075966e-01,	2.088478e-04	
244	2.754229e+05	1.075966e-01,	2.137124e-04	
245	2.818383e+05	1.075966e-01,	2.186905e-04	
246	2.884032e+05	1.075966e-01,	2.237844e-04	
247	2.951209e+05	1.075966e-01,	2.289970e-04	
248	3.019952e+05	1.075966e-01,	2.343311e-04	
249	3.090295e+05	1.075966e-01,	2.397893e-04	
250	3.162278e+05	1.075966e-01,	2.453748e-04	
251	3.235937e+05	1.075966e-01,	2.510903e-04	
252	3.311311e+05	1.075966e-01,	2.569389e-04	
253	3.388442e+05	1.075966e-01,	2.629238e-04	
254	3.467369e+05	1.075966e-01,	2.690481e-04	
255	3.548134e+05	1.075966e-01,	2.753151e-04	
256	3.630781e+05	1.075966e-01,	2.817280e-04	
257	3.715352e+05	1.075966e-01,	2.882903e-04	
258	3.801894e+05	1.075966e-01,	2.950054e-04	
259	3.890451e+05	1.075966e-01,	3.018770e-04	
260	3.981072e+05	1.075966e-01,	3.089086e-04	
261	4.073803e+05	1.075966e-01,	3.161041e-04	
262	4.168694e+05	1.075966e-01,	3.234671e-04	
263	4.265795e+05	1.075966e-01,	3.310016e-04	
264	4.365158e+05	1.075966e-01,	3.387117e-04	
265	4.466836e+05	1.075966e-01,	3.466013e-04	
266	4.570882e+05	1.075966e-01,	3.546747e-04	
267	4.677351e+05	1.075967e-01,	3.629362e-04	
268	4.786301e+05	1.075967e-01,	3.713901e-04	
269	4.897788e+05	1.075967e-01,	3.800409e-04	
270	5.011872e+05	1.075967e-01,	3.888932e-04	
271	5.128614e+05	1.075967e-01,	3.979517e-04	
272	5.248075e+05	1.075967e-01,	4.072212e-04	
273	5.370318e+05	1.075967e-01,	4.167067e-04	
274	5.495409e+05	1.075967e-01,	4.264131e-04	
275	5.623413e+05	1.075967e-01,	4.363455e-04	
276	5.754399e+05	1.075967e-01,	4.465094e-04	
277	5.888437e+05	1.075967e-01,	4.569100e-04	
278	6.025596e+05	1.075967e-01,	4.675528e-04	
279	6.165950e+05	1.075967e-01,	4.784436e-04	
280	6.309573e+05	1.075967e-01,	4.895880e-04	
281	6.456542e+05	1.075967e-01,	5.009921e-04	
282	6.606934e+05	1.075968e-01,	5.126617e-04	
283	6.760830e+05	1.075968e-01,	5.246032e-04	
284	6.918310e+05	1.075968e-01,	5.368229e-04	
285	7.079458e+05	1.075968e-01,	5.493272e-04	
286	7.244360e+05	1.075968e-01,	5.621227e-04	

Index   frequency       vop                             
--------------------------------------------------------------------------------
287	7.413102e+05	1.075968e-01,	5.752164e-04	
288	7.585776e+05	1.075968e-01,	5.886150e-04	
289	7.762471e+05	1.075968e-01,	6.023257e-04	
290	7.943282e+05	1.075968e-01,	6.163558e-04	
291	8.128305e+05	1.075969e-01,	6.307127e-04	
292	8.317638e+05	1.075969e-01,	6.454040e-04	
293	8.511380e+05	1.075969e-01,	6.604375e-04	
294	8.709636e+05	1.075969e-01,	6.758212e-04	
295	8.912509e+05	1.075969e-01,	6.915633e-04	
296	9.120108e+05	1.075969e-01,	7.076720e-04	
297	9.332543e+05	1.075970e-01,	7.241560e-04	
298	9.549926e+05	1.075970e-01,	7.410240e-04	
299	9.772372e+05	1.075970e-01,	7.582848e-04	
300	1.000000e+06	1.075970e-01,	7.759478e-04	
301	1.023293e+06	1.075970e-01,	7.940222e-04	
302	1.047129e+06	1.075971e-01,	8.125176e-04	
303	1.071519e+06	1.075971e-01,	8.314438e-04	
304	1.096478e+06	1.075971e-01,	8.508109e-04	
305	1.122018e+06	1.075971e-01,	8.706292e-04	
306	1.148154e+06	1.075972e-01,	8.909090e-04	
307	1.174898e+06	1.075972e-01,	9.116613e-04	
308	1.202264e+06	1.075972e-01,	9.328970e-04	
309	1.230269e+06	1.075973e-01,	9.546274e-04	
310	1.258925e+06	1.075973e-01,	9.768639e-04	
311	1.288250e+06	1.075973e-01,	9.996184e-04	
312	1.318257e+06	1.075974e-01,	1.022903e-03	
313	1.348963e+06	1.075974e-01,	1.046730e-03	
314	1.380384e+06	1.075975e-01,	1.071112e-03	
315	1.412538e+06	1.075975e-01,	1.096062e-03	
316	1.445440e+06	1.075975e-01,	1.121593e-03	
317	1.479108e+06	1.075976e-01,	1.147719e-03	
318	1.513561e+06	1.075976e-01,	1.174453e-03	
319	1.548817e+06	1.075977e-01,	1.201811e-03	
320	1.584893e+06	1.075977e-01,	1.229805e-03	
321	1.621810e+06	1.075978e-01,	1.258452e-03	
322	1.659587e+06	1.075979e-01,	1.287766e-03	
323	1.698244e+06	1.075979e-01,	1.317763e-03	
324	1.737801e+06	1.075980e-01,	1.348458e-03	
325	1.778279e+06	1.075981e-01,	1.379869e-03	
326	1.819701e+06	1.075981e-01,	1.412011e-03	
327	1.862087e+06	1.075982e-01,	1.444902e-03	
328	1.905461e+06	1.075983e-01,	1.478559e-03	
329	1.949845e+06	1.075984e-01,	1.513000e-03	
330	1.995262e+06	1.075985e-01,	1.548244e-03	
331	2.041738e+06	1.075985e-01,	1.584308e-03	
332	2.089296e+06	1.075986e-01,	1.621213e-03	
333	2.137962e+06	1.075987e-01,	1.658977e-03	
334	2.187762e+06	1.075988e-01,	1.697621e-03	
335	2.238721e+06	1.075990e-01,	1.737165e-03	
336	2.290868e+06	1.075991e-01,	1.777630e-03	
337	2.344229e+06	1.075992e-01,	1.819038e-03	
338	2.398833e+06	1.075993e-01,	1.861411e-03	
339	2.454709e+06	1.075994e-01,	1.904770e-03	
340	2.511886e+06	1.075996e-01,	1.949139e-03	
341	2.570396e+06	1.075997e-01,	1.994542e-03	
342	2.630268e+06	1.075999e-01,	2.041002e-03	
343	2.691535e+06	1.076000e-01,	2.088545e-03	
344	2.754229e+06	1.076002e-01,	2.137195e-03	

Index   frequency       vop                             
--------------------------------------------------------------------------------
345	2.818383e+06	1.076004e-01,	2.186978e-03	
346	2.884032e+06	1.076006e-01,	2.237920e-03	
347	2.951209e+06	1.076008e-01,	2.290049e-03	
348	3.019952e+06	1.076010e-01,	2.343392e-03	
349	3.090295e+06	1.076012e-01,	2.397978e-03	
350	3.162278e+06	1.076014e-01,	2.453834e-03	
351	3.235937e+06	1.076016e-01,	2.510992e-03	
352	3.311311e+06	1.076019e-01,	2.569480e-03	
353	3.388442e+06	1.076021e-01,	2.629331e-03	
354	3.467369e+06	1.076024e-01,	2.690575e-03	
355	3.548134e+06	1.076027e-01,	2.753245e-03	
356	3.630781e+06	1.076030e-01,	2.817375e-03	
357	3.715352e+06	1.076033e-01,	2.882998e-03	
358	3.801894e+06	1.076036e-01,	2.950149e-03	
359	3.890451e+06	1.076040e-01,	3.018863e-03	
360	3.981072e+06	1.076043e-01,	3.089177e-03	
361	4.073803e+06	1.076047e-01,	3.161127e-03	
362	4.168694e+06	1.076051e-01,	3.234753e-03	
363	4.265795e+06	1.076055e-01,	3.310093e-03	
364	4.365158e+06	1.076059e-01,	3.387187e-03	
365	4.466836e+06	1.076064e-01,	3.466075e-03	
366	4.570882e+06	1.076068e-01,	3.546799e-03	
367	4.677351e+06	1.076073e-01,	3.629402e-03	
368	4.786301e+06	1.076078e-01,	3.713928e-03	
369	4.897788e+06	1.076084e-01,	3.800422e-03	
370	5.011872e+06	1.076089e-01,	3.888928e-03	
371	5.128614e+06	1.076095e-01,	3.979495e-03	
372	5.248075e+06	1.076101e-01,	4.072169e-03	
373	5.370318e+06	1.076108e-01,	4.167001e-03	
374	5.495409e+06	1.076114e-01,	4.264039e-03	
375	5.623413e+06	1.076121e-01,	4.363337e-03	
376	5.754399e+06	1.076129e-01,	4.464945e-03	
377	5.888437e+06	1.076136e-01,	4.568919e-03	
378	6.025596e+06	1.076144e-01,	4.675313e-03	
379	6.165950e+06	1.076153e-01,	4.784183e-03	
380	6.309573e+06	1.076161e-01,	4.895588e-03	
381	6.456542e+06	1.076171e-01,	5.009587e-03	
382	6.606934e+06	1.076180e-01,	5.126239e-03	
383	6.760830e+06	1.076190e-01,	5.245607e-03	
384	6.918310e+06	1.076200e-01,	5.367754e-03	
385	7.079458e+06	1.076211e-01,	5.492745e-03	
386	7.244360e+06	1.076223e-01,	5.620647e-03	
387	7.413102e+06	1.076235e-01,	5.751526e-03	
388	7.585776e+06	1.076247e-01,	5.885453e-03	
389	7.762471e+06	1.076260e-01,	6.022499e-03	
390	7.943282e+06	1.076274e-01,	6.162736e-03	
391	8.128305e+06	1.076288e-01,	6.306239e-03	
392	8.317638e+06	1.076303e-01,	6.453084e-03	
393	8.511380e+06	1.076318e-01,	6.603348e-03	
394	8.709636e+06	1.076334e-01,	6.757112e-03	
395	8.912509e+06	1.076351e-01,	6.914457e-03	
396	9.120108e+06	1.076369e-01,	7.075467e-03	
397	9.332543e+06	1.076388e-01,	7.240226e-03	
398	9.549926e+06	1.076407e-01,	7.408822e-03	
399	9.772372e+06	1.076427e-01,	7.581346e-03	
400	1.000000e+07	1.076449e-01,	7.757887e-03	
401	1.023293e+07	1.076471e-01,	7.938539e-03	
402	1.047129e+07	1.076494e-01,	8.123399e-03	

Index   frequency       vop                             
--------------------------------------------------------------------------------
403	1.071519e+07	1.076518e-01,	8.312564e-03	
404	1.096478e+07	1.076544e-01,	8.506135e-03	
405	1.122018e+07	1.076571e-01,	8.704214e-03	
406	1.148154e+07	1.076599e-01,	8.906906e-03	
407	1.174898e+07	1.076628e-01,	9.114318e-03	
408	1.202264e+07	1.076658e-01,	9.326560e-03	
409	1.230269e+07	1.076690e-01,	9.543745e-03	
410	1.258925e+07	1.076724e-01,	9.765988e-03	
411	1.288250e+07	1.076759e-01,	9.993406e-03	
412	1.318257e+07	1.076796e-01,	1.022612e-02	
413	1.348963e+07	1.076834e-01,	1.046425e-02	
414	1.380384e+07	1.076875e-01,	1.070793e-02	
415	1.412538e+07	1.076917e-01,	1.095728e-02	
416	1.445440e+07	1.076961e-01,	1.121244e-02	
