** sch_path: /home/andylithia/openmpw/project-reisen-chip1/xschem/ota_wideband.sch
AC Analysis  Sun Oct 30 17:11:03  2022
--------------------------------------------------------------------------------
Index   frequency       vop                             
--------------------------------------------------------------------------------
0	1.000000e+03	3.483063e+00,	-1.72492e-06	
1	1.023293e+03	3.483063e+00,	-1.76510e-06	
2	1.047129e+03	3.483063e+00,	-1.80621e-06	
3	1.071519e+03	3.483063e+00,	-1.84828e-06	
4	1.096478e+03	3.483063e+00,	-1.89134e-06	
5	1.122018e+03	3.483063e+00,	-1.93539e-06	
6	1.148154e+03	3.483063e+00,	-1.98047e-06	
7	1.174898e+03	3.483063e+00,	-2.02660e-06	
8	1.202264e+03	3.483063e+00,	-2.07381e-06	
9	1.230269e+03	3.483063e+00,	-2.12211e-06	
10	1.258925e+03	3.483063e+00,	-2.17154e-06	
11	1.288250e+03	3.483063e+00,	-2.22213e-06	
12	1.318257e+03	3.483063e+00,	-2.27389e-06	
13	1.348963e+03	3.483063e+00,	-2.32685e-06	
14	1.380384e+03	3.483063e+00,	-2.38105e-06	
15	1.412538e+03	3.483063e+00,	-2.43651e-06	
16	1.445440e+03	3.483063e+00,	-2.49327e-06	
17	1.479108e+03	3.483063e+00,	-2.55134e-06	
18	1.513561e+03	3.483063e+00,	-2.61077e-06	
19	1.548817e+03	3.483063e+00,	-2.67158e-06	
20	1.584893e+03	3.483063e+00,	-2.73381e-06	
21	1.621810e+03	3.483063e+00,	-2.79749e-06	
22	1.659587e+03	3.483063e+00,	-2.86265e-06	
23	1.698244e+03	3.483063e+00,	-2.92933e-06	
24	1.737801e+03	3.483063e+00,	-2.99757e-06	
25	1.778279e+03	3.483063e+00,	-3.06739e-06	
26	1.819701e+03	3.483063e+00,	-3.13884e-06	
27	1.862087e+03	3.483063e+00,	-3.21195e-06	
28	1.905461e+03	3.483063e+00,	-3.28677e-06	
29	1.949845e+03	3.483063e+00,	-3.36332e-06	
30	1.995262e+03	3.483063e+00,	-3.44167e-06	
31	2.041738e+03	3.483063e+00,	-3.52183e-06	
32	2.089296e+03	3.483063e+00,	-3.60387e-06	
33	2.137962e+03	3.483063e+00,	-3.68781e-06	
34	2.187762e+03	3.483063e+00,	-3.77371e-06	
35	2.238721e+03	3.483063e+00,	-3.86161e-06	
36	2.290868e+03	3.483063e+00,	-3.95156e-06	
37	2.344229e+03	3.483063e+00,	-4.04361e-06	
38	2.398833e+03	3.483063e+00,	-4.13779e-06	
39	2.454709e+03	3.483063e+00,	-4.23418e-06	
40	2.511886e+03	3.483063e+00,	-4.33280e-06	
41	2.570396e+03	3.483063e+00,	-4.43373e-06	
42	2.630268e+03	3.483063e+00,	-4.53700e-06	
43	2.691535e+03	3.483063e+00,	-4.64268e-06	
44	2.754229e+03	3.483063e+00,	-4.75082e-06	
45	2.818383e+03	3.483063e+00,	-4.86148e-06	
46	2.884032e+03	3.483063e+00,	-4.97472e-06	
47	2.951209e+03	3.483063e+00,	-5.09060e-06	
48	3.019952e+03	3.483063e+00,	-5.20917e-06	
49	3.090295e+03	3.483063e+00,	-5.33051e-06	
50	3.162278e+03	3.483063e+00,	-5.45467e-06	
51	3.235937e+03	3.483063e+00,	-5.58173e-06	
52	3.311311e+03	3.483063e+00,	-5.71175e-06	
53	3.388442e+03	3.483063e+00,	-5.84479e-06	
54	3.467369e+03	3.483063e+00,	-5.98093e-06	

Index   frequency       vop                             
--------------------------------------------------------------------------------
55	3.548134e+03	3.483063e+00,	-6.12025e-06	
56	3.630781e+03	3.483063e+00,	-6.26280e-06	
57	3.715352e+03	3.483063e+00,	-6.40868e-06	
58	3.801894e+03	3.483063e+00,	-6.55796e-06	
59	3.890451e+03	3.483063e+00,	-6.71072e-06	
60	3.981072e+03	3.483063e+00,	-6.86703e-06	
61	4.073803e+03	3.483063e+00,	-7.02698e-06	
62	4.168694e+03	3.483063e+00,	-7.19066e-06	
63	4.265795e+03	3.483063e+00,	-7.35815e-06	
64	4.365158e+03	3.483063e+00,	-7.52955e-06	
65	4.466836e+03	3.483063e+00,	-7.70493e-06	
66	4.570882e+03	3.483063e+00,	-7.88440e-06	
67	4.677351e+03	3.483063e+00,	-8.06805e-06	
68	4.786301e+03	3.483063e+00,	-8.25598e-06	
69	4.897788e+03	3.483063e+00,	-8.44829e-06	
70	5.011872e+03	3.483063e+00,	-8.64508e-06	
71	5.128614e+03	3.483063e+00,	-8.84645e-06	
72	5.248075e+03	3.483063e+00,	-9.05251e-06	
73	5.370318e+03	3.483063e+00,	-9.26337e-06	
74	5.495409e+03	3.483063e+00,	-9.47914e-06	
75	5.623413e+03	3.483063e+00,	-9.69993e-06	
76	5.754399e+03	3.483063e+00,	-9.92588e-06	
77	5.888437e+03	3.483063e+00,	-1.01571e-05	
78	6.025596e+03	3.483063e+00,	-1.03937e-05	
79	6.165950e+03	3.483063e+00,	-1.06358e-05	
80	6.309573e+03	3.483063e+00,	-1.08835e-05	
81	6.456542e+03	3.483063e+00,	-1.11370e-05	
82	6.606934e+03	3.483063e+00,	-1.13964e-05	
83	6.760830e+03	3.483063e+00,	-1.16619e-05	
84	6.918310e+03	3.483063e+00,	-1.19335e-05	
85	7.079458e+03	3.483063e+00,	-1.22115e-05	
86	7.244360e+03	3.483063e+00,	-1.24959e-05	
87	7.413102e+03	3.483063e+00,	-1.27870e-05	
88	7.585776e+03	3.483063e+00,	-1.30849e-05	
89	7.762471e+03	3.483063e+00,	-1.33896e-05	
90	7.943282e+03	3.483063e+00,	-1.37015e-05	
91	8.128305e+03	3.483063e+00,	-1.40207e-05	
92	8.317638e+03	3.483063e+00,	-1.43473e-05	
93	8.511380e+03	3.483063e+00,	-1.46814e-05	
94	8.709636e+03	3.483063e+00,	-1.50234e-05	
95	8.912509e+03	3.483063e+00,	-1.53734e-05	
96	9.120108e+03	3.483063e+00,	-1.57315e-05	
97	9.332543e+03	3.483063e+00,	-1.60979e-05	
98	9.549926e+03	3.483063e+00,	-1.64729e-05	
99	9.772372e+03	3.483063e+00,	-1.68566e-05	
100	1.000000e+04	3.483063e+00,	-1.72492e-05	
101	1.023293e+04	3.483063e+00,	-1.76510e-05	
102	1.047129e+04	3.483063e+00,	-1.80621e-05	
103	1.071519e+04	3.483063e+00,	-1.84828e-05	
104	1.096478e+04	3.483063e+00,	-1.89134e-05	
105	1.122018e+04	3.483063e+00,	-1.93539e-05	
106	1.148154e+04	3.483063e+00,	-1.98047e-05	
107	1.174898e+04	3.483063e+00,	-2.02660e-05	
108	1.202264e+04	3.483063e+00,	-2.07381e-05	
109	1.230269e+04	3.483063e+00,	-2.12211e-05	
110	1.258925e+04	3.483063e+00,	-2.17154e-05	
111	1.288250e+04	3.483063e+00,	-2.22213e-05	
112	1.318257e+04	3.483063e+00,	-2.27389e-05	

Index   frequency       vop                             
--------------------------------------------------------------------------------
113	1.348963e+04	3.483063e+00,	-2.32685e-05	
114	1.380384e+04	3.483063e+00,	-2.38105e-05	
115	1.412538e+04	3.483063e+00,	-2.43651e-05	
116	1.445440e+04	3.483063e+00,	-2.49327e-05	
117	1.479108e+04	3.483063e+00,	-2.55134e-05	
118	1.513561e+04	3.483063e+00,	-2.61077e-05	
119	1.548817e+04	3.483063e+00,	-2.67158e-05	
120	1.584893e+04	3.483063e+00,	-2.73381e-05	
121	1.621810e+04	3.483063e+00,	-2.79749e-05	
122	1.659587e+04	3.483063e+00,	-2.86265e-05	
123	1.698244e+04	3.483063e+00,	-2.92933e-05	
124	1.737801e+04	3.483063e+00,	-2.99757e-05	
125	1.778279e+04	3.483063e+00,	-3.06739e-05	
126	1.819701e+04	3.483063e+00,	-3.13884e-05	
127	1.862087e+04	3.483063e+00,	-3.21195e-05	
128	1.905461e+04	3.483063e+00,	-3.28677e-05	
129	1.949845e+04	3.483063e+00,	-3.36332e-05	
130	1.995262e+04	3.483063e+00,	-3.44167e-05	
131	2.041738e+04	3.483063e+00,	-3.52183e-05	
132	2.089296e+04	3.483063e+00,	-3.60387e-05	
133	2.137962e+04	3.483063e+00,	-3.68781e-05	
134	2.187762e+04	3.483063e+00,	-3.77371e-05	
135	2.238721e+04	3.483063e+00,	-3.86161e-05	
136	2.290868e+04	3.483063e+00,	-3.95156e-05	
137	2.344229e+04	3.483063e+00,	-4.04361e-05	
138	2.398833e+04	3.483063e+00,	-4.13779e-05	
139	2.454709e+04	3.483063e+00,	-4.23418e-05	
140	2.511886e+04	3.483063e+00,	-4.33280e-05	
141	2.570396e+04	3.483063e+00,	-4.43373e-05	
142	2.630268e+04	3.483063e+00,	-4.53700e-05	
143	2.691535e+04	3.483063e+00,	-4.64268e-05	
144	2.754229e+04	3.483063e+00,	-4.75082e-05	
145	2.818383e+04	3.483063e+00,	-4.86148e-05	
146	2.884032e+04	3.483063e+00,	-4.97472e-05	
147	2.951209e+04	3.483063e+00,	-5.09060e-05	
148	3.019952e+04	3.483063e+00,	-5.20917e-05	
149	3.090295e+04	3.483063e+00,	-5.33051e-05	
150	3.162278e+04	3.483063e+00,	-5.45467e-05	
151	3.235937e+04	3.483063e+00,	-5.58173e-05	
152	3.311311e+04	3.483063e+00,	-5.71175e-05	
153	3.388442e+04	3.483063e+00,	-5.84479e-05	
154	3.467369e+04	3.483063e+00,	-5.98093e-05	
155	3.548134e+04	3.483063e+00,	-6.12025e-05	
156	3.630781e+04	3.483063e+00,	-6.26280e-05	
157	3.715352e+04	3.483063e+00,	-6.40868e-05	
158	3.801894e+04	3.483063e+00,	-6.55796e-05	
159	3.890451e+04	3.483063e+00,	-6.71072e-05	
160	3.981072e+04	3.483063e+00,	-6.86703e-05	
161	4.073803e+04	3.483063e+00,	-7.02698e-05	
162	4.168694e+04	3.483063e+00,	-7.19066e-05	
163	4.265795e+04	3.483063e+00,	-7.35815e-05	
164	4.365158e+04	3.483063e+00,	-7.52955e-05	
165	4.466836e+04	3.483063e+00,	-7.70493e-05	
166	4.570882e+04	3.483063e+00,	-7.88440e-05	
167	4.677351e+04	3.483063e+00,	-8.06805e-05	
168	4.786301e+04	3.483063e+00,	-8.25598e-05	
169	4.897788e+04	3.483063e+00,	-8.44829e-05	
170	5.011872e+04	3.483063e+00,	-8.64508e-05	

Index   frequency       vop                             
--------------------------------------------------------------------------------
171	5.128614e+04	3.483063e+00,	-8.84645e-05	
172	5.248075e+04	3.483063e+00,	-9.05251e-05	
173	5.370318e+04	3.483063e+00,	-9.26337e-05	
174	5.495409e+04	3.483063e+00,	-9.47914e-05	
175	5.623413e+04	3.483063e+00,	-9.69993e-05	
176	5.754399e+04	3.483063e+00,	-9.92588e-05	
177	5.888437e+04	3.483063e+00,	-1.01571e-04	
178	6.025596e+04	3.483063e+00,	-1.03937e-04	
179	6.165950e+04	3.483063e+00,	-1.06358e-04	
180	6.309573e+04	3.483063e+00,	-1.08835e-04	
181	6.456542e+04	3.483063e+00,	-1.11370e-04	
182	6.606934e+04	3.483063e+00,	-1.13964e-04	
183	6.760830e+04	3.483063e+00,	-1.16619e-04	
184	6.918310e+04	3.483063e+00,	-1.19335e-04	
185	7.079458e+04	3.483063e+00,	-1.22115e-04	
186	7.244360e+04	3.483063e+00,	-1.24959e-04	
187	7.413102e+04	3.483063e+00,	-1.27870e-04	
188	7.585776e+04	3.483063e+00,	-1.30849e-04	
189	7.762471e+04	3.483063e+00,	-1.33896e-04	
190	7.943282e+04	3.483063e+00,	-1.37015e-04	
191	8.128305e+04	3.483063e+00,	-1.40207e-04	
192	8.317638e+04	3.483063e+00,	-1.43473e-04	
193	8.511380e+04	3.483063e+00,	-1.46814e-04	
194	8.709636e+04	3.483063e+00,	-1.50234e-04	
195	8.912509e+04	3.483063e+00,	-1.53734e-04	
196	9.120108e+04	3.483063e+00,	-1.57315e-04	
197	9.332543e+04	3.483063e+00,	-1.60979e-04	
198	9.549926e+04	3.483063e+00,	-1.64729e-04	
199	9.772372e+04	3.483063e+00,	-1.68566e-04	
200	1.000000e+05	3.483063e+00,	-1.72492e-04	
201	1.023293e+05	3.483063e+00,	-1.76510e-04	
202	1.047129e+05	3.483063e+00,	-1.80621e-04	
203	1.071519e+05	3.483063e+00,	-1.84828e-04	
204	1.096478e+05	3.483063e+00,	-1.89134e-04	
205	1.122018e+05	3.483063e+00,	-1.93539e-04	
206	1.148154e+05	3.483063e+00,	-1.98047e-04	
207	1.174898e+05	3.483063e+00,	-2.02660e-04	
208	1.202264e+05	3.483063e+00,	-2.07381e-04	
209	1.230269e+05	3.483063e+00,	-2.12211e-04	
210	1.258925e+05	3.483063e+00,	-2.17155e-04	
211	1.288250e+05	3.483063e+00,	-2.22213e-04	
212	1.318257e+05	3.483063e+00,	-2.27389e-04	
213	1.348963e+05	3.483063e+00,	-2.32685e-04	
214	1.380384e+05	3.483063e+00,	-2.38105e-04	
215	1.412538e+05	3.483063e+00,	-2.43651e-04	
216	1.445440e+05	3.483063e+00,	-2.49327e-04	
217	1.479108e+05	3.483063e+00,	-2.55134e-04	
218	1.513561e+05	3.483063e+00,	-2.61077e-04	
219	1.548817e+05	3.483063e+00,	-2.67158e-04	
220	1.584893e+05	3.483063e+00,	-2.73381e-04	
221	1.621810e+05	3.483063e+00,	-2.79749e-04	
222	1.659587e+05	3.483063e+00,	-2.86265e-04	
223	1.698244e+05	3.483063e+00,	-2.92933e-04	
224	1.737801e+05	3.483063e+00,	-2.99757e-04	
225	1.778279e+05	3.483063e+00,	-3.06739e-04	
226	1.819701e+05	3.483063e+00,	-3.13884e-04	
227	1.862087e+05	3.483063e+00,	-3.21195e-04	
228	1.905461e+05	3.483063e+00,	-3.28677e-04	

Index   frequency       vop                             
--------------------------------------------------------------------------------
229	1.949845e+05	3.483063e+00,	-3.36333e-04	
230	1.995262e+05	3.483063e+00,	-3.44167e-04	
231	2.041738e+05	3.483063e+00,	-3.52183e-04	
232	2.089296e+05	3.483063e+00,	-3.60387e-04	
233	2.137962e+05	3.483063e+00,	-3.68781e-04	
234	2.187762e+05	3.483063e+00,	-3.77371e-04	
235	2.238721e+05	3.483063e+00,	-3.86161e-04	
236	2.290868e+05	3.483063e+00,	-3.95156e-04	
237	2.344229e+05	3.483063e+00,	-4.04361e-04	
238	2.398833e+05	3.483063e+00,	-4.13779e-04	
239	2.454709e+05	3.483063e+00,	-4.23418e-04	
240	2.511886e+05	3.483063e+00,	-4.33280e-04	
241	2.570396e+05	3.483063e+00,	-4.43373e-04	
242	2.630268e+05	3.483063e+00,	-4.53700e-04	
243	2.691535e+05	3.483063e+00,	-4.64268e-04	
244	2.754229e+05	3.483063e+00,	-4.75082e-04	
245	2.818383e+05	3.483063e+00,	-4.86148e-04	
246	2.884032e+05	3.483063e+00,	-4.97472e-04	
247	2.951209e+05	3.483063e+00,	-5.09060e-04	
248	3.019952e+05	3.483063e+00,	-5.20917e-04	
249	3.090295e+05	3.483063e+00,	-5.33051e-04	
250	3.162278e+05	3.483063e+00,	-5.45468e-04	
251	3.235937e+05	3.483063e+00,	-5.58173e-04	
252	3.311311e+05	3.483063e+00,	-5.71175e-04	
253	3.388442e+05	3.483063e+00,	-5.84479e-04	
254	3.467369e+05	3.483063e+00,	-5.98093e-04	
255	3.548134e+05	3.483063e+00,	-6.12025e-04	
256	3.630781e+05	3.483063e+00,	-6.26281e-04	
257	3.715352e+05	3.483063e+00,	-6.40869e-04	
258	3.801894e+05	3.483063e+00,	-6.55796e-04	
259	3.890451e+05	3.483063e+00,	-6.71072e-04	
260	3.981072e+05	3.483063e+00,	-6.86703e-04	
261	4.073803e+05	3.483063e+00,	-7.02699e-04	
262	4.168694e+05	3.483063e+00,	-7.19067e-04	
263	4.265795e+05	3.483063e+00,	-7.35816e-04	
264	4.365158e+05	3.483063e+00,	-7.52955e-04	
265	4.466836e+05	3.483063e+00,	-7.70494e-04	
266	4.570882e+05	3.483063e+00,	-7.88441e-04	
267	4.677351e+05	3.483063e+00,	-8.06806e-04	
268	4.786301e+05	3.483063e+00,	-8.25599e-04	
269	4.897788e+05	3.483063e+00,	-8.44830e-04	
270	5.011872e+05	3.483063e+00,	-8.64508e-04	
271	5.128614e+05	3.483063e+00,	-8.84645e-04	
272	5.248075e+05	3.483063e+00,	-9.05251e-04	
273	5.370318e+05	3.483063e+00,	-9.26337e-04	
274	5.495409e+05	3.483063e+00,	-9.47915e-04	
275	5.623413e+05	3.483063e+00,	-9.69994e-04	
276	5.754399e+05	3.483063e+00,	-9.92589e-04	
277	5.888437e+05	3.483063e+00,	-1.01571e-03	
278	6.025596e+05	3.483063e+00,	-1.03937e-03	
279	6.165950e+05	3.483063e+00,	-1.06358e-03	
280	6.309573e+05	3.483063e+00,	-1.08835e-03	
281	6.456542e+05	3.483063e+00,	-1.11370e-03	
282	6.606934e+05	3.483063e+00,	-1.13964e-03	
283	6.760830e+05	3.483063e+00,	-1.16619e-03	
284	6.918310e+05	3.483063e+00,	-1.19335e-03	
285	7.079458e+05	3.483063e+00,	-1.22115e-03	
286	7.244360e+05	3.483063e+00,	-1.24960e-03	

Index   frequency       vop                             
--------------------------------------------------------------------------------
287	7.413102e+05	3.483063e+00,	-1.27870e-03	
288	7.585776e+05	3.483063e+00,	-1.30849e-03	
289	7.762471e+05	3.483063e+00,	-1.33897e-03	
290	7.943282e+05	3.483063e+00,	-1.37016e-03	
291	8.128305e+05	3.483063e+00,	-1.40207e-03	
292	8.317638e+05	3.483063e+00,	-1.43473e-03	
293	8.511380e+05	3.483063e+00,	-1.46815e-03	
294	8.709636e+05	3.483063e+00,	-1.50235e-03	
295	8.912509e+05	3.483063e+00,	-1.53734e-03	
296	9.120108e+05	3.483063e+00,	-1.57315e-03	
297	9.332543e+05	3.483063e+00,	-1.60979e-03	
298	9.549926e+05	3.483063e+00,	-1.64729e-03	
299	9.772372e+05	3.483063e+00,	-1.68566e-03	
300	1.000000e+06	3.483063e+00,	-1.72493e-03	
301	1.023293e+06	3.483063e+00,	-1.76510e-03	
302	1.047129e+06	3.483063e+00,	-1.80622e-03	
303	1.071519e+06	3.483063e+00,	-1.84829e-03	
304	1.096478e+06	3.483063e+00,	-1.89134e-03	
305	1.122018e+06	3.483063e+00,	-1.93540e-03	
306	1.148154e+06	3.483063e+00,	-1.98048e-03	
307	1.174898e+06	3.483063e+00,	-2.02661e-03	
308	1.202264e+06	3.483063e+00,	-2.07382e-03	
309	1.230269e+06	3.483063e+00,	-2.12213e-03	
310	1.258925e+06	3.483063e+00,	-2.17156e-03	
311	1.288250e+06	3.483063e+00,	-2.22214e-03	
312	1.318257e+06	3.483063e+00,	-2.27390e-03	
313	1.348963e+06	3.483063e+00,	-2.32687e-03	
314	1.380384e+06	3.483063e+00,	-2.38107e-03	
315	1.412538e+06	3.483063e+00,	-2.43653e-03	
316	1.445440e+06	3.483063e+00,	-2.49328e-03	
317	1.479108e+06	3.483063e+00,	-2.55136e-03	
318	1.513561e+06	3.483063e+00,	-2.61079e-03	
319	1.548817e+06	3.483063e+00,	-2.67160e-03	
320	1.584893e+06	3.483063e+00,	-2.73384e-03	
321	1.621810e+06	3.483063e+00,	-2.79752e-03	
322	1.659587e+06	3.483063e+00,	-2.86268e-03	
323	1.698244e+06	3.483063e+00,	-2.92936e-03	
324	1.737801e+06	3.483063e+00,	-2.99760e-03	
325	1.778279e+06	3.483063e+00,	-3.06742e-03	
326	1.819701e+06	3.483063e+00,	-3.13887e-03	
327	1.862087e+06	3.483063e+00,	-3.21199e-03	
328	1.905461e+06	3.483063e+00,	-3.28681e-03	
329	1.949845e+06	3.483063e+00,	-3.36337e-03	
330	1.995262e+06	3.483063e+00,	-3.44171e-03	
331	2.041738e+06	3.483063e+00,	-3.52188e-03	
332	2.089296e+06	3.483063e+00,	-3.60392e-03	
333	2.137962e+06	3.483063e+00,	-3.68787e-03	
334	2.187762e+06	3.483063e+00,	-3.77377e-03	
335	2.238721e+06	3.483063e+00,	-3.86168e-03	
336	2.290868e+06	3.483063e+00,	-3.95163e-03	
337	2.344229e+06	3.483063e+00,	-4.04368e-03	
338	2.398833e+06	3.483063e+00,	-4.13787e-03	
339	2.454709e+06	3.483063e+00,	-4.23426e-03	
340	2.511886e+06	3.483063e+00,	-4.33289e-03	
341	2.570396e+06	3.483063e+00,	-4.43382e-03	
342	2.630268e+06	3.483063e+00,	-4.53710e-03	
343	2.691535e+06	3.483063e+00,	-4.64279e-03	
344	2.754229e+06	3.483063e+00,	-4.75094e-03	

Index   frequency       vop                             
--------------------------------------------------------------------------------
345	2.818383e+06	3.483063e+00,	-4.86161e-03	
346	2.884032e+06	3.483063e+00,	-4.97486e-03	
347	2.951209e+06	3.483063e+00,	-5.09074e-03	
348	3.019952e+06	3.483063e+00,	-5.20933e-03	
349	3.090295e+06	3.483063e+00,	-5.33068e-03	
350	3.162278e+06	3.483063e+00,	-5.45485e-03	
351	3.235937e+06	3.483063e+00,	-5.58192e-03	
352	3.311311e+06	3.483063e+00,	-5.71195e-03	
353	3.388442e+06	3.483063e+00,	-5.84501e-03	
354	3.467369e+06	3.483063e+00,	-5.98117e-03	
355	3.548134e+06	3.483063e+00,	-6.12050e-03	
356	3.630781e+06	3.483063e+00,	-6.26307e-03	
357	3.715352e+06	3.483063e+00,	-6.40897e-03	
358	3.801894e+06	3.483062e+00,	-6.55827e-03	
359	3.890451e+06	3.483062e+00,	-6.71105e-03	
360	3.981072e+06	3.483062e+00,	-6.86738e-03	
361	4.073803e+06	3.483062e+00,	-7.02736e-03	
362	4.168694e+06	3.483062e+00,	-7.19107e-03	
363	4.265795e+06	3.483062e+00,	-7.35859e-03	
364	4.365158e+06	3.483062e+00,	-7.53002e-03	
365	4.466836e+06	3.483062e+00,	-7.70544e-03	
366	4.570882e+06	3.483062e+00,	-7.88494e-03	
367	4.677351e+06	3.483062e+00,	-8.06863e-03	
368	4.786301e+06	3.483062e+00,	-8.25660e-03	
369	4.897788e+06	3.483062e+00,	-8.44895e-03	
370	5.011872e+06	3.483062e+00,	-8.64579e-03	
371	5.128614e+06	3.483062e+00,	-8.84721e-03	
372	5.248075e+06	3.483062e+00,	-9.05332e-03	
373	5.370318e+06	3.483062e+00,	-9.26424e-03	
374	5.495409e+06	3.483062e+00,	-9.48007e-03	
375	5.623413e+06	3.483062e+00,	-9.70094e-03	
376	5.754399e+06	3.483062e+00,	-9.92695e-03	
377	5.888437e+06	3.483062e+00,	-1.01582e-02	
378	6.025596e+06	3.483061e+00,	-1.03949e-02	
379	6.165950e+06	3.483061e+00,	-1.06371e-02	
380	6.309573e+06	3.483061e+00,	-1.08849e-02	
381	6.456542e+06	3.483061e+00,	-1.11385e-02	
382	6.606934e+06	3.483061e+00,	-1.13981e-02	
383	6.760830e+06	3.483061e+00,	-1.16636e-02	
384	6.918310e+06	3.483061e+00,	-1.19354e-02	
385	7.079458e+06	3.483061e+00,	-1.22135e-02	
386	7.244360e+06	3.483061e+00,	-1.24981e-02	
387	7.413102e+06	3.483060e+00,	-1.27893e-02	
388	7.585776e+06	3.483060e+00,	-1.30873e-02	
389	7.762471e+06	3.483060e+00,	-1.33923e-02	
390	7.943282e+06	3.483060e+00,	-1.37043e-02	
391	8.128305e+06	3.483060e+00,	-1.40237e-02	
392	8.317638e+06	3.483060e+00,	-1.43505e-02	
393	8.511380e+06	3.483060e+00,	-1.46849e-02	
394	8.709636e+06	3.483059e+00,	-1.50271e-02	
395	8.912509e+06	3.483059e+00,	-1.53773e-02	
396	9.120108e+06	3.483059e+00,	-1.57357e-02	
397	9.332543e+06	3.483059e+00,	-1.61024e-02	
398	9.549926e+06	3.483059e+00,	-1.64777e-02	
399	9.772372e+06	3.483058e+00,	-1.68618e-02	
400	1.000000e+07	3.483058e+00,	-1.72548e-02	
401	1.023293e+07	3.483058e+00,	-1.76569e-02	
402	1.047129e+07	3.483057e+00,	-1.80685e-02	

Index   frequency       vop                             
--------------------------------------------------------------------------------
403	1.071519e+07	3.483057e+00,	-1.84897e-02	
404	1.096478e+07	3.483057e+00,	-1.89207e-02	
405	1.122018e+07	3.483056e+00,	-1.93617e-02	
406	1.148154e+07	3.483056e+00,	-1.98131e-02	
407	1.174898e+07	3.483056e+00,	-2.02750e-02	
408	1.202264e+07	3.483055e+00,	-2.07477e-02	
409	1.230269e+07	3.483055e+00,	-2.12314e-02	
410	1.258925e+07	3.483054e+00,	-2.17264e-02	
411	1.288250e+07	3.483054e+00,	-2.22330e-02	
412	1.318257e+07	3.483053e+00,	-2.27514e-02	
413	1.348963e+07	3.483053e+00,	-2.32820e-02	
414	1.380384e+07	3.483052e+00,	-2.38249e-02	
415	1.412538e+07	3.483051e+00,	-2.43805e-02	
416	1.445440e+07	3.483051e+00,	-2.49491e-02	
