** sch_path: /home/andylithia/openmpw/project-reisen-chip1/xschem/ota_wideband.sch
AC Analysis  Sun Oct 30 17:11:03  2022
--------------------------------------------------------------------------------
Index   frequency       vop                             
--------------------------------------------------------------------------------
0	1.000000e+03	2.521272e+00,	4.682849e-06	
1	1.023293e+03	2.521272e+00,	4.791927e-06	
2	1.047129e+03	2.521272e+00,	4.903545e-06	
3	1.071519e+03	2.521272e+00,	5.017763e-06	
4	1.096478e+03	2.521272e+00,	5.134642e-06	
5	1.122018e+03	2.521272e+00,	5.254243e-06	
6	1.148154e+03	2.521272e+00,	5.376630e-06	
7	1.174898e+03	2.521272e+00,	5.501868e-06	
8	1.202264e+03	2.521272e+00,	5.630023e-06	
9	1.230269e+03	2.521272e+00,	5.761163e-06	
10	1.258925e+03	2.521272e+00,	5.895358e-06	
11	1.288250e+03	2.521272e+00,	6.032678e-06	
12	1.318257e+03	2.521272e+00,	6.173197e-06	
13	1.348963e+03	2.521272e+00,	6.316989e-06	
14	1.380384e+03	2.521272e+00,	6.464131e-06	
15	1.412538e+03	2.521272e+00,	6.614700e-06	
16	1.445440e+03	2.521272e+00,	6.768776e-06	
17	1.479108e+03	2.521272e+00,	6.926441e-06	
18	1.513561e+03	2.521272e+00,	7.087779e-06	
19	1.548817e+03	2.521272e+00,	7.252874e-06	
20	1.584893e+03	2.521272e+00,	7.421815e-06	
21	1.621810e+03	2.521272e+00,	7.594692e-06	
22	1.659587e+03	2.521272e+00,	7.771595e-06	
23	1.698244e+03	2.521272e+00,	7.952618e-06	
24	1.737801e+03	2.521272e+00,	8.137859e-06	
25	1.778279e+03	2.521272e+00,	8.327414e-06	
26	1.819701e+03	2.521272e+00,	8.521384e-06	
27	1.862087e+03	2.521272e+00,	8.719873e-06	
28	1.905461e+03	2.521272e+00,	8.922985e-06	
29	1.949845e+03	2.521272e+00,	9.130828e-06	
30	1.995262e+03	2.521272e+00,	9.343512e-06	
31	2.041738e+03	2.521272e+00,	9.561150e-06	
32	2.089296e+03	2.521272e+00,	9.783858e-06	
33	2.137962e+03	2.521272e+00,	1.001175e-05	
34	2.187762e+03	2.521272e+00,	1.024496e-05	
35	2.238721e+03	2.521272e+00,	1.048359e-05	
36	2.290868e+03	2.521272e+00,	1.072779e-05	
37	2.344229e+03	2.521272e+00,	1.097767e-05	
38	2.398833e+03	2.521272e+00,	1.123337e-05	
39	2.454709e+03	2.521272e+00,	1.149503e-05	
40	2.511886e+03	2.521272e+00,	1.176278e-05	
41	2.570396e+03	2.521272e+00,	1.203678e-05	
42	2.630268e+03	2.521272e+00,	1.231715e-05	
43	2.691535e+03	2.521272e+00,	1.260405e-05	
44	2.754229e+03	2.521272e+00,	1.289764e-05	
45	2.818383e+03	2.521272e+00,	1.319806e-05	
46	2.884032e+03	2.521272e+00,	1.350548e-05	
47	2.951209e+03	2.521272e+00,	1.382007e-05	
48	3.019952e+03	2.521272e+00,	1.414198e-05	
49	3.090295e+03	2.521272e+00,	1.447139e-05	
50	3.162278e+03	2.521272e+00,	1.480847e-05	
51	3.235937e+03	2.521272e+00,	1.515340e-05	
52	3.311311e+03	2.521272e+00,	1.550637e-05	
53	3.388442e+03	2.521272e+00,	1.586756e-05	
54	3.467369e+03	2.521272e+00,	1.623716e-05	

Index   frequency       vop                             
--------------------------------------------------------------------------------
55	3.548134e+03	2.521272e+00,	1.661538e-05	
56	3.630781e+03	2.521272e+00,	1.700240e-05	
57	3.715352e+03	2.521272e+00,	1.739843e-05	
58	3.801894e+03	2.521272e+00,	1.780370e-05	
59	3.890451e+03	2.521272e+00,	1.821840e-05	
60	3.981072e+03	2.521272e+00,	1.864276e-05	
61	4.073803e+03	2.521272e+00,	1.907700e-05	
62	4.168694e+03	2.521272e+00,	1.952136e-05	
63	4.265795e+03	2.521272e+00,	1.997607e-05	
64	4.365158e+03	2.521272e+00,	2.044138e-05	
65	4.466836e+03	2.521272e+00,	2.091752e-05	
66	4.570882e+03	2.521272e+00,	2.140475e-05	
67	4.677351e+03	2.521272e+00,	2.190333e-05	
68	4.786301e+03	2.521272e+00,	2.241352e-05	
69	4.897788e+03	2.521272e+00,	2.293560e-05	
70	5.011872e+03	2.521272e+00,	2.346984e-05	
71	5.128614e+03	2.521272e+00,	2.401652e-05	
72	5.248075e+03	2.521272e+00,	2.457594e-05	
73	5.370318e+03	2.521272e+00,	2.514839e-05	
74	5.495409e+03	2.521272e+00,	2.573417e-05	
75	5.623413e+03	2.521272e+00,	2.633359e-05	
76	5.754399e+03	2.521272e+00,	2.694698e-05	
77	5.888437e+03	2.521272e+00,	2.757466e-05	
78	6.025596e+03	2.521272e+00,	2.821696e-05	
79	6.165950e+03	2.521272e+00,	2.887421e-05	
80	6.309573e+03	2.521272e+00,	2.954678e-05	
81	6.456542e+03	2.521272e+00,	3.023501e-05	
82	6.606934e+03	2.521272e+00,	3.093928e-05	
83	6.760830e+03	2.521272e+00,	3.165994e-05	
84	6.918310e+03	2.521272e+00,	3.239740e-05	
85	7.079458e+03	2.521272e+00,	3.315203e-05	
86	7.244360e+03	2.521272e+00,	3.392424e-05	
87	7.413102e+03	2.521272e+00,	3.471444e-05	
88	7.585776e+03	2.521272e+00,	3.552304e-05	
89	7.762471e+03	2.521272e+00,	3.635048e-05	
90	7.943282e+03	2.521272e+00,	3.719719e-05	
91	8.128305e+03	2.521272e+00,	3.806363e-05	
92	8.317638e+03	2.521272e+00,	3.895024e-05	
93	8.511380e+03	2.521272e+00,	3.985751e-05	
94	8.709636e+03	2.521272e+00,	4.078591e-05	
95	8.912509e+03	2.521272e+00,	4.173594e-05	
96	9.120108e+03	2.521272e+00,	4.270809e-05	
97	9.332543e+03	2.521272e+00,	4.370289e-05	
98	9.549926e+03	2.521272e+00,	4.472086e-05	
99	9.772372e+03	2.521272e+00,	4.576254e-05	
100	1.000000e+04	2.521272e+00,	4.682849e-05	
101	1.023293e+04	2.521272e+00,	4.791926e-05	
102	1.047129e+04	2.521272e+00,	4.903545e-05	
103	1.071519e+04	2.521272e+00,	5.017763e-05	
104	1.096478e+04	2.521272e+00,	5.134642e-05	
105	1.122018e+04	2.521272e+00,	5.254243e-05	
106	1.148154e+04	2.521272e+00,	5.376630e-05	
107	1.174898e+04	2.521272e+00,	5.501868e-05	
108	1.202264e+04	2.521272e+00,	5.630023e-05	
109	1.230269e+04	2.521272e+00,	5.761163e-05	
110	1.258925e+04	2.521272e+00,	5.895358e-05	
111	1.288250e+04	2.521272e+00,	6.032678e-05	
112	1.318257e+04	2.521272e+00,	6.173197e-05	

Index   frequency       vop                             
--------------------------------------------------------------------------------
113	1.348963e+04	2.521272e+00,	6.316989e-05	
114	1.380384e+04	2.521272e+00,	6.464131e-05	
115	1.412538e+04	2.521272e+00,	6.614700e-05	
116	1.445440e+04	2.521272e+00,	6.768776e-05	
117	1.479108e+04	2.521272e+00,	6.926441e-05	
118	1.513561e+04	2.521272e+00,	7.087779e-05	
119	1.548817e+04	2.521272e+00,	7.252874e-05	
120	1.584893e+04	2.521272e+00,	7.421815e-05	
121	1.621810e+04	2.521272e+00,	7.594692e-05	
122	1.659587e+04	2.521272e+00,	7.771595e-05	
123	1.698244e+04	2.521272e+00,	7.952618e-05	
124	1.737801e+04	2.521272e+00,	8.137859e-05	
125	1.778279e+04	2.521272e+00,	8.327414e-05	
126	1.819701e+04	2.521272e+00,	8.521384e-05	
127	1.862087e+04	2.521272e+00,	8.719873e-05	
128	1.905461e+04	2.521272e+00,	8.922985e-05	
129	1.949845e+04	2.521272e+00,	9.130828e-05	
130	1.995262e+04	2.521272e+00,	9.343512e-05	
131	2.041738e+04	2.521272e+00,	9.561150e-05	
132	2.089296e+04	2.521272e+00,	9.783858e-05	
133	2.137962e+04	2.521272e+00,	1.001175e-04	
134	2.187762e+04	2.521272e+00,	1.024496e-04	
135	2.238721e+04	2.521272e+00,	1.048359e-04	
136	2.290868e+04	2.521272e+00,	1.072779e-04	
137	2.344229e+04	2.521272e+00,	1.097767e-04	
138	2.398833e+04	2.521272e+00,	1.123337e-04	
139	2.454709e+04	2.521272e+00,	1.149503e-04	
140	2.511886e+04	2.521272e+00,	1.176278e-04	
141	2.570396e+04	2.521272e+00,	1.203677e-04	
142	2.630268e+04	2.521272e+00,	1.231715e-04	
143	2.691535e+04	2.521272e+00,	1.260405e-04	
144	2.754229e+04	2.521272e+00,	1.289764e-04	
145	2.818383e+04	2.521272e+00,	1.319806e-04	
146	2.884032e+04	2.521272e+00,	1.350548e-04	
147	2.951209e+04	2.521272e+00,	1.382007e-04	
148	3.019952e+04	2.521272e+00,	1.414198e-04	
149	3.090295e+04	2.521272e+00,	1.447139e-04	
150	3.162278e+04	2.521272e+00,	1.480847e-04	
151	3.235937e+04	2.521272e+00,	1.515340e-04	
152	3.311311e+04	2.521272e+00,	1.550637e-04	
153	3.388442e+04	2.521272e+00,	1.586756e-04	
154	3.467369e+04	2.521272e+00,	1.623716e-04	
155	3.548134e+04	2.521272e+00,	1.661537e-04	
156	3.630781e+04	2.521272e+00,	1.700240e-04	
157	3.715352e+04	2.521272e+00,	1.739843e-04	
158	3.801894e+04	2.521272e+00,	1.780369e-04	
159	3.890451e+04	2.521272e+00,	1.821840e-04	
160	3.981072e+04	2.521272e+00,	1.864276e-04	
161	4.073803e+04	2.521272e+00,	1.907700e-04	
162	4.168694e+04	2.521272e+00,	1.952136e-04	
163	4.265795e+04	2.521272e+00,	1.997607e-04	
164	4.365158e+04	2.521272e+00,	2.044138e-04	
165	4.466836e+04	2.521272e+00,	2.091752e-04	
166	4.570882e+04	2.521272e+00,	2.140475e-04	
167	4.677351e+04	2.521272e+00,	2.190333e-04	
168	4.786301e+04	2.521272e+00,	2.241352e-04	
169	4.897788e+04	2.521272e+00,	2.293560e-04	
170	5.011872e+04	2.521272e+00,	2.346984e-04	

Index   frequency       vop                             
--------------------------------------------------------------------------------
171	5.128614e+04	2.521272e+00,	2.401652e-04	
172	5.248075e+04	2.521272e+00,	2.457594e-04	
173	5.370318e+04	2.521272e+00,	2.514839e-04	
174	5.495409e+04	2.521272e+00,	2.573417e-04	
175	5.623413e+04	2.521272e+00,	2.633359e-04	
176	5.754399e+04	2.521272e+00,	2.694698e-04	
177	5.888437e+04	2.521272e+00,	2.757466e-04	
178	6.025596e+04	2.521272e+00,	2.821695e-04	
179	6.165950e+04	2.521272e+00,	2.887421e-04	
180	6.309573e+04	2.521272e+00,	2.954678e-04	
181	6.456542e+04	2.521272e+00,	3.023501e-04	
182	6.606934e+04	2.521272e+00,	3.093927e-04	
183	6.760830e+04	2.521272e+00,	3.165994e-04	
184	6.918310e+04	2.521272e+00,	3.239739e-04	
185	7.079458e+04	2.521272e+00,	3.315203e-04	
186	7.244360e+04	2.521272e+00,	3.392424e-04	
187	7.413102e+04	2.521272e+00,	3.471443e-04	
188	7.585776e+04	2.521272e+00,	3.552304e-04	
189	7.762471e+04	2.521272e+00,	3.635047e-04	
190	7.943282e+04	2.521272e+00,	3.719718e-04	
191	8.128305e+04	2.521272e+00,	3.806362e-04	
192	8.317638e+04	2.521272e+00,	3.895023e-04	
193	8.511380e+04	2.521272e+00,	3.985750e-04	
194	8.709636e+04	2.521272e+00,	4.078590e-04	
195	8.912509e+04	2.521272e+00,	4.173592e-04	
196	9.120108e+04	2.521272e+00,	4.270808e-04	
197	9.332543e+04	2.521272e+00,	4.370288e-04	
198	9.549926e+04	2.521272e+00,	4.472085e-04	
199	9.772372e+04	2.521272e+00,	4.576253e-04	
200	1.000000e+05	2.521272e+00,	4.682847e-04	
201	1.023293e+05	2.521272e+00,	4.791925e-04	
202	1.047129e+05	2.521272e+00,	4.903543e-04	
203	1.071519e+05	2.521272e+00,	5.017761e-04	
204	1.096478e+05	2.521272e+00,	5.134640e-04	
205	1.122018e+05	2.521272e+00,	5.254241e-04	
206	1.148154e+05	2.521272e+00,	5.376628e-04	
207	1.174898e+05	2.521272e+00,	5.501865e-04	
208	1.202264e+05	2.521273e+00,	5.630020e-04	
209	1.230269e+05	2.521273e+00,	5.761160e-04	
210	1.258925e+05	2.521273e+00,	5.895354e-04	
211	1.288250e+05	2.521273e+00,	6.032675e-04	
212	1.318257e+05	2.521273e+00,	6.173194e-04	
213	1.348963e+05	2.521273e+00,	6.316986e-04	
214	1.380384e+05	2.521273e+00,	6.464127e-04	
215	1.412538e+05	2.521273e+00,	6.614696e-04	
216	1.445440e+05	2.521273e+00,	6.768771e-04	
217	1.479108e+05	2.521273e+00,	6.926436e-04	
218	1.513561e+05	2.521273e+00,	7.087773e-04	
219	1.548817e+05	2.521273e+00,	7.252869e-04	
220	1.584893e+05	2.521273e+00,	7.421809e-04	
221	1.621810e+05	2.521273e+00,	7.594685e-04	
222	1.659587e+05	2.521273e+00,	7.771588e-04	
223	1.698244e+05	2.521273e+00,	7.952611e-04	
224	1.737801e+05	2.521273e+00,	8.137851e-04	
225	1.778279e+05	2.521273e+00,	8.327405e-04	
226	1.819701e+05	2.521273e+00,	8.521375e-04	
227	1.862087e+05	2.521273e+00,	8.719863e-04	
228	1.905461e+05	2.521273e+00,	8.922974e-04	

Index   frequency       vop                             
--------------------------------------------------------------------------------
229	1.949845e+05	2.521273e+00,	9.130816e-04	
230	1.995262e+05	2.521273e+00,	9.343500e-04	
231	2.041738e+05	2.521273e+00,	9.561137e-04	
232	2.089296e+05	2.521273e+00,	9.783844e-04	
233	2.137962e+05	2.521274e+00,	1.001174e-03	
234	2.187762e+05	2.521274e+00,	1.024494e-03	
235	2.238721e+05	2.521274e+00,	1.048358e-03	
236	2.290868e+05	2.521274e+00,	1.072777e-03	
237	2.344229e+05	2.521274e+00,	1.097765e-03	
238	2.398833e+05	2.521274e+00,	1.123335e-03	
239	2.454709e+05	2.521274e+00,	1.149501e-03	
240	2.511886e+05	2.521274e+00,	1.176276e-03	
241	2.570396e+05	2.521274e+00,	1.203675e-03	
242	2.630268e+05	2.521274e+00,	1.231712e-03	
243	2.691535e+05	2.521274e+00,	1.260402e-03	
244	2.754229e+05	2.521275e+00,	1.289761e-03	
245	2.818383e+05	2.521275e+00,	1.319803e-03	
246	2.884032e+05	2.521275e+00,	1.350545e-03	
247	2.951209e+05	2.521275e+00,	1.382003e-03	
248	3.019952e+05	2.521275e+00,	1.414194e-03	
249	3.090295e+05	2.521275e+00,	1.447134e-03	
250	3.162278e+05	2.521275e+00,	1.480842e-03	
251	3.235937e+05	2.521276e+00,	1.515335e-03	
252	3.311311e+05	2.521276e+00,	1.550631e-03	
253	3.388442e+05	2.521276e+00,	1.586750e-03	
254	3.467369e+05	2.521276e+00,	1.623710e-03	
255	3.548134e+05	2.521276e+00,	1.661531e-03	
256	3.630781e+05	2.521276e+00,	1.700232e-03	
257	3.715352e+05	2.521277e+00,	1.739836e-03	
258	3.801894e+05	2.521277e+00,	1.780361e-03	
259	3.890451e+05	2.521277e+00,	1.821831e-03	
260	3.981072e+05	2.521277e+00,	1.864266e-03	
261	4.073803e+05	2.521278e+00,	1.907690e-03	
262	4.168694e+05	2.521278e+00,	1.952125e-03	
263	4.265795e+05	2.521278e+00,	1.997596e-03	
264	4.365158e+05	2.521278e+00,	2.044125e-03	
265	4.466836e+05	2.521279e+00,	2.091738e-03	
266	4.570882e+05	2.521279e+00,	2.140460e-03	
267	4.677351e+05	2.521279e+00,	2.190317e-03	
268	4.786301e+05	2.521280e+00,	2.241336e-03	
269	4.897788e+05	2.521280e+00,	2.293542e-03	
270	5.011872e+05	2.521280e+00,	2.346965e-03	
271	5.128614e+05	2.521281e+00,	2.401632e-03	
272	5.248075e+05	2.521281e+00,	2.457572e-03	
273	5.370318e+05	2.521282e+00,	2.514815e-03	
274	5.495409e+05	2.521282e+00,	2.573392e-03	
275	5.623413e+05	2.521283e+00,	2.633332e-03	
276	5.754399e+05	2.521283e+00,	2.694669e-03	
277	5.888437e+05	2.521284e+00,	2.757435e-03	
278	6.025596e+05	2.521284e+00,	2.821662e-03	
279	6.165950e+05	2.521285e+00,	2.887385e-03	
280	6.309573e+05	2.521285e+00,	2.954640e-03	
281	6.456542e+05	2.521286e+00,	3.023460e-03	
282	6.606934e+05	2.521286e+00,	3.093884e-03	
283	6.760830e+05	2.521287e+00,	3.165947e-03	
284	6.918310e+05	2.521288e+00,	3.239689e-03	
285	7.079458e+05	2.521289e+00,	3.315149e-03	
286	7.244360e+05	2.521289e+00,	3.392366e-03	

Index   frequency       vop                             
--------------------------------------------------------------------------------
287	7.413102e+05	2.521290e+00,	3.471382e-03	
288	7.585776e+05	2.521291e+00,	3.552238e-03	
289	7.762471e+05	2.521292e+00,	3.634977e-03	
290	7.943282e+05	2.521293e+00,	3.719643e-03	
291	8.128305e+05	2.521294e+00,	3.806280e-03	
292	8.317638e+05	2.521295e+00,	3.894936e-03	
293	8.511380e+05	2.521296e+00,	3.985657e-03	
294	8.709636e+05	2.521297e+00,	4.078490e-03	
295	8.912509e+05	2.521298e+00,	4.173485e-03	
296	9.120108e+05	2.521300e+00,	4.270693e-03	
297	9.332543e+05	2.521301e+00,	4.370165e-03	
298	9.549926e+05	2.521302e+00,	4.471953e-03	
299	9.772372e+05	2.521304e+00,	4.576112e-03	
300	1.000000e+06	2.521305e+00,	4.682696e-03	
301	1.023293e+06	2.521307e+00,	4.791763e-03	
302	1.047129e+06	2.521308e+00,	4.903369e-03	
303	1.071519e+06	2.521310e+00,	5.017575e-03	
304	1.096478e+06	2.521312e+00,	5.134440e-03	
305	1.122018e+06	2.521314e+00,	5.254027e-03	
306	1.148154e+06	2.521316e+00,	5.376399e-03	
307	1.174898e+06	2.521318e+00,	5.501620e-03	
308	1.202264e+06	2.521320e+00,	5.629757e-03	
309	1.230269e+06	2.521322e+00,	5.760878e-03	
310	1.258925e+06	2.521324e+00,	5.895053e-03	
311	1.288250e+06	2.521327e+00,	6.032351e-03	
312	1.318257e+06	2.521330e+00,	6.172847e-03	
313	1.348963e+06	2.521332e+00,	6.316614e-03	
314	1.380384e+06	2.521335e+00,	6.463729e-03	
315	1.412538e+06	2.521338e+00,	6.614269e-03	
316	1.445440e+06	2.521341e+00,	6.768315e-03	
317	1.479108e+06	2.521344e+00,	6.925947e-03	
318	1.513561e+06	2.521348e+00,	7.087249e-03	
319	1.548817e+06	2.521351e+00,	7.252307e-03	
320	1.584893e+06	2.521355e+00,	7.421207e-03	
321	1.621810e+06	2.521359e+00,	7.594040e-03	
322	1.659587e+06	2.521363e+00,	7.770896e-03	
323	1.698244e+06	2.521367e+00,	7.951870e-03	
324	1.737801e+06	2.521372e+00,	8.137057e-03	
325	1.778279e+06	2.521377e+00,	8.326555e-03	
326	1.819701e+06	2.521382e+00,	8.520464e-03	
327	1.862087e+06	2.521387e+00,	8.718886e-03	
328	1.905461e+06	2.521392e+00,	8.921928e-03	
329	1.949845e+06	2.521398e+00,	9.129695e-03	
330	1.995262e+06	2.521404e+00,	9.342298e-03	
331	2.041738e+06	2.521410e+00,	9.559850e-03	
332	2.089296e+06	2.521416e+00,	9.782465e-03	
333	2.137962e+06	2.521423e+00,	1.001026e-02	
334	2.187762e+06	2.521430e+00,	1.024336e-02	
335	2.238721e+06	2.521438e+00,	1.048188e-02	
336	2.290868e+06	2.521446e+00,	1.072595e-02	
337	2.344229e+06	2.521454e+00,	1.097570e-02	
338	2.398833e+06	2.521462e+00,	1.123126e-02	
339	2.454709e+06	2.521471e+00,	1.149277e-02	
340	2.511886e+06	2.521481e+00,	1.176036e-02	
341	2.570396e+06	2.521491e+00,	1.203418e-02	
342	2.630268e+06	2.521501e+00,	1.231437e-02	
343	2.691535e+06	2.521512e+00,	1.260107e-02	
344	2.754229e+06	2.521523e+00,	1.289444e-02	

Index   frequency       vop                             
--------------------------------------------------------------------------------
345	2.818383e+06	2.521535e+00,	1.319464e-02	
346	2.884032e+06	2.521547e+00,	1.350182e-02	
347	2.951209e+06	2.521560e+00,	1.381614e-02	
348	3.019952e+06	2.521574e+00,	1.413777e-02	
349	3.090295e+06	2.521588e+00,	1.446688e-02	
350	3.162278e+06	2.521603e+00,	1.480364e-02	
351	3.235937e+06	2.521618e+00,	1.514822e-02	
352	3.311311e+06	2.521635e+00,	1.550082e-02	
353	3.388442e+06	2.521652e+00,	1.586162e-02	
354	3.467369e+06	2.521670e+00,	1.623079e-02	
355	3.548134e+06	2.521689e+00,	1.660855e-02	
356	3.630781e+06	2.521708e+00,	1.699508e-02	
357	3.715352e+06	2.521729e+00,	1.739060e-02	
358	3.801894e+06	2.521750e+00,	1.779530e-02	
359	3.890451e+06	2.521773e+00,	1.820940e-02	
360	3.981072e+06	2.521796e+00,	1.863312e-02	
361	4.073803e+06	2.521821e+00,	1.906667e-02	
362	4.168694e+06	2.521847e+00,	1.951029e-02	
363	4.265795e+06	2.521874e+00,	1.996421e-02	
364	4.365158e+06	2.521902e+00,	2.042867e-02	
365	4.466836e+06	2.521932e+00,	2.090390e-02	
366	4.570882e+06	2.521963e+00,	2.139015e-02	
367	4.677351e+06	2.521996e+00,	2.188769e-02	
368	4.786301e+06	2.522030e+00,	2.239677e-02	
369	4.897788e+06	2.522066e+00,	2.291765e-02	
370	5.011872e+06	2.522103e+00,	2.345060e-02	
371	5.128614e+06	2.522142e+00,	2.399591e-02	
372	5.248075e+06	2.522183e+00,	2.455385e-02	
373	5.370318e+06	2.522226e+00,	2.512472e-02	
374	5.495409e+06	2.522271e+00,	2.570880e-02	
375	5.623413e+06	2.522318e+00,	2.630641e-02	
376	5.754399e+06	2.522367e+00,	2.691786e-02	
377	5.888437e+06	2.522419e+00,	2.754345e-02	
378	6.025596e+06	2.522473e+00,	2.818351e-02	
379	6.165950e+06	2.522529e+00,	2.883838e-02	
380	6.309573e+06	2.522589e+00,	2.950838e-02	
381	6.456542e+06	2.522651e+00,	3.019387e-02	
382	6.606934e+06	2.522716e+00,	3.089519e-02	
383	6.760830e+06	2.522784e+00,	3.161270e-02	
384	6.918310e+06	2.522855e+00,	3.234678e-02	
385	7.079458e+06	2.522929e+00,	3.309779e-02	
386	7.244360e+06	2.523007e+00,	3.386612e-02	
387	7.413102e+06	2.523089e+00,	3.465215e-02	
388	7.585776e+06	2.523175e+00,	3.545630e-02	
389	7.762471e+06	2.523264e+00,	3.627896e-02	
390	7.943282e+06	2.523358e+00,	3.712056e-02	
391	8.128305e+06	2.523456e+00,	3.798151e-02	
392	8.317638e+06	2.523559e+00,	3.886225e-02	
393	8.511380e+06	2.523667e+00,	3.976322e-02	
394	8.709636e+06	2.523780e+00,	4.068487e-02	
395	8.912509e+06	2.523898e+00,	4.162766e-02	
396	9.120108e+06	2.524021e+00,	4.259207e-02	
397	9.332543e+06	2.524151e+00,	4.357857e-02	
398	9.549926e+06	2.524286e+00,	4.458764e-02	
399	9.772372e+06	2.524428e+00,	4.561979e-02	
400	1.000000e+07	2.524576e+00,	4.667552e-02	
401	1.023293e+07	2.524732e+00,	4.775534e-02	
402	1.047129e+07	2.524895e+00,	4.885979e-02	

Index   frequency       vop                             
--------------------------------------------------------------------------------
403	1.071519e+07	2.525065e+00,	4.998940e-02	
404	1.096478e+07	2.525244e+00,	5.114471e-02	
405	1.122018e+07	2.525430e+00,	5.232628e-02	
406	1.148154e+07	2.525626e+00,	5.353468e-02	
407	1.174898e+07	2.525831e+00,	5.477048e-02	
408	1.202264e+07	2.526045e+00,	5.603426e-02	
409	1.230269e+07	2.526270e+00,	5.732661e-02	
410	1.258925e+07	2.526504e+00,	5.864816e-02	
411	1.288250e+07	2.526750e+00,	5.999949e-02	
412	1.318257e+07	2.527008e+00,	6.138125e-02	
413	1.348963e+07	2.527278e+00,	6.279405e-02	
414	1.380384e+07	2.527560e+00,	6.423855e-02	
415	1.412538e+07	2.527855e+00,	6.571540e-02	
416	1.445440e+07	2.528164e+00,	6.722525e-02	
