** sch_path: /home/andylithia/openmpw/project-reisen-chip1/xschem/ota_wideband.sch
AC Analysis  Sun Oct 30 17:11:03  2022
--------------------------------------------------------------------------------
Index   frequency       vop                             
--------------------------------------------------------------------------------
0	1.000000e+03	3.511199e+00,	-1.81047e-06	
1	1.023293e+03	3.511199e+00,	-1.85264e-06	
2	1.047129e+03	3.511199e+00,	-1.89580e-06	
3	1.071519e+03	3.511199e+00,	-1.93996e-06	
4	1.096478e+03	3.511199e+00,	-1.98514e-06	
5	1.122018e+03	3.511199e+00,	-2.03138e-06	
6	1.148154e+03	3.511199e+00,	-2.07870e-06	
7	1.174898e+03	3.511199e+00,	-2.12712e-06	
8	1.202264e+03	3.511199e+00,	-2.17667e-06	
9	1.230269e+03	3.511199e+00,	-2.22737e-06	
10	1.258925e+03	3.511199e+00,	-2.27925e-06	
11	1.288250e+03	3.511199e+00,	-2.33234e-06	
12	1.318257e+03	3.511199e+00,	-2.38667e-06	
13	1.348963e+03	3.511199e+00,	-2.44226e-06	
14	1.380384e+03	3.511199e+00,	-2.49915e-06	
15	1.412538e+03	3.511199e+00,	-2.55736e-06	
16	1.445440e+03	3.511199e+00,	-2.61693e-06	
17	1.479108e+03	3.511199e+00,	-2.67789e-06	
18	1.513561e+03	3.511199e+00,	-2.74026e-06	
19	1.548817e+03	3.511199e+00,	-2.80409e-06	
20	1.584893e+03	3.511199e+00,	-2.86941e-06	
21	1.621810e+03	3.511199e+00,	-2.93624e-06	
22	1.659587e+03	3.511199e+00,	-3.00464e-06	
23	1.698244e+03	3.511199e+00,	-3.07462e-06	
24	1.737801e+03	3.511199e+00,	-3.14624e-06	
25	1.778279e+03	3.511199e+00,	-3.21953e-06	
26	1.819701e+03	3.511199e+00,	-3.29452e-06	
27	1.862087e+03	3.511199e+00,	-3.37126e-06	
28	1.905461e+03	3.511199e+00,	-3.44978e-06	
29	1.949845e+03	3.511199e+00,	-3.53014e-06	
30	1.995262e+03	3.511199e+00,	-3.61237e-06	
31	2.041738e+03	3.511199e+00,	-3.69651e-06	
32	2.089296e+03	3.511199e+00,	-3.78261e-06	
33	2.137962e+03	3.511199e+00,	-3.87072e-06	
34	2.187762e+03	3.511199e+00,	-3.96088e-06	
35	2.238721e+03	3.511199e+00,	-4.05314e-06	
36	2.290868e+03	3.511199e+00,	-4.14755e-06	
37	2.344229e+03	3.511199e+00,	-4.24416e-06	
38	2.398833e+03	3.511199e+00,	-4.34302e-06	
39	2.454709e+03	3.511199e+00,	-4.44418e-06	
40	2.511886e+03	3.511199e+00,	-4.54770e-06	
41	2.570396e+03	3.511199e+00,	-4.65363e-06	
42	2.630268e+03	3.511199e+00,	-4.76203e-06	
43	2.691535e+03	3.511199e+00,	-4.87295e-06	
44	2.754229e+03	3.511199e+00,	-4.98646e-06	
45	2.818383e+03	3.511199e+00,	-5.10261e-06	
46	2.884032e+03	3.511199e+00,	-5.22146e-06	
47	2.951209e+03	3.511199e+00,	-5.34308e-06	
48	3.019952e+03	3.511199e+00,	-5.46754e-06	
49	3.090295e+03	3.511199e+00,	-5.59490e-06	
50	3.162278e+03	3.511199e+00,	-5.72522e-06	
51	3.235937e+03	3.511199e+00,	-5.85857e-06	
52	3.311311e+03	3.511199e+00,	-5.99504e-06	
53	3.388442e+03	3.511199e+00,	-6.13468e-06	
54	3.467369e+03	3.511199e+00,	-6.27758e-06	

Index   frequency       vop                             
--------------------------------------------------------------------------------
55	3.548134e+03	3.511199e+00,	-6.42380e-06	
56	3.630781e+03	3.511199e+00,	-6.57343e-06	
57	3.715352e+03	3.511199e+00,	-6.72654e-06	
58	3.801894e+03	3.511199e+00,	-6.88323e-06	
59	3.890451e+03	3.511199e+00,	-7.04356e-06	
60	3.981072e+03	3.511199e+00,	-7.20762e-06	
61	4.073803e+03	3.511199e+00,	-7.37551e-06	
62	4.168694e+03	3.511199e+00,	-7.54731e-06	
63	4.265795e+03	3.511199e+00,	-7.72311e-06	
64	4.365158e+03	3.511199e+00,	-7.90300e-06	
65	4.466836e+03	3.511199e+00,	-8.08708e-06	
66	4.570882e+03	3.511199e+00,	-8.27546e-06	
67	4.677351e+03	3.511199e+00,	-8.46822e-06	
68	4.786301e+03	3.511199e+00,	-8.66547e-06	
69	4.897788e+03	3.511199e+00,	-8.86731e-06	
70	5.011872e+03	3.511199e+00,	-9.07386e-06	
71	5.128614e+03	3.511199e+00,	-9.28522e-06	
72	5.248075e+03	3.511199e+00,	-9.50150e-06	
73	5.370318e+03	3.511199e+00,	-9.72281e-06	
74	5.495409e+03	3.511199e+00,	-9.94929e-06	
75	5.623413e+03	3.511199e+00,	-1.01810e-05	
76	5.754399e+03	3.511199e+00,	-1.04182e-05	
77	5.888437e+03	3.511199e+00,	-1.06609e-05	
78	6.025596e+03	3.511199e+00,	-1.09092e-05	
79	6.165950e+03	3.511199e+00,	-1.11633e-05	
80	6.309573e+03	3.511199e+00,	-1.14233e-05	
81	6.456542e+03	3.511199e+00,	-1.16894e-05	
82	6.606934e+03	3.511199e+00,	-1.19617e-05	
83	6.760830e+03	3.511199e+00,	-1.22403e-05	
84	6.918310e+03	3.511199e+00,	-1.25254e-05	
85	7.079458e+03	3.511199e+00,	-1.28172e-05	
86	7.244360e+03	3.511199e+00,	-1.31157e-05	
87	7.413102e+03	3.511199e+00,	-1.34212e-05	
88	7.585776e+03	3.511199e+00,	-1.37338e-05	
89	7.762471e+03	3.511199e+00,	-1.40537e-05	
90	7.943282e+03	3.511199e+00,	-1.43811e-05	
91	8.128305e+03	3.511199e+00,	-1.47161e-05	
92	8.317638e+03	3.511199e+00,	-1.50589e-05	
93	8.511380e+03	3.511199e+00,	-1.54096e-05	
94	8.709636e+03	3.511199e+00,	-1.57686e-05	
95	8.912509e+03	3.511199e+00,	-1.61359e-05	
96	9.120108e+03	3.511199e+00,	-1.65117e-05	
97	9.332543e+03	3.511199e+00,	-1.68963e-05	
98	9.549926e+03	3.511199e+00,	-1.72899e-05	
99	9.772372e+03	3.511199e+00,	-1.76926e-05	
100	1.000000e+04	3.511199e+00,	-1.81047e-05	
101	1.023293e+04	3.511199e+00,	-1.85264e-05	
102	1.047129e+04	3.511199e+00,	-1.89580e-05	
103	1.071519e+04	3.511199e+00,	-1.93996e-05	
104	1.096478e+04	3.511199e+00,	-1.98514e-05	
105	1.122018e+04	3.511199e+00,	-2.03138e-05	
106	1.148154e+04	3.511199e+00,	-2.07870e-05	
107	1.174898e+04	3.511199e+00,	-2.12712e-05	
108	1.202264e+04	3.511199e+00,	-2.17667e-05	
109	1.230269e+04	3.511199e+00,	-2.22737e-05	
110	1.258925e+04	3.511199e+00,	-2.27925e-05	
111	1.288250e+04	3.511199e+00,	-2.33234e-05	
112	1.318257e+04	3.511199e+00,	-2.38667e-05	

Index   frequency       vop                             
--------------------------------------------------------------------------------
113	1.348963e+04	3.511199e+00,	-2.44226e-05	
114	1.380384e+04	3.511199e+00,	-2.49915e-05	
115	1.412538e+04	3.511199e+00,	-2.55736e-05	
116	1.445440e+04	3.511199e+00,	-2.61693e-05	
117	1.479108e+04	3.511199e+00,	-2.67789e-05	
118	1.513561e+04	3.511199e+00,	-2.74026e-05	
119	1.548817e+04	3.511199e+00,	-2.80409e-05	
120	1.584893e+04	3.511199e+00,	-2.86941e-05	
121	1.621810e+04	3.511199e+00,	-2.93624e-05	
122	1.659587e+04	3.511199e+00,	-3.00464e-05	
123	1.698244e+04	3.511199e+00,	-3.07462e-05	
124	1.737801e+04	3.511199e+00,	-3.14624e-05	
125	1.778279e+04	3.511199e+00,	-3.21953e-05	
126	1.819701e+04	3.511199e+00,	-3.29452e-05	
127	1.862087e+04	3.511199e+00,	-3.37126e-05	
128	1.905461e+04	3.511199e+00,	-3.44978e-05	
129	1.949845e+04	3.511199e+00,	-3.53014e-05	
130	1.995262e+04	3.511199e+00,	-3.61237e-05	
131	2.041738e+04	3.511199e+00,	-3.69651e-05	
132	2.089296e+04	3.511199e+00,	-3.78261e-05	
133	2.137962e+04	3.511199e+00,	-3.87072e-05	
134	2.187762e+04	3.511199e+00,	-3.96088e-05	
135	2.238721e+04	3.511199e+00,	-4.05314e-05	
136	2.290868e+04	3.511199e+00,	-4.14755e-05	
137	2.344229e+04	3.511199e+00,	-4.24416e-05	
138	2.398833e+04	3.511199e+00,	-4.34302e-05	
139	2.454709e+04	3.511199e+00,	-4.44418e-05	
140	2.511886e+04	3.511199e+00,	-4.54770e-05	
141	2.570396e+04	3.511199e+00,	-4.65363e-05	
142	2.630268e+04	3.511199e+00,	-4.76203e-05	
143	2.691535e+04	3.511199e+00,	-4.87295e-05	
144	2.754229e+04	3.511199e+00,	-4.98646e-05	
145	2.818383e+04	3.511199e+00,	-5.10261e-05	
146	2.884032e+04	3.511199e+00,	-5.22146e-05	
147	2.951209e+04	3.511199e+00,	-5.34308e-05	
148	3.019952e+04	3.511199e+00,	-5.46754e-05	
149	3.090295e+04	3.511199e+00,	-5.59490e-05	
150	3.162278e+04	3.511199e+00,	-5.72522e-05	
151	3.235937e+04	3.511199e+00,	-5.85857e-05	
152	3.311311e+04	3.511199e+00,	-5.99504e-05	
153	3.388442e+04	3.511199e+00,	-6.13468e-05	
154	3.467369e+04	3.511199e+00,	-6.27758e-05	
155	3.548134e+04	3.511199e+00,	-6.42380e-05	
156	3.630781e+04	3.511199e+00,	-6.57343e-05	
157	3.715352e+04	3.511199e+00,	-6.72654e-05	
158	3.801894e+04	3.511199e+00,	-6.88323e-05	
159	3.890451e+04	3.511199e+00,	-7.04356e-05	
160	3.981072e+04	3.511199e+00,	-7.20762e-05	
161	4.073803e+04	3.511199e+00,	-7.37551e-05	
162	4.168694e+04	3.511199e+00,	-7.54731e-05	
163	4.265795e+04	3.511199e+00,	-7.72311e-05	
164	4.365158e+04	3.511199e+00,	-7.90300e-05	
165	4.466836e+04	3.511199e+00,	-8.08708e-05	
166	4.570882e+04	3.511199e+00,	-8.27546e-05	
167	4.677351e+04	3.511199e+00,	-8.46822e-05	
168	4.786301e+04	3.511199e+00,	-8.66547e-05	
169	4.897788e+04	3.511199e+00,	-8.86731e-05	
170	5.011872e+04	3.511199e+00,	-9.07386e-05	

Index   frequency       vop                             
--------------------------------------------------------------------------------
171	5.128614e+04	3.511199e+00,	-9.28522e-05	
172	5.248075e+04	3.511199e+00,	-9.50150e-05	
173	5.370318e+04	3.511199e+00,	-9.72281e-05	
174	5.495409e+04	3.511199e+00,	-9.94929e-05	
175	5.623413e+04	3.511199e+00,	-1.01810e-04	
176	5.754399e+04	3.511199e+00,	-1.04182e-04	
177	5.888437e+04	3.511199e+00,	-1.06609e-04	
178	6.025596e+04	3.511199e+00,	-1.09092e-04	
179	6.165950e+04	3.511199e+00,	-1.11633e-04	
180	6.309573e+04	3.511199e+00,	-1.14233e-04	
181	6.456542e+04	3.511199e+00,	-1.16894e-04	
182	6.606934e+04	3.511199e+00,	-1.19617e-04	
183	6.760830e+04	3.511199e+00,	-1.22403e-04	
184	6.918310e+04	3.511199e+00,	-1.25254e-04	
185	7.079458e+04	3.511199e+00,	-1.28172e-04	
186	7.244360e+04	3.511199e+00,	-1.31157e-04	
187	7.413102e+04	3.511199e+00,	-1.34212e-04	
188	7.585776e+04	3.511199e+00,	-1.37338e-04	
189	7.762471e+04	3.511199e+00,	-1.40537e-04	
190	7.943282e+04	3.511199e+00,	-1.43811e-04	
191	8.128305e+04	3.511199e+00,	-1.47161e-04	
192	8.317638e+04	3.511199e+00,	-1.50589e-04	
193	8.511380e+04	3.511199e+00,	-1.54096e-04	
194	8.709636e+04	3.511199e+00,	-1.57686e-04	
195	8.912509e+04	3.511199e+00,	-1.61359e-04	
196	9.120108e+04	3.511199e+00,	-1.65117e-04	
197	9.332543e+04	3.511199e+00,	-1.68963e-04	
198	9.549926e+04	3.511199e+00,	-1.72899e-04	
199	9.772372e+04	3.511199e+00,	-1.76926e-04	
200	1.000000e+05	3.511199e+00,	-1.81047e-04	
201	1.023293e+05	3.511199e+00,	-1.85264e-04	
202	1.047129e+05	3.511199e+00,	-1.89580e-04	
203	1.071519e+05	3.511199e+00,	-1.93996e-04	
204	1.096478e+05	3.511199e+00,	-1.98514e-04	
205	1.122018e+05	3.511199e+00,	-2.03138e-04	
206	1.148154e+05	3.511199e+00,	-2.07870e-04	
207	1.174898e+05	3.511199e+00,	-2.12712e-04	
208	1.202264e+05	3.511199e+00,	-2.17667e-04	
209	1.230269e+05	3.511199e+00,	-2.22737e-04	
210	1.258925e+05	3.511199e+00,	-2.27925e-04	
211	1.288250e+05	3.511199e+00,	-2.33234e-04	
212	1.318257e+05	3.511199e+00,	-2.38667e-04	
213	1.348963e+05	3.511199e+00,	-2.44226e-04	
214	1.380384e+05	3.511199e+00,	-2.49915e-04	
215	1.412538e+05	3.511199e+00,	-2.55736e-04	
216	1.445440e+05	3.511199e+00,	-2.61693e-04	
217	1.479108e+05	3.511199e+00,	-2.67789e-04	
218	1.513561e+05	3.511199e+00,	-2.74026e-04	
219	1.548817e+05	3.511199e+00,	-2.80409e-04	
220	1.584893e+05	3.511199e+00,	-2.86941e-04	
221	1.621810e+05	3.511199e+00,	-2.93624e-04	
222	1.659587e+05	3.511199e+00,	-3.00464e-04	
223	1.698244e+05	3.511199e+00,	-3.07462e-04	
224	1.737801e+05	3.511199e+00,	-3.14624e-04	
225	1.778279e+05	3.511199e+00,	-3.21953e-04	
226	1.819701e+05	3.511199e+00,	-3.29452e-04	
227	1.862087e+05	3.511199e+00,	-3.37126e-04	
228	1.905461e+05	3.511199e+00,	-3.44978e-04	

Index   frequency       vop                             
--------------------------------------------------------------------------------
229	1.949845e+05	3.511199e+00,	-3.53014e-04	
230	1.995262e+05	3.511199e+00,	-3.61237e-04	
231	2.041738e+05	3.511199e+00,	-3.69651e-04	
232	2.089296e+05	3.511199e+00,	-3.78261e-04	
233	2.137962e+05	3.511199e+00,	-3.87072e-04	
234	2.187762e+05	3.511199e+00,	-3.96088e-04	
235	2.238721e+05	3.511199e+00,	-4.05314e-04	
236	2.290868e+05	3.511199e+00,	-4.14755e-04	
237	2.344229e+05	3.511199e+00,	-4.24416e-04	
238	2.398833e+05	3.511199e+00,	-4.34302e-04	
239	2.454709e+05	3.511199e+00,	-4.44418e-04	
240	2.511886e+05	3.511199e+00,	-4.54770e-04	
241	2.570396e+05	3.511199e+00,	-4.65363e-04	
242	2.630268e+05	3.511199e+00,	-4.76203e-04	
243	2.691535e+05	3.511199e+00,	-4.87295e-04	
244	2.754229e+05	3.511199e+00,	-4.98646e-04	
245	2.818383e+05	3.511199e+00,	-5.10261e-04	
246	2.884032e+05	3.511199e+00,	-5.22146e-04	
247	2.951209e+05	3.511199e+00,	-5.34309e-04	
248	3.019952e+05	3.511199e+00,	-5.46754e-04	
249	3.090295e+05	3.511199e+00,	-5.59490e-04	
250	3.162278e+05	3.511199e+00,	-5.72522e-04	
251	3.235937e+05	3.511199e+00,	-5.85858e-04	
252	3.311311e+05	3.511199e+00,	-5.99504e-04	
253	3.388442e+05	3.511199e+00,	-6.13468e-04	
254	3.467369e+05	3.511199e+00,	-6.27758e-04	
255	3.548134e+05	3.511199e+00,	-6.42380e-04	
256	3.630781e+05	3.511199e+00,	-6.57343e-04	
257	3.715352e+05	3.511199e+00,	-6.72655e-04	
258	3.801894e+05	3.511199e+00,	-6.88323e-04	
259	3.890451e+05	3.511199e+00,	-7.04356e-04	
260	3.981072e+05	3.511199e+00,	-7.20762e-04	
261	4.073803e+05	3.511199e+00,	-7.37551e-04	
262	4.168694e+05	3.511199e+00,	-7.54731e-04	
263	4.265795e+05	3.511199e+00,	-7.72311e-04	
264	4.365158e+05	3.511199e+00,	-7.90300e-04	
265	4.466836e+05	3.511199e+00,	-8.08709e-04	
266	4.570882e+05	3.511199e+00,	-8.27546e-04	
267	4.677351e+05	3.511199e+00,	-8.46822e-04	
268	4.786301e+05	3.511199e+00,	-8.66547e-04	
269	4.897788e+05	3.511199e+00,	-8.86732e-04	
270	5.011872e+05	3.511199e+00,	-9.07386e-04	
271	5.128614e+05	3.511199e+00,	-9.28522e-04	
272	5.248075e+05	3.511199e+00,	-9.50150e-04	
273	5.370318e+05	3.511199e+00,	-9.72282e-04	
274	5.495409e+05	3.511199e+00,	-9.94930e-04	
275	5.623413e+05	3.511199e+00,	-1.01810e-03	
276	5.754399e+05	3.511199e+00,	-1.04182e-03	
277	5.888437e+05	3.511199e+00,	-1.06609e-03	
278	6.025596e+05	3.511199e+00,	-1.09092e-03	
279	6.165950e+05	3.511199e+00,	-1.11633e-03	
280	6.309573e+05	3.511199e+00,	-1.14233e-03	
281	6.456542e+05	3.511199e+00,	-1.16894e-03	
282	6.606934e+05	3.511199e+00,	-1.19617e-03	
283	6.760830e+05	3.511199e+00,	-1.22403e-03	
284	6.918310e+05	3.511199e+00,	-1.25254e-03	
285	7.079458e+05	3.511199e+00,	-1.28172e-03	
286	7.244360e+05	3.511199e+00,	-1.31157e-03	

Index   frequency       vop                             
--------------------------------------------------------------------------------
287	7.413102e+05	3.511199e+00,	-1.34212e-03	
288	7.585776e+05	3.511199e+00,	-1.37339e-03	
289	7.762471e+05	3.511199e+00,	-1.40538e-03	
290	7.943282e+05	3.511199e+00,	-1.43811e-03	
291	8.128305e+05	3.511199e+00,	-1.47161e-03	
292	8.317638e+05	3.511199e+00,	-1.50589e-03	
293	8.511380e+05	3.511199e+00,	-1.54097e-03	
294	8.709636e+05	3.511199e+00,	-1.57686e-03	
295	8.912509e+05	3.511199e+00,	-1.61359e-03	
296	9.120108e+05	3.511199e+00,	-1.65117e-03	
297	9.332543e+05	3.511199e+00,	-1.68964e-03	
298	9.549926e+05	3.511199e+00,	-1.72899e-03	
299	9.772372e+05	3.511199e+00,	-1.76927e-03	
300	1.000000e+06	3.511199e+00,	-1.81048e-03	
301	1.023293e+06	3.511199e+00,	-1.85265e-03	
302	1.047129e+06	3.511199e+00,	-1.89580e-03	
303	1.071519e+06	3.511199e+00,	-1.93996e-03	
304	1.096478e+06	3.511199e+00,	-1.98515e-03	
305	1.122018e+06	3.511199e+00,	-2.03139e-03	
306	1.148154e+06	3.511199e+00,	-2.07871e-03	
307	1.174898e+06	3.511199e+00,	-2.12713e-03	
308	1.202264e+06	3.511199e+00,	-2.17668e-03	
309	1.230269e+06	3.511199e+00,	-2.22738e-03	
310	1.258925e+06	3.511199e+00,	-2.27926e-03	
311	1.288250e+06	3.511199e+00,	-2.33235e-03	
312	1.318257e+06	3.511199e+00,	-2.38668e-03	
313	1.348963e+06	3.511199e+00,	-2.44227e-03	
314	1.380384e+06	3.511199e+00,	-2.49916e-03	
315	1.412538e+06	3.511199e+00,	-2.55737e-03	
316	1.445440e+06	3.511199e+00,	-2.61694e-03	
317	1.479108e+06	3.511199e+00,	-2.67790e-03	
318	1.513561e+06	3.511199e+00,	-2.74028e-03	
319	1.548817e+06	3.511199e+00,	-2.80411e-03	
320	1.584893e+06	3.511198e+00,	-2.86943e-03	
321	1.621810e+06	3.511198e+00,	-2.93626e-03	
322	1.659587e+06	3.511198e+00,	-3.00466e-03	
323	1.698244e+06	3.511198e+00,	-3.07465e-03	
324	1.737801e+06	3.511198e+00,	-3.14627e-03	
325	1.778279e+06	3.511198e+00,	-3.21955e-03	
326	1.819701e+06	3.511198e+00,	-3.29455e-03	
327	1.862087e+06	3.511198e+00,	-3.37129e-03	
328	1.905461e+06	3.511198e+00,	-3.44982e-03	
329	1.949845e+06	3.511198e+00,	-3.53018e-03	
330	1.995262e+06	3.511198e+00,	-3.61241e-03	
331	2.041738e+06	3.511198e+00,	-3.69655e-03	
332	2.089296e+06	3.511198e+00,	-3.78266e-03	
333	2.137962e+06	3.511198e+00,	-3.87077e-03	
334	2.187762e+06	3.511198e+00,	-3.96093e-03	
335	2.238721e+06	3.511198e+00,	-4.05320e-03	
336	2.290868e+06	3.511198e+00,	-4.14761e-03	
337	2.344229e+06	3.511198e+00,	-4.24423e-03	
338	2.398833e+06	3.511198e+00,	-4.34309e-03	
339	2.454709e+06	3.511198e+00,	-4.44426e-03	
340	2.511886e+06	3.511198e+00,	-4.54778e-03	
341	2.570396e+06	3.511197e+00,	-4.65371e-03	
342	2.630268e+06	3.511197e+00,	-4.76212e-03	
343	2.691535e+06	3.511197e+00,	-4.87305e-03	
344	2.754229e+06	3.511197e+00,	-4.98656e-03	

Index   frequency       vop                             
--------------------------------------------------------------------------------
345	2.818383e+06	3.511197e+00,	-5.10272e-03	
346	2.884032e+06	3.511197e+00,	-5.22158e-03	
347	2.951209e+06	3.511197e+00,	-5.34321e-03	
348	3.019952e+06	3.511197e+00,	-5.46768e-03	
349	3.090295e+06	3.511197e+00,	-5.59504e-03	
350	3.162278e+06	3.511197e+00,	-5.72537e-03	
351	3.235937e+06	3.511197e+00,	-5.85874e-03	
352	3.311311e+06	3.511196e+00,	-5.99522e-03	
353	3.388442e+06	3.511196e+00,	-6.13487e-03	
354	3.467369e+06	3.511196e+00,	-6.27778e-03	
355	3.548134e+06	3.511196e+00,	-6.42402e-03	
356	3.630781e+06	3.511196e+00,	-6.57366e-03	
357	3.715352e+06	3.511196e+00,	-6.72679e-03	
358	3.801894e+06	3.511196e+00,	-6.88349e-03	
359	3.890451e+06	3.511195e+00,	-7.04384e-03	
360	3.981072e+06	3.511195e+00,	-7.20793e-03	
361	4.073803e+06	3.511195e+00,	-7.37584e-03	
362	4.168694e+06	3.511195e+00,	-7.54766e-03	
363	4.265795e+06	3.511195e+00,	-7.72349e-03	
364	4.365158e+06	3.511194e+00,	-7.90341e-03	
365	4.466836e+06	3.511194e+00,	-8.08752e-03	
366	4.570882e+06	3.511194e+00,	-8.27592e-03	
367	4.677351e+06	3.511194e+00,	-8.46872e-03	
368	4.786301e+06	3.511193e+00,	-8.66600e-03	
369	4.897788e+06	3.511193e+00,	-8.86789e-03	
370	5.011872e+06	3.511193e+00,	-9.07447e-03	
371	5.128614e+06	3.511193e+00,	-9.28587e-03	
372	5.248075e+06	3.511192e+00,	-9.50220e-03	
373	5.370318e+06	3.511192e+00,	-9.72357e-03	
374	5.495409e+06	3.511192e+00,	-9.95010e-03	
375	5.623413e+06	3.511191e+00,	-1.01819e-02	
376	5.754399e+06	3.511191e+00,	-1.04191e-02	
377	5.888437e+06	3.511190e+00,	-1.06618e-02	
378	6.025596e+06	3.511190e+00,	-1.09102e-02	
379	6.165950e+06	3.511190e+00,	-1.11644e-02	
380	6.309573e+06	3.511189e+00,	-1.14245e-02	
381	6.456542e+06	3.511189e+00,	-1.16907e-02	
382	6.606934e+06	3.511188e+00,	-1.19631e-02	
383	6.760830e+06	3.511188e+00,	-1.22418e-02	
384	6.918310e+06	3.511187e+00,	-1.25270e-02	
385	7.079458e+06	3.511187e+00,	-1.28189e-02	
386	7.244360e+06	3.511186e+00,	-1.31176e-02	
387	7.413102e+06	3.511185e+00,	-1.34232e-02	
388	7.585776e+06	3.511185e+00,	-1.37360e-02	
389	7.762471e+06	3.511184e+00,	-1.40560e-02	
390	7.943282e+06	3.511183e+00,	-1.43835e-02	
391	8.128305e+06	3.511182e+00,	-1.47187e-02	
392	8.317638e+06	3.511182e+00,	-1.50616e-02	
393	8.511380e+06	3.511181e+00,	-1.54126e-02	
394	8.709636e+06	3.511180e+00,	-1.57717e-02	
395	8.912509e+06	3.511179e+00,	-1.61393e-02	
396	9.120108e+06	3.511178e+00,	-1.65154e-02	
397	9.332543e+06	3.511177e+00,	-1.69002e-02	
398	9.549926e+06	3.511176e+00,	-1.72941e-02	
399	9.772372e+06	3.511175e+00,	-1.76971e-02	
400	1.000000e+07	3.511174e+00,	-1.81095e-02	
401	1.023293e+07	3.511172e+00,	-1.85316e-02	
402	1.047129e+07	3.511171e+00,	-1.89635e-02	

Index   frequency       vop                             
--------------------------------------------------------------------------------
403	1.071519e+07	3.511170e+00,	-1.94055e-02	
404	1.096478e+07	3.511168e+00,	-1.98577e-02	
405	1.122018e+07	3.511167e+00,	-2.03206e-02	
406	1.148154e+07	3.511165e+00,	-2.07942e-02	
407	1.174898e+07	3.511164e+00,	-2.12789e-02	
408	1.202264e+07	3.511162e+00,	-2.17749e-02	
409	1.230269e+07	3.511160e+00,	-2.22825e-02	
410	1.258925e+07	3.511158e+00,	-2.28020e-02	
411	1.288250e+07	3.511156e+00,	-2.33335e-02	
412	1.318257e+07	3.511154e+00,	-2.38775e-02	
413	1.348963e+07	3.511152e+00,	-2.44342e-02	
414	1.380384e+07	3.511149e+00,	-2.50039e-02	
415	1.412538e+07	3.511147e+00,	-2.55869e-02	
416	1.445440e+07	3.511144e+00,	-2.61835e-02	
