** sch_path: /home/andylithia/openmpw/project-reisen-chip1/xschem/ota_wideband.sch
AC Analysis  Sun Oct 30 17:11:03  2022
--------------------------------------------------------------------------------
Index   frequency       vop                             
--------------------------------------------------------------------------------
0	1.000000e+03	3.266505e+00,	-9.32335e-07	
1	1.023293e+03	3.266505e+00,	-9.54052e-07	
2	1.047129e+03	3.266505e+00,	-9.76274e-07	
3	1.071519e+03	3.266505e+00,	-9.99015e-07	
4	1.096478e+03	3.266505e+00,	-1.02228e-06	
5	1.122018e+03	3.266505e+00,	-1.04610e-06	
6	1.148154e+03	3.266505e+00,	-1.07046e-06	
7	1.174898e+03	3.266505e+00,	-1.09540e-06	
8	1.202264e+03	3.266505e+00,	-1.12091e-06	
9	1.230269e+03	3.266505e+00,	-1.14702e-06	
10	1.258925e+03	3.266505e+00,	-1.17374e-06	
11	1.288250e+03	3.266505e+00,	-1.20108e-06	
12	1.318257e+03	3.266505e+00,	-1.22906e-06	
13	1.348963e+03	3.266505e+00,	-1.25769e-06	
14	1.380384e+03	3.266505e+00,	-1.28698e-06	
15	1.412538e+03	3.266505e+00,	-1.31696e-06	
16	1.445440e+03	3.266505e+00,	-1.34763e-06	
17	1.479108e+03	3.266505e+00,	-1.37902e-06	
18	1.513561e+03	3.266505e+00,	-1.41115e-06	
19	1.548817e+03	3.266505e+00,	-1.44402e-06	
20	1.584893e+03	3.266505e+00,	-1.47765e-06	
21	1.621810e+03	3.266505e+00,	-1.51207e-06	
22	1.659587e+03	3.266505e+00,	-1.54729e-06	
23	1.698244e+03	3.266505e+00,	-1.58333e-06	
24	1.737801e+03	3.266505e+00,	-1.62021e-06	
25	1.778279e+03	3.266505e+00,	-1.65795e-06	
26	1.819701e+03	3.266505e+00,	-1.69657e-06	
27	1.862087e+03	3.266505e+00,	-1.73609e-06	
28	1.905461e+03	3.266505e+00,	-1.77653e-06	
29	1.949845e+03	3.266505e+00,	-1.81791e-06	
30	1.995262e+03	3.266505e+00,	-1.86025e-06	
31	2.041738e+03	3.266505e+00,	-1.90358e-06	
32	2.089296e+03	3.266505e+00,	-1.94792e-06	
33	2.137962e+03	3.266505e+00,	-1.99330e-06	
34	2.187762e+03	3.266505e+00,	-2.03973e-06	
35	2.238721e+03	3.266505e+00,	-2.08724e-06	
36	2.290868e+03	3.266505e+00,	-2.13586e-06	
37	2.344229e+03	3.266505e+00,	-2.18561e-06	
38	2.398833e+03	3.266505e+00,	-2.23652e-06	
39	2.454709e+03	3.266505e+00,	-2.28861e-06	
40	2.511886e+03	3.266505e+00,	-2.34192e-06	
41	2.570396e+03	3.266505e+00,	-2.39647e-06	
42	2.630268e+03	3.266505e+00,	-2.45229e-06	
43	2.691535e+03	3.266505e+00,	-2.50941e-06	
44	2.754229e+03	3.266505e+00,	-2.56786e-06	
45	2.818383e+03	3.266505e+00,	-2.62768e-06	
46	2.884032e+03	3.266505e+00,	-2.68888e-06	
47	2.951209e+03	3.266505e+00,	-2.75152e-06	
48	3.019952e+03	3.266505e+00,	-2.81561e-06	
49	3.090295e+03	3.266505e+00,	-2.88119e-06	
50	3.162278e+03	3.266505e+00,	-2.94830e-06	
51	3.235937e+03	3.266505e+00,	-3.01698e-06	
52	3.311311e+03	3.266505e+00,	-3.08725e-06	
53	3.388442e+03	3.266505e+00,	-3.15916e-06	
54	3.467369e+03	3.266505e+00,	-3.23275e-06	

Index   frequency       vop                             
--------------------------------------------------------------------------------
55	3.548134e+03	3.266505e+00,	-3.30805e-06	
56	3.630781e+03	3.266505e+00,	-3.38510e-06	
57	3.715352e+03	3.266505e+00,	-3.46395e-06	
58	3.801894e+03	3.266505e+00,	-3.54464e-06	
59	3.890451e+03	3.266505e+00,	-3.62720e-06	
60	3.981072e+03	3.266505e+00,	-3.71169e-06	
61	4.073803e+03	3.266505e+00,	-3.79815e-06	
62	4.168694e+03	3.266505e+00,	-3.88662e-06	
63	4.265795e+03	3.266505e+00,	-3.97715e-06	
64	4.365158e+03	3.266505e+00,	-4.06979e-06	
65	4.466836e+03	3.266505e+00,	-4.16459e-06	
66	4.570882e+03	3.266505e+00,	-4.26159e-06	
67	4.677351e+03	3.266505e+00,	-4.36086e-06	
68	4.786301e+03	3.266505e+00,	-4.46243e-06	
69	4.897788e+03	3.266505e+00,	-4.56638e-06	
70	5.011872e+03	3.266505e+00,	-4.67274e-06	
71	5.128614e+03	3.266505e+00,	-4.78159e-06	
72	5.248075e+03	3.266505e+00,	-4.89296e-06	
73	5.370318e+03	3.266505e+00,	-5.00693e-06	
74	5.495409e+03	3.266505e+00,	-5.12356e-06	
75	5.623413e+03	3.266505e+00,	-5.24290e-06	
76	5.754399e+03	3.266505e+00,	-5.36503e-06	
77	5.888437e+03	3.266505e+00,	-5.48999e-06	
78	6.025596e+03	3.266505e+00,	-5.61787e-06	
79	6.165950e+03	3.266505e+00,	-5.74873e-06	
80	6.309573e+03	3.266505e+00,	-5.88263e-06	
81	6.456542e+03	3.266505e+00,	-6.01966e-06	
82	6.606934e+03	3.266505e+00,	-6.15988e-06	
83	6.760830e+03	3.266505e+00,	-6.30336e-06	
84	6.918310e+03	3.266505e+00,	-6.45018e-06	
85	7.079458e+03	3.266505e+00,	-6.60042e-06	
86	7.244360e+03	3.266505e+00,	-6.75417e-06	
87	7.413102e+03	3.266505e+00,	-6.91149e-06	
88	7.585776e+03	3.266505e+00,	-7.07248e-06	
89	7.762471e+03	3.266505e+00,	-7.23722e-06	
90	7.943282e+03	3.266505e+00,	-7.40580e-06	
91	8.128305e+03	3.266505e+00,	-7.57830e-06	
92	8.317638e+03	3.266505e+00,	-7.75482e-06	
93	8.511380e+03	3.266505e+00,	-7.93546e-06	
94	8.709636e+03	3.266505e+00,	-8.12030e-06	
95	8.912509e+03	3.266505e+00,	-8.30944e-06	
96	9.120108e+03	3.266505e+00,	-8.50299e-06	
97	9.332543e+03	3.266505e+00,	-8.70105e-06	
98	9.549926e+03	3.266505e+00,	-8.90373e-06	
99	9.772372e+03	3.266505e+00,	-9.11112e-06	
100	1.000000e+04	3.266505e+00,	-9.32335e-06	
101	1.023293e+04	3.266505e+00,	-9.54052e-06	
102	1.047129e+04	3.266505e+00,	-9.76274e-06	
103	1.071519e+04	3.266505e+00,	-9.99015e-06	
104	1.096478e+04	3.266505e+00,	-1.02228e-05	
105	1.122018e+04	3.266505e+00,	-1.04610e-05	
106	1.148154e+04	3.266505e+00,	-1.07046e-05	
107	1.174898e+04	3.266505e+00,	-1.09540e-05	
108	1.202264e+04	3.266505e+00,	-1.12091e-05	
109	1.230269e+04	3.266505e+00,	-1.14702e-05	
110	1.258925e+04	3.266505e+00,	-1.17374e-05	
111	1.288250e+04	3.266505e+00,	-1.20108e-05	
112	1.318257e+04	3.266505e+00,	-1.22906e-05	

Index   frequency       vop                             
--------------------------------------------------------------------------------
113	1.348963e+04	3.266505e+00,	-1.25769e-05	
114	1.380384e+04	3.266505e+00,	-1.28698e-05	
115	1.412538e+04	3.266505e+00,	-1.31696e-05	
116	1.445440e+04	3.266505e+00,	-1.34763e-05	
117	1.479108e+04	3.266505e+00,	-1.37902e-05	
118	1.513561e+04	3.266505e+00,	-1.41115e-05	
119	1.548817e+04	3.266505e+00,	-1.44402e-05	
120	1.584893e+04	3.266505e+00,	-1.47765e-05	
121	1.621810e+04	3.266505e+00,	-1.51207e-05	
122	1.659587e+04	3.266505e+00,	-1.54729e-05	
123	1.698244e+04	3.266505e+00,	-1.58333e-05	
124	1.737801e+04	3.266505e+00,	-1.62021e-05	
125	1.778279e+04	3.266505e+00,	-1.65795e-05	
126	1.819701e+04	3.266505e+00,	-1.69657e-05	
127	1.862087e+04	3.266505e+00,	-1.73609e-05	
128	1.905461e+04	3.266505e+00,	-1.77653e-05	
129	1.949845e+04	3.266505e+00,	-1.81791e-05	
130	1.995262e+04	3.266505e+00,	-1.86025e-05	
131	2.041738e+04	3.266505e+00,	-1.90358e-05	
132	2.089296e+04	3.266505e+00,	-1.94792e-05	
133	2.137962e+04	3.266505e+00,	-1.99330e-05	
134	2.187762e+04	3.266505e+00,	-2.03973e-05	
135	2.238721e+04	3.266505e+00,	-2.08724e-05	
136	2.290868e+04	3.266505e+00,	-2.13586e-05	
137	2.344229e+04	3.266505e+00,	-2.18561e-05	
138	2.398833e+04	3.266505e+00,	-2.23652e-05	
139	2.454709e+04	3.266505e+00,	-2.28861e-05	
140	2.511886e+04	3.266505e+00,	-2.34192e-05	
141	2.570396e+04	3.266505e+00,	-2.39647e-05	
142	2.630268e+04	3.266505e+00,	-2.45229e-05	
143	2.691535e+04	3.266505e+00,	-2.50941e-05	
144	2.754229e+04	3.266505e+00,	-2.56786e-05	
145	2.818383e+04	3.266505e+00,	-2.62768e-05	
146	2.884032e+04	3.266505e+00,	-2.68888e-05	
147	2.951209e+04	3.266505e+00,	-2.75152e-05	
148	3.019952e+04	3.266505e+00,	-2.81561e-05	
149	3.090295e+04	3.266505e+00,	-2.88119e-05	
150	3.162278e+04	3.266505e+00,	-2.94830e-05	
151	3.235937e+04	3.266505e+00,	-3.01698e-05	
152	3.311311e+04	3.266505e+00,	-3.08725e-05	
153	3.388442e+04	3.266505e+00,	-3.15916e-05	
154	3.467369e+04	3.266505e+00,	-3.23275e-05	
155	3.548134e+04	3.266505e+00,	-3.30805e-05	
156	3.630781e+04	3.266505e+00,	-3.38510e-05	
157	3.715352e+04	3.266505e+00,	-3.46395e-05	
158	3.801894e+04	3.266505e+00,	-3.54464e-05	
159	3.890451e+04	3.266505e+00,	-3.62720e-05	
160	3.981072e+04	3.266505e+00,	-3.71169e-05	
161	4.073803e+04	3.266505e+00,	-3.79815e-05	
162	4.168694e+04	3.266505e+00,	-3.88662e-05	
163	4.265795e+04	3.266505e+00,	-3.97715e-05	
164	4.365158e+04	3.266505e+00,	-4.06979e-05	
165	4.466836e+04	3.266505e+00,	-4.16459e-05	
166	4.570882e+04	3.266505e+00,	-4.26159e-05	
167	4.677351e+04	3.266505e+00,	-4.36086e-05	
168	4.786301e+04	3.266505e+00,	-4.46243e-05	
169	4.897788e+04	3.266505e+00,	-4.56638e-05	
170	5.011872e+04	3.266505e+00,	-4.67274e-05	

Index   frequency       vop                             
--------------------------------------------------------------------------------
171	5.128614e+04	3.266505e+00,	-4.78159e-05	
172	5.248075e+04	3.266505e+00,	-4.89296e-05	
173	5.370318e+04	3.266505e+00,	-5.00693e-05	
174	5.495409e+04	3.266505e+00,	-5.12356e-05	
175	5.623413e+04	3.266505e+00,	-5.24290e-05	
176	5.754399e+04	3.266505e+00,	-5.36503e-05	
177	5.888437e+04	3.266505e+00,	-5.48999e-05	
178	6.025596e+04	3.266505e+00,	-5.61787e-05	
179	6.165950e+04	3.266505e+00,	-5.74873e-05	
180	6.309573e+04	3.266505e+00,	-5.88263e-05	
181	6.456542e+04	3.266505e+00,	-6.01966e-05	
182	6.606934e+04	3.266505e+00,	-6.15987e-05	
183	6.760830e+04	3.266505e+00,	-6.30336e-05	
184	6.918310e+04	3.266505e+00,	-6.45018e-05	
185	7.079458e+04	3.266505e+00,	-6.60042e-05	
186	7.244360e+04	3.266505e+00,	-6.75417e-05	
187	7.413102e+04	3.266505e+00,	-6.91149e-05	
188	7.585776e+04	3.266505e+00,	-7.07248e-05	
189	7.762471e+04	3.266505e+00,	-7.23722e-05	
190	7.943282e+04	3.266505e+00,	-7.40580e-05	
191	8.128305e+04	3.266505e+00,	-7.57830e-05	
192	8.317638e+04	3.266505e+00,	-7.75482e-05	
193	8.511380e+04	3.266505e+00,	-7.93546e-05	
194	8.709636e+04	3.266505e+00,	-8.12030e-05	
195	8.912509e+04	3.266505e+00,	-8.30944e-05	
196	9.120108e+04	3.266505e+00,	-8.50299e-05	
197	9.332543e+04	3.266505e+00,	-8.70105e-05	
198	9.549926e+04	3.266505e+00,	-8.90373e-05	
199	9.772372e+04	3.266505e+00,	-9.11112e-05	
200	1.000000e+05	3.266505e+00,	-9.32335e-05	
201	1.023293e+05	3.266505e+00,	-9.54052e-05	
202	1.047129e+05	3.266505e+00,	-9.76274e-05	
203	1.071519e+05	3.266505e+00,	-9.99015e-05	
204	1.096478e+05	3.266505e+00,	-1.02228e-04	
205	1.122018e+05	3.266505e+00,	-1.04610e-04	
206	1.148154e+05	3.266505e+00,	-1.07046e-04	
207	1.174898e+05	3.266505e+00,	-1.09540e-04	
208	1.202264e+05	3.266505e+00,	-1.12091e-04	
209	1.230269e+05	3.266505e+00,	-1.14702e-04	
210	1.258925e+05	3.266505e+00,	-1.17374e-04	
211	1.288250e+05	3.266505e+00,	-1.20108e-04	
212	1.318257e+05	3.266505e+00,	-1.22906e-04	
213	1.348963e+05	3.266505e+00,	-1.25768e-04	
214	1.380384e+05	3.266505e+00,	-1.28698e-04	
215	1.412538e+05	3.266505e+00,	-1.31696e-04	
216	1.445440e+05	3.266505e+00,	-1.34763e-04	
217	1.479108e+05	3.266505e+00,	-1.37902e-04	
218	1.513561e+05	3.266505e+00,	-1.41115e-04	
219	1.548817e+05	3.266505e+00,	-1.44402e-04	
220	1.584893e+05	3.266505e+00,	-1.47765e-04	
221	1.621810e+05	3.266505e+00,	-1.51207e-04	
222	1.659587e+05	3.266505e+00,	-1.54729e-04	
223	1.698244e+05	3.266505e+00,	-1.58333e-04	
224	1.737801e+05	3.266505e+00,	-1.62021e-04	
225	1.778279e+05	3.266505e+00,	-1.65795e-04	
226	1.819701e+05	3.266505e+00,	-1.69657e-04	
227	1.862087e+05	3.266505e+00,	-1.73609e-04	
228	1.905461e+05	3.266505e+00,	-1.77653e-04	

Index   frequency       vop                             
--------------------------------------------------------------------------------
229	1.949845e+05	3.266505e+00,	-1.81791e-04	
230	1.995262e+05	3.266505e+00,	-1.86025e-04	
231	2.041738e+05	3.266505e+00,	-1.90358e-04	
232	2.089296e+05	3.266505e+00,	-1.94792e-04	
233	2.137962e+05	3.266505e+00,	-1.99330e-04	
234	2.187762e+05	3.266505e+00,	-2.03973e-04	
235	2.238721e+05	3.266505e+00,	-2.08724e-04	
236	2.290868e+05	3.266505e+00,	-2.13586e-04	
237	2.344229e+05	3.266505e+00,	-2.18561e-04	
238	2.398833e+05	3.266505e+00,	-2.23652e-04	
239	2.454709e+05	3.266505e+00,	-2.28861e-04	
240	2.511886e+05	3.266505e+00,	-2.34192e-04	
241	2.570396e+05	3.266505e+00,	-2.39647e-04	
242	2.630268e+05	3.266505e+00,	-2.45229e-04	
243	2.691535e+05	3.266505e+00,	-2.50941e-04	
244	2.754229e+05	3.266505e+00,	-2.56786e-04	
245	2.818383e+05	3.266505e+00,	-2.62768e-04	
246	2.884032e+05	3.266505e+00,	-2.68888e-04	
247	2.951209e+05	3.266505e+00,	-2.75151e-04	
248	3.019952e+05	3.266505e+00,	-2.81561e-04	
249	3.090295e+05	3.266505e+00,	-2.88119e-04	
250	3.162278e+05	3.266505e+00,	-2.94830e-04	
251	3.235937e+05	3.266505e+00,	-3.01698e-04	
252	3.311311e+05	3.266505e+00,	-3.08725e-04	
253	3.388442e+05	3.266505e+00,	-3.15916e-04	
254	3.467369e+05	3.266505e+00,	-3.23275e-04	
255	3.548134e+05	3.266505e+00,	-3.30805e-04	
256	3.630781e+05	3.266505e+00,	-3.38510e-04	
257	3.715352e+05	3.266505e+00,	-3.46395e-04	
258	3.801894e+05	3.266505e+00,	-3.54464e-04	
259	3.890451e+05	3.266505e+00,	-3.62720e-04	
260	3.981072e+05	3.266505e+00,	-3.71169e-04	
261	4.073803e+05	3.266505e+00,	-3.79815e-04	
262	4.168694e+05	3.266505e+00,	-3.88662e-04	
263	4.265795e+05	3.266505e+00,	-3.97715e-04	
264	4.365158e+05	3.266505e+00,	-4.06979e-04	
265	4.466836e+05	3.266505e+00,	-4.16458e-04	
266	4.570882e+05	3.266505e+00,	-4.26159e-04	
267	4.677351e+05	3.266505e+00,	-4.36085e-04	
268	4.786301e+05	3.266505e+00,	-4.46243e-04	
269	4.897788e+05	3.266506e+00,	-4.56638e-04	
270	5.011872e+05	3.266506e+00,	-4.67274e-04	
271	5.128614e+05	3.266506e+00,	-4.78158e-04	
272	5.248075e+05	3.266506e+00,	-4.89296e-04	
273	5.370318e+05	3.266506e+00,	-5.00693e-04	
274	5.495409e+05	3.266506e+00,	-5.12356e-04	
275	5.623413e+05	3.266506e+00,	-5.24290e-04	
276	5.754399e+05	3.266506e+00,	-5.36502e-04	
277	5.888437e+05	3.266506e+00,	-5.48999e-04	
278	6.025596e+05	3.266506e+00,	-5.61787e-04	
279	6.165950e+05	3.266506e+00,	-5.74872e-04	
280	6.309573e+05	3.266506e+00,	-5.88263e-04	
281	6.456542e+05	3.266506e+00,	-6.01965e-04	
282	6.606934e+05	3.266506e+00,	-6.15987e-04	
283	6.760830e+05	3.266506e+00,	-6.30335e-04	
284	6.918310e+05	3.266506e+00,	-6.45017e-04	
285	7.079458e+05	3.266506e+00,	-6.60042e-04	
286	7.244360e+05	3.266506e+00,	-6.75416e-04	

Index   frequency       vop                             
--------------------------------------------------------------------------------
287	7.413102e+05	3.266506e+00,	-6.91148e-04	
288	7.585776e+05	3.266506e+00,	-7.07247e-04	
289	7.762471e+05	3.266506e+00,	-7.23721e-04	
290	7.943282e+05	3.266506e+00,	-7.40579e-04	
291	8.128305e+05	3.266506e+00,	-7.57829e-04	
292	8.317638e+05	3.266506e+00,	-7.75481e-04	
293	8.511380e+05	3.266506e+00,	-7.93544e-04	
294	8.709636e+05	3.266506e+00,	-8.12028e-04	
295	8.912509e+05	3.266506e+00,	-8.30942e-04	
296	9.120108e+05	3.266506e+00,	-8.50297e-04	
297	9.332543e+05	3.266506e+00,	-8.70103e-04	
298	9.549926e+05	3.266506e+00,	-8.90371e-04	
299	9.772372e+05	3.266507e+00,	-9.11110e-04	
300	1.000000e+06	3.266507e+00,	-9.32332e-04	
301	1.023293e+06	3.266507e+00,	-9.54049e-04	
302	1.047129e+06	3.266507e+00,	-9.76271e-04	
303	1.071519e+06	3.266507e+00,	-9.99012e-04	
304	1.096478e+06	3.266507e+00,	-1.02228e-03	
305	1.122018e+06	3.266507e+00,	-1.04609e-03	
306	1.148154e+06	3.266507e+00,	-1.07046e-03	
307	1.174898e+06	3.266507e+00,	-1.09539e-03	
308	1.202264e+06	3.266507e+00,	-1.12091e-03	
309	1.230269e+06	3.266507e+00,	-1.14702e-03	
310	1.258925e+06	3.266507e+00,	-1.17373e-03	
311	1.288250e+06	3.266508e+00,	-1.20107e-03	
312	1.318257e+06	3.266508e+00,	-1.22905e-03	
313	1.348963e+06	3.266508e+00,	-1.25768e-03	
314	1.380384e+06	3.266508e+00,	-1.28697e-03	
315	1.412538e+06	3.266508e+00,	-1.31695e-03	
316	1.445440e+06	3.266508e+00,	-1.34763e-03	
317	1.479108e+06	3.266508e+00,	-1.37902e-03	
318	1.513561e+06	3.266508e+00,	-1.41114e-03	
319	1.548817e+06	3.266509e+00,	-1.44401e-03	
320	1.584893e+06	3.266509e+00,	-1.47764e-03	
321	1.621810e+06	3.266509e+00,	-1.51206e-03	
322	1.659587e+06	3.266509e+00,	-1.54728e-03	
323	1.698244e+06	3.266509e+00,	-1.58332e-03	
324	1.737801e+06	3.266509e+00,	-1.62020e-03	
325	1.778279e+06	3.266510e+00,	-1.65794e-03	
326	1.819701e+06	3.266510e+00,	-1.69655e-03	
327	1.862087e+06	3.266510e+00,	-1.73607e-03	
328	1.905461e+06	3.266510e+00,	-1.77651e-03	
329	1.949845e+06	3.266511e+00,	-1.81789e-03	
330	1.995262e+06	3.266511e+00,	-1.86023e-03	
331	2.041738e+06	3.266511e+00,	-1.90356e-03	
332	2.089296e+06	3.266511e+00,	-1.94790e-03	
333	2.137962e+06	3.266512e+00,	-1.99327e-03	
334	2.187762e+06	3.266512e+00,	-2.03970e-03	
335	2.238721e+06	3.266512e+00,	-2.08721e-03	
336	2.290868e+06	3.266513e+00,	-2.13582e-03	
337	2.344229e+06	3.266513e+00,	-2.18557e-03	
338	2.398833e+06	3.266513e+00,	-2.23648e-03	
339	2.454709e+06	3.266514e+00,	-2.28857e-03	
340	2.511886e+06	3.266514e+00,	-2.34188e-03	
341	2.570396e+06	3.266514e+00,	-2.39643e-03	
342	2.630268e+06	3.266515e+00,	-2.45224e-03	
343	2.691535e+06	3.266515e+00,	-2.50936e-03	
344	2.754229e+06	3.266516e+00,	-2.56781e-03	

Index   frequency       vop                             
--------------------------------------------------------------------------------
345	2.818383e+06	3.266516e+00,	-2.62762e-03	
346	2.884032e+06	3.266517e+00,	-2.68882e-03	
347	2.951209e+06	3.266517e+00,	-2.75145e-03	
348	3.019952e+06	3.266518e+00,	-2.81553e-03	
349	3.090295e+06	3.266519e+00,	-2.88111e-03	
350	3.162278e+06	3.266519e+00,	-2.94822e-03	
351	3.235937e+06	3.266520e+00,	-3.01689e-03	
352	3.311311e+06	3.266521e+00,	-3.08716e-03	
353	3.388442e+06	3.266521e+00,	-3.15906e-03	
354	3.467369e+06	3.266522e+00,	-3.23264e-03	
355	3.548134e+06	3.266523e+00,	-3.30793e-03	
356	3.630781e+06	3.266524e+00,	-3.38498e-03	
357	3.715352e+06	3.266525e+00,	-3.46382e-03	
358	3.801894e+06	3.266526e+00,	-3.54450e-03	
359	3.890451e+06	3.266526e+00,	-3.62705e-03	
360	3.981072e+06	3.266527e+00,	-3.71153e-03	
361	4.073803e+06	3.266529e+00,	-3.79797e-03	
362	4.168694e+06	3.266530e+00,	-3.88643e-03	
363	4.265795e+06	3.266531e+00,	-3.97695e-03	
364	4.365158e+06	3.266532e+00,	-4.06958e-03	
365	4.466836e+06	3.266533e+00,	-4.16436e-03	
366	4.570882e+06	3.266535e+00,	-4.26135e-03	
367	4.677351e+06	3.266536e+00,	-4.36060e-03	
368	4.786301e+06	3.266537e+00,	-4.46215e-03	
369	4.897788e+06	3.266539e+00,	-4.56608e-03	
370	5.011872e+06	3.266541e+00,	-4.67242e-03	
371	5.128614e+06	3.266542e+00,	-4.78124e-03	
372	5.248075e+06	3.266544e+00,	-4.89259e-03	
373	5.370318e+06	3.266546e+00,	-5.00654e-03	
374	5.495409e+06	3.266548e+00,	-5.12314e-03	
375	5.623413e+06	3.266550e+00,	-5.24245e-03	
376	5.754399e+06	3.266552e+00,	-5.36454e-03	
377	5.888437e+06	3.266554e+00,	-5.48948e-03	
378	6.025596e+06	3.266556e+00,	-5.61732e-03	
379	6.165950e+06	3.266559e+00,	-5.74814e-03	
380	6.309573e+06	3.266561e+00,	-5.88200e-03	
381	6.456542e+06	3.266564e+00,	-6.01898e-03	
382	6.606934e+06	3.266567e+00,	-6.15915e-03	
383	6.760830e+06	3.266570e+00,	-6.30258e-03	
384	6.918310e+06	3.266573e+00,	-6.44935e-03	
385	7.079458e+06	3.266576e+00,	-6.59953e-03	
386	7.244360e+06	3.266579e+00,	-6.75322e-03	
387	7.413102e+06	3.266583e+00,	-6.91048e-03	
388	7.585776e+06	3.266587e+00,	-7.07139e-03	
389	7.762471e+06	3.266590e+00,	-7.23606e-03	
390	7.943282e+06	3.266594e+00,	-7.40455e-03	
391	8.128305e+06	3.266599e+00,	-7.57697e-03	
392	8.317638e+06	3.266603e+00,	-7.75340e-03	
393	8.511380e+06	3.266608e+00,	-7.93394e-03	
394	8.709636e+06	3.266613e+00,	-8.11867e-03	
395	8.912509e+06	3.266618e+00,	-8.30771e-03	
396	9.120108e+06	3.266623e+00,	-8.50114e-03	
397	9.332543e+06	3.266629e+00,	-8.69907e-03	
398	9.549926e+06	3.266634e+00,	-8.90161e-03	
399	9.772372e+06	3.266641e+00,	-9.10886e-03	
400	1.000000e+07	3.266647e+00,	-9.32094e-03	
401	1.023293e+07	3.266654e+00,	-9.53794e-03	
402	1.047129e+07	3.266661e+00,	-9.76000e-03	

Index   frequency       vop                             
--------------------------------------------------------------------------------
403	1.071519e+07	3.266668e+00,	-9.98721e-03	
404	1.096478e+07	3.266676e+00,	-1.02197e-02	
405	1.122018e+07	3.266684e+00,	-1.04576e-02	
406	1.148154e+07	3.266693e+00,	-1.07011e-02	
407	1.174898e+07	3.266702e+00,	-1.09502e-02	
408	1.202264e+07	3.266711e+00,	-1.12051e-02	
409	1.230269e+07	3.266721e+00,	-1.14659e-02	
410	1.258925e+07	3.266731e+00,	-1.17328e-02	
411	1.288250e+07	3.266742e+00,	-1.20059e-02	
412	1.318257e+07	3.266753e+00,	-1.22854e-02	
413	1.348963e+07	3.266765e+00,	-1.25713e-02	
414	1.380384e+07	3.266777e+00,	-1.28639e-02	
415	1.412538e+07	3.266790e+00,	-1.31633e-02	
416	1.445440e+07	3.266804e+00,	-1.34697e-02	
