** sch_path: /home/andylithia/openmpw/project-reisen-chip1/xschem/ota_wideband.sch
AC Analysis  Sun Oct 30 17:11:03  2022
--------------------------------------------------------------------------------
Index   frequency       vop                             
--------------------------------------------------------------------------------
0	1.000000e+03	3.583171e+00,	-2.00116e-06	
1	1.023293e+03	3.583171e+00,	-2.04778e-06	
2	1.047129e+03	3.583171e+00,	-2.09548e-06	
3	1.071519e+03	3.583171e+00,	-2.14429e-06	
4	1.096478e+03	3.583171e+00,	-2.19423e-06	
5	1.122018e+03	3.583171e+00,	-2.24534e-06	
6	1.148154e+03	3.583171e+00,	-2.29764e-06	
7	1.174898e+03	3.583171e+00,	-2.35116e-06	
8	1.202264e+03	3.583171e+00,	-2.40593e-06	
9	1.230269e+03	3.583171e+00,	-2.46197e-06	
10	1.258925e+03	3.583171e+00,	-2.51932e-06	
11	1.288250e+03	3.583171e+00,	-2.57800e-06	
12	1.318257e+03	3.583171e+00,	-2.63805e-06	
13	1.348963e+03	3.583171e+00,	-2.69950e-06	
14	1.380384e+03	3.583171e+00,	-2.76238e-06	
15	1.412538e+03	3.583171e+00,	-2.82672e-06	
16	1.445440e+03	3.583171e+00,	-2.89256e-06	
17	1.479108e+03	3.583171e+00,	-2.95994e-06	
18	1.513561e+03	3.583171e+00,	-3.02889e-06	
19	1.548817e+03	3.583171e+00,	-3.09944e-06	
20	1.584893e+03	3.583171e+00,	-3.17163e-06	
21	1.621810e+03	3.583171e+00,	-3.24551e-06	
22	1.659587e+03	3.583171e+00,	-3.32111e-06	
23	1.698244e+03	3.583171e+00,	-3.39847e-06	
24	1.737801e+03	3.583171e+00,	-3.47763e-06	
25	1.778279e+03	3.583171e+00,	-3.55863e-06	
26	1.819701e+03	3.583171e+00,	-3.64152e-06	
27	1.862087e+03	3.583171e+00,	-3.72634e-06	
28	1.905461e+03	3.583171e+00,	-3.81314e-06	
29	1.949845e+03	3.583171e+00,	-3.90196e-06	
30	1.995262e+03	3.583171e+00,	-3.99285e-06	
31	2.041738e+03	3.583171e+00,	-4.08585e-06	
32	2.089296e+03	3.583171e+00,	-4.18103e-06	
33	2.137962e+03	3.583171e+00,	-4.27841e-06	
34	2.187762e+03	3.583171e+00,	-4.37807e-06	
35	2.238721e+03	3.583171e+00,	-4.48005e-06	
36	2.290868e+03	3.583171e+00,	-4.58440e-06	
37	2.344229e+03	3.583171e+00,	-4.69119e-06	
38	2.398833e+03	3.583171e+00,	-4.80046e-06	
39	2.454709e+03	3.583171e+00,	-4.91228e-06	
40	2.511886e+03	3.583171e+00,	-5.02670e-06	
41	2.570396e+03	3.583171e+00,	-5.14379e-06	
42	2.630268e+03	3.583171e+00,	-5.26360e-06	
43	2.691535e+03	3.583171e+00,	-5.38620e-06	
44	2.754229e+03	3.583171e+00,	-5.51166e-06	
45	2.818383e+03	3.583171e+00,	-5.64005e-06	
46	2.884032e+03	3.583171e+00,	-5.77142e-06	
47	2.951209e+03	3.583171e+00,	-5.90586e-06	
48	3.019952e+03	3.583171e+00,	-6.04342e-06	
49	3.090295e+03	3.583171e+00,	-6.18419e-06	
50	3.162278e+03	3.583171e+00,	-6.32824e-06	
51	3.235937e+03	3.583171e+00,	-6.47564e-06	
52	3.311311e+03	3.583171e+00,	-6.62648e-06	
53	3.388442e+03	3.583171e+00,	-6.78083e-06	
54	3.467369e+03	3.583171e+00,	-6.93878e-06	

Index   frequency       vop                             
--------------------------------------------------------------------------------
55	3.548134e+03	3.583171e+00,	-7.10040e-06	
56	3.630781e+03	3.583171e+00,	-7.26579e-06	
57	3.715352e+03	3.583171e+00,	-7.43503e-06	
58	3.801894e+03	3.583171e+00,	-7.60822e-06	
59	3.890451e+03	3.583171e+00,	-7.78543e-06	
60	3.981072e+03	3.583171e+00,	-7.96678e-06	
61	4.073803e+03	3.583171e+00,	-8.15235e-06	
62	4.168694e+03	3.583171e+00,	-8.34224e-06	
63	4.265795e+03	3.583171e+00,	-8.53656e-06	
64	4.365158e+03	3.583171e+00,	-8.73540e-06	
65	4.466836e+03	3.583171e+00,	-8.93887e-06	
66	4.570882e+03	3.583171e+00,	-9.14709e-06	
67	4.677351e+03	3.583171e+00,	-9.36015e-06	
68	4.786301e+03	3.583171e+00,	-9.57818e-06	
69	4.897788e+03	3.583171e+00,	-9.80128e-06	
70	5.011872e+03	3.583171e+00,	-1.00296e-05	
71	5.128614e+03	3.583171e+00,	-1.02632e-05	
72	5.248075e+03	3.583171e+00,	-1.05023e-05	
73	5.370318e+03	3.583171e+00,	-1.07469e-05	
74	5.495409e+03	3.583171e+00,	-1.09972e-05	
75	5.623413e+03	3.583171e+00,	-1.12534e-05	
76	5.754399e+03	3.583171e+00,	-1.15155e-05	
77	5.888437e+03	3.583171e+00,	-1.17837e-05	
78	6.025596e+03	3.583171e+00,	-1.20582e-05	
79	6.165950e+03	3.583171e+00,	-1.23391e-05	
80	6.309573e+03	3.583171e+00,	-1.26265e-05	
81	6.456542e+03	3.583171e+00,	-1.29206e-05	
82	6.606934e+03	3.583171e+00,	-1.32216e-05	
83	6.760830e+03	3.583171e+00,	-1.35295e-05	
84	6.918310e+03	3.583171e+00,	-1.38447e-05	
85	7.079458e+03	3.583171e+00,	-1.41672e-05	
86	7.244360e+03	3.583171e+00,	-1.44972e-05	
87	7.413102e+03	3.583171e+00,	-1.48348e-05	
88	7.585776e+03	3.583171e+00,	-1.51804e-05	
89	7.762471e+03	3.583171e+00,	-1.55340e-05	
90	7.943282e+03	3.583171e+00,	-1.58958e-05	
91	8.128305e+03	3.583171e+00,	-1.62661e-05	
92	8.317638e+03	3.583171e+00,	-1.66450e-05	
93	8.511380e+03	3.583171e+00,	-1.70327e-05	
94	8.709636e+03	3.583171e+00,	-1.74294e-05	
95	8.912509e+03	3.583171e+00,	-1.78354e-05	
96	9.120108e+03	3.583171e+00,	-1.82508e-05	
97	9.332543e+03	3.583171e+00,	-1.86760e-05	
98	9.549926e+03	3.583171e+00,	-1.91110e-05	
99	9.772372e+03	3.583171e+00,	-1.95561e-05	
100	1.000000e+04	3.583171e+00,	-2.00116e-05	
101	1.023293e+04	3.583171e+00,	-2.04778e-05	
102	1.047129e+04	3.583171e+00,	-2.09548e-05	
103	1.071519e+04	3.583171e+00,	-2.14429e-05	
104	1.096478e+04	3.583171e+00,	-2.19423e-05	
105	1.122018e+04	3.583171e+00,	-2.24534e-05	
106	1.148154e+04	3.583171e+00,	-2.29764e-05	
107	1.174898e+04	3.583171e+00,	-2.35116e-05	
108	1.202264e+04	3.583171e+00,	-2.40593e-05	
109	1.230269e+04	3.583171e+00,	-2.46197e-05	
110	1.258925e+04	3.583171e+00,	-2.51932e-05	
111	1.288250e+04	3.583171e+00,	-2.57800e-05	
112	1.318257e+04	3.583171e+00,	-2.63805e-05	

Index   frequency       vop                             
--------------------------------------------------------------------------------
113	1.348963e+04	3.583171e+00,	-2.69950e-05	
114	1.380384e+04	3.583171e+00,	-2.76238e-05	
115	1.412538e+04	3.583171e+00,	-2.82672e-05	
116	1.445440e+04	3.583171e+00,	-2.89256e-05	
117	1.479108e+04	3.583171e+00,	-2.95994e-05	
118	1.513561e+04	3.583171e+00,	-3.02889e-05	
119	1.548817e+04	3.583171e+00,	-3.09944e-05	
120	1.584893e+04	3.583171e+00,	-3.17163e-05	
121	1.621810e+04	3.583171e+00,	-3.24551e-05	
122	1.659587e+04	3.583171e+00,	-3.32111e-05	
123	1.698244e+04	3.583171e+00,	-3.39847e-05	
124	1.737801e+04	3.583171e+00,	-3.47763e-05	
125	1.778279e+04	3.583171e+00,	-3.55863e-05	
126	1.819701e+04	3.583171e+00,	-3.64152e-05	
127	1.862087e+04	3.583171e+00,	-3.72634e-05	
128	1.905461e+04	3.583171e+00,	-3.81314e-05	
129	1.949845e+04	3.583171e+00,	-3.90196e-05	
130	1.995262e+04	3.583171e+00,	-3.99285e-05	
131	2.041738e+04	3.583171e+00,	-4.08585e-05	
132	2.089296e+04	3.583171e+00,	-4.18103e-05	
133	2.137962e+04	3.583171e+00,	-4.27841e-05	
134	2.187762e+04	3.583171e+00,	-4.37807e-05	
135	2.238721e+04	3.583171e+00,	-4.48005e-05	
136	2.290868e+04	3.583171e+00,	-4.58440e-05	
137	2.344229e+04	3.583171e+00,	-4.69119e-05	
138	2.398833e+04	3.583171e+00,	-4.80046e-05	
139	2.454709e+04	3.583171e+00,	-4.91228e-05	
140	2.511886e+04	3.583171e+00,	-5.02670e-05	
141	2.570396e+04	3.583171e+00,	-5.14379e-05	
142	2.630268e+04	3.583171e+00,	-5.26360e-05	
143	2.691535e+04	3.583171e+00,	-5.38620e-05	
144	2.754229e+04	3.583171e+00,	-5.51166e-05	
145	2.818383e+04	3.583171e+00,	-5.64005e-05	
146	2.884032e+04	3.583171e+00,	-5.77142e-05	
147	2.951209e+04	3.583171e+00,	-5.90586e-05	
148	3.019952e+04	3.583171e+00,	-6.04342e-05	
149	3.090295e+04	3.583171e+00,	-6.18419e-05	
150	3.162278e+04	3.583171e+00,	-6.32824e-05	
151	3.235937e+04	3.583171e+00,	-6.47564e-05	
152	3.311311e+04	3.583171e+00,	-6.62648e-05	
153	3.388442e+04	3.583171e+00,	-6.78083e-05	
154	3.467369e+04	3.583171e+00,	-6.93878e-05	
155	3.548134e+04	3.583171e+00,	-7.10040e-05	
156	3.630781e+04	3.583171e+00,	-7.26579e-05	
157	3.715352e+04	3.583171e+00,	-7.43503e-05	
158	3.801894e+04	3.583171e+00,	-7.60822e-05	
159	3.890451e+04	3.583171e+00,	-7.78543e-05	
160	3.981072e+04	3.583171e+00,	-7.96678e-05	
161	4.073803e+04	3.583171e+00,	-8.15235e-05	
162	4.168694e+04	3.583171e+00,	-8.34224e-05	
163	4.265795e+04	3.583171e+00,	-8.53656e-05	
164	4.365158e+04	3.583171e+00,	-8.73540e-05	
165	4.466836e+04	3.583171e+00,	-8.93887e-05	
166	4.570882e+04	3.583171e+00,	-9.14709e-05	
167	4.677351e+04	3.583171e+00,	-9.36015e-05	
168	4.786301e+04	3.583171e+00,	-9.57818e-05	
169	4.897788e+04	3.583171e+00,	-9.80128e-05	
170	5.011872e+04	3.583171e+00,	-1.00296e-04	

Index   frequency       vop                             
--------------------------------------------------------------------------------
171	5.128614e+04	3.583171e+00,	-1.02632e-04	
172	5.248075e+04	3.583171e+00,	-1.05023e-04	
173	5.370318e+04	3.583171e+00,	-1.07469e-04	
174	5.495409e+04	3.583171e+00,	-1.09972e-04	
175	5.623413e+04	3.583171e+00,	-1.12534e-04	
176	5.754399e+04	3.583171e+00,	-1.15155e-04	
177	5.888437e+04	3.583171e+00,	-1.17837e-04	
178	6.025596e+04	3.583171e+00,	-1.20582e-04	
179	6.165950e+04	3.583171e+00,	-1.23391e-04	
180	6.309573e+04	3.583171e+00,	-1.26265e-04	
181	6.456542e+04	3.583171e+00,	-1.29206e-04	
182	6.606934e+04	3.583171e+00,	-1.32216e-04	
183	6.760830e+04	3.583171e+00,	-1.35295e-04	
184	6.918310e+04	3.583171e+00,	-1.38447e-04	
185	7.079458e+04	3.583171e+00,	-1.41672e-04	
186	7.244360e+04	3.583171e+00,	-1.44972e-04	
187	7.413102e+04	3.583171e+00,	-1.48348e-04	
188	7.585776e+04	3.583171e+00,	-1.51804e-04	
189	7.762471e+04	3.583171e+00,	-1.55340e-04	
190	7.943282e+04	3.583171e+00,	-1.58958e-04	
191	8.128305e+04	3.583171e+00,	-1.62661e-04	
192	8.317638e+04	3.583171e+00,	-1.66450e-04	
193	8.511380e+04	3.583171e+00,	-1.70327e-04	
194	8.709636e+04	3.583171e+00,	-1.74294e-04	
195	8.912509e+04	3.583171e+00,	-1.78354e-04	
196	9.120108e+04	3.583171e+00,	-1.82508e-04	
197	9.332543e+04	3.583171e+00,	-1.86760e-04	
198	9.549926e+04	3.583171e+00,	-1.91110e-04	
199	9.772372e+04	3.583171e+00,	-1.95561e-04	
200	1.000000e+05	3.583171e+00,	-2.00116e-04	
201	1.023293e+05	3.583171e+00,	-2.04778e-04	
202	1.047129e+05	3.583171e+00,	-2.09548e-04	
203	1.071519e+05	3.583171e+00,	-2.14429e-04	
204	1.096478e+05	3.583171e+00,	-2.19423e-04	
205	1.122018e+05	3.583171e+00,	-2.24534e-04	
206	1.148154e+05	3.583171e+00,	-2.29764e-04	
207	1.174898e+05	3.583171e+00,	-2.35116e-04	
208	1.202264e+05	3.583171e+00,	-2.40593e-04	
209	1.230269e+05	3.583171e+00,	-2.46197e-04	
210	1.258925e+05	3.583171e+00,	-2.51932e-04	
211	1.288250e+05	3.583171e+00,	-2.57800e-04	
212	1.318257e+05	3.583171e+00,	-2.63805e-04	
213	1.348963e+05	3.583171e+00,	-2.69950e-04	
214	1.380384e+05	3.583171e+00,	-2.76238e-04	
215	1.412538e+05	3.583171e+00,	-2.82672e-04	
216	1.445440e+05	3.583171e+00,	-2.89256e-04	
217	1.479108e+05	3.583171e+00,	-2.95994e-04	
218	1.513561e+05	3.583171e+00,	-3.02889e-04	
219	1.548817e+05	3.583171e+00,	-3.09944e-04	
220	1.584893e+05	3.583171e+00,	-3.17163e-04	
221	1.621810e+05	3.583171e+00,	-3.24551e-04	
222	1.659587e+05	3.583171e+00,	-3.32111e-04	
223	1.698244e+05	3.583171e+00,	-3.39847e-04	
224	1.737801e+05	3.583171e+00,	-3.47763e-04	
225	1.778279e+05	3.583171e+00,	-3.55863e-04	
226	1.819701e+05	3.583171e+00,	-3.64152e-04	
227	1.862087e+05	3.583171e+00,	-3.72634e-04	
228	1.905461e+05	3.583171e+00,	-3.81314e-04	

Index   frequency       vop                             
--------------------------------------------------------------------------------
229	1.949845e+05	3.583171e+00,	-3.90196e-04	
230	1.995262e+05	3.583171e+00,	-3.99285e-04	
231	2.041738e+05	3.583171e+00,	-4.08585e-04	
232	2.089296e+05	3.583171e+00,	-4.18103e-04	
233	2.137962e+05	3.583171e+00,	-4.27841e-04	
234	2.187762e+05	3.583171e+00,	-4.37807e-04	
235	2.238721e+05	3.583171e+00,	-4.48005e-04	
236	2.290868e+05	3.583171e+00,	-4.58440e-04	
237	2.344229e+05	3.583171e+00,	-4.69119e-04	
238	2.398833e+05	3.583171e+00,	-4.80046e-04	
239	2.454709e+05	3.583171e+00,	-4.91228e-04	
240	2.511886e+05	3.583171e+00,	-5.02670e-04	
241	2.570396e+05	3.583171e+00,	-5.14379e-04	
242	2.630268e+05	3.583171e+00,	-5.26360e-04	
243	2.691535e+05	3.583171e+00,	-5.38620e-04	
244	2.754229e+05	3.583171e+00,	-5.51167e-04	
245	2.818383e+05	3.583171e+00,	-5.64005e-04	
246	2.884032e+05	3.583171e+00,	-5.77142e-04	
247	2.951209e+05	3.583171e+00,	-5.90586e-04	
248	3.019952e+05	3.583171e+00,	-6.04342e-04	
249	3.090295e+05	3.583171e+00,	-6.18419e-04	
250	3.162278e+05	3.583171e+00,	-6.32824e-04	
251	3.235937e+05	3.583171e+00,	-6.47564e-04	
252	3.311311e+05	3.583171e+00,	-6.62648e-04	
253	3.388442e+05	3.583171e+00,	-6.78083e-04	
254	3.467369e+05	3.583171e+00,	-6.93878e-04	
255	3.548134e+05	3.583171e+00,	-7.10040e-04	
256	3.630781e+05	3.583171e+00,	-7.26579e-04	
257	3.715352e+05	3.583171e+00,	-7.43503e-04	
258	3.801894e+05	3.583171e+00,	-7.60822e-04	
259	3.890451e+05	3.583171e+00,	-7.78544e-04	
260	3.981072e+05	3.583171e+00,	-7.96678e-04	
261	4.073803e+05	3.583171e+00,	-8.15235e-04	
262	4.168694e+05	3.583171e+00,	-8.34224e-04	
263	4.265795e+05	3.583171e+00,	-8.53656e-04	
264	4.365158e+05	3.583171e+00,	-8.73540e-04	
265	4.466836e+05	3.583171e+00,	-8.93888e-04	
266	4.570882e+05	3.583171e+00,	-9.14709e-04	
267	4.677351e+05	3.583171e+00,	-9.36015e-04	
268	4.786301e+05	3.583171e+00,	-9.57818e-04	
269	4.897788e+05	3.583171e+00,	-9.80128e-04	
270	5.011872e+05	3.583171e+00,	-1.00296e-03	
271	5.128614e+05	3.583171e+00,	-1.02632e-03	
272	5.248075e+05	3.583171e+00,	-1.05023e-03	
273	5.370318e+05	3.583171e+00,	-1.07469e-03	
274	5.495409e+05	3.583171e+00,	-1.09972e-03	
275	5.623413e+05	3.583171e+00,	-1.12534e-03	
276	5.754399e+05	3.583171e+00,	-1.15155e-03	
277	5.888437e+05	3.583171e+00,	-1.17837e-03	
278	6.025596e+05	3.583171e+00,	-1.20582e-03	
279	6.165950e+05	3.583171e+00,	-1.23391e-03	
280	6.309573e+05	3.583171e+00,	-1.26265e-03	
281	6.456542e+05	3.583171e+00,	-1.29206e-03	
282	6.606934e+05	3.583171e+00,	-1.32216e-03	
283	6.760830e+05	3.583171e+00,	-1.35295e-03	
284	6.918310e+05	3.583171e+00,	-1.38447e-03	
285	7.079458e+05	3.583171e+00,	-1.41672e-03	
286	7.244360e+05	3.583171e+00,	-1.44972e-03	

Index   frequency       vop                             
--------------------------------------------------------------------------------
287	7.413102e+05	3.583171e+00,	-1.48349e-03	
288	7.585776e+05	3.583171e+00,	-1.51804e-03	
289	7.762471e+05	3.583171e+00,	-1.55340e-03	
290	7.943282e+05	3.583171e+00,	-1.58958e-03	
291	8.128305e+05	3.583171e+00,	-1.62661e-03	
292	8.317638e+05	3.583171e+00,	-1.66450e-03	
293	8.511380e+05	3.583171e+00,	-1.70327e-03	
294	8.709636e+05	3.583171e+00,	-1.74294e-03	
295	8.912509e+05	3.583171e+00,	-1.78354e-03	
296	9.120108e+05	3.583171e+00,	-1.82509e-03	
297	9.332543e+05	3.583171e+00,	-1.86760e-03	
298	9.549926e+05	3.583171e+00,	-1.91110e-03	
299	9.772372e+05	3.583171e+00,	-1.95562e-03	
300	1.000000e+06	3.583171e+00,	-2.00117e-03	
301	1.023293e+06	3.583171e+00,	-2.04778e-03	
302	1.047129e+06	3.583171e+00,	-2.09548e-03	
303	1.071519e+06	3.583171e+00,	-2.14429e-03	
304	1.096478e+06	3.583171e+00,	-2.19424e-03	
305	1.122018e+06	3.583171e+00,	-2.24535e-03	
306	1.148154e+06	3.583170e+00,	-2.29765e-03	
307	1.174898e+06	3.583170e+00,	-2.35117e-03	
308	1.202264e+06	3.583170e+00,	-2.40593e-03	
309	1.230269e+06	3.583170e+00,	-2.46198e-03	
310	1.258925e+06	3.583170e+00,	-2.51932e-03	
311	1.288250e+06	3.583170e+00,	-2.57801e-03	
312	1.318257e+06	3.583170e+00,	-2.63806e-03	
313	1.348963e+06	3.583170e+00,	-2.69950e-03	
314	1.380384e+06	3.583170e+00,	-2.76238e-03	
315	1.412538e+06	3.583170e+00,	-2.82673e-03	
316	1.445440e+06	3.583170e+00,	-2.89257e-03	
317	1.479108e+06	3.583170e+00,	-2.95995e-03	
318	1.513561e+06	3.583170e+00,	-3.02890e-03	
319	1.548817e+06	3.583170e+00,	-3.09945e-03	
320	1.584893e+06	3.583170e+00,	-3.17165e-03	
321	1.621810e+06	3.583170e+00,	-3.24552e-03	
322	1.659587e+06	3.583170e+00,	-3.32112e-03	
323	1.698244e+06	3.583169e+00,	-3.39848e-03	
324	1.737801e+06	3.583169e+00,	-3.47764e-03	
325	1.778279e+06	3.583169e+00,	-3.55865e-03	
326	1.819701e+06	3.583169e+00,	-3.64154e-03	
327	1.862087e+06	3.583169e+00,	-3.72636e-03	
328	1.905461e+06	3.583169e+00,	-3.81316e-03	
329	1.949845e+06	3.583169e+00,	-3.90198e-03	
330	1.995262e+06	3.583169e+00,	-3.99287e-03	
331	2.041738e+06	3.583169e+00,	-4.08588e-03	
332	2.089296e+06	3.583168e+00,	-4.18106e-03	
333	2.137962e+06	3.583168e+00,	-4.27845e-03	
334	2.187762e+06	3.583168e+00,	-4.37811e-03	
335	2.238721e+06	3.583168e+00,	-4.48009e-03	
336	2.290868e+06	3.583168e+00,	-4.58444e-03	
337	2.344229e+06	3.583168e+00,	-4.69123e-03	
338	2.398833e+06	3.583168e+00,	-4.80050e-03	
339	2.454709e+06	3.583167e+00,	-4.91232e-03	
340	2.511886e+06	3.583167e+00,	-5.02675e-03	
341	2.570396e+06	3.583167e+00,	-5.14384e-03	
342	2.630268e+06	3.583167e+00,	-5.26366e-03	
343	2.691535e+06	3.583167e+00,	-5.38627e-03	
344	2.754229e+06	3.583166e+00,	-5.51173e-03	

Index   frequency       vop                             
--------------------------------------------------------------------------------
345	2.818383e+06	3.583166e+00,	-5.64012e-03	
346	2.884032e+06	3.583166e+00,	-5.77150e-03	
347	2.951209e+06	3.583166e+00,	-5.90594e-03	
348	3.019952e+06	3.583165e+00,	-6.04351e-03	
349	3.090295e+06	3.583165e+00,	-6.18429e-03	
350	3.162278e+06	3.583165e+00,	-6.32834e-03	
351	3.235937e+06	3.583164e+00,	-6.47575e-03	
352	3.311311e+06	3.583164e+00,	-6.62660e-03	
353	3.388442e+06	3.583164e+00,	-6.78096e-03	
354	3.467369e+06	3.583163e+00,	-6.93891e-03	
355	3.548134e+06	3.583163e+00,	-7.10055e-03	
356	3.630781e+06	3.583163e+00,	-7.26595e-03	
357	3.715352e+06	3.583162e+00,	-7.43520e-03	
358	3.801894e+06	3.583162e+00,	-7.60840e-03	
359	3.890451e+06	3.583161e+00,	-7.78563e-03	
360	3.981072e+06	3.583161e+00,	-7.96699e-03	
361	4.073803e+06	3.583160e+00,	-8.15257e-03	
362	4.168694e+06	3.583160e+00,	-8.34248e-03	
363	4.265795e+06	3.583159e+00,	-8.53681e-03	
364	4.365158e+06	3.583159e+00,	-8.73567e-03	
365	4.466836e+06	3.583158e+00,	-8.93916e-03	
366	4.570882e+06	3.583158e+00,	-9.14740e-03	
367	4.677351e+06	3.583157e+00,	-9.36048e-03	
368	4.786301e+06	3.583156e+00,	-9.57853e-03	
369	4.897788e+06	3.583156e+00,	-9.80166e-03	
370	5.011872e+06	3.583155e+00,	-1.00300e-02	
371	5.128614e+06	3.583154e+00,	-1.02636e-02	
372	5.248075e+06	3.583153e+00,	-1.05027e-02	
373	5.370318e+06	3.583152e+00,	-1.07474e-02	
374	5.495409e+06	3.583151e+00,	-1.09978e-02	
375	5.623413e+06	3.583151e+00,	-1.12540e-02	
376	5.754399e+06	3.583150e+00,	-1.15161e-02	
377	5.888437e+06	3.583148e+00,	-1.17844e-02	
378	6.025596e+06	3.583147e+00,	-1.20589e-02	
379	6.165950e+06	3.583146e+00,	-1.23398e-02	
380	6.309573e+06	3.583145e+00,	-1.26273e-02	
381	6.456542e+06	3.583144e+00,	-1.29215e-02	
382	6.606934e+06	3.583143e+00,	-1.32225e-02	
383	6.760830e+06	3.583141e+00,	-1.35305e-02	
384	6.918310e+06	3.583140e+00,	-1.38457e-02	
385	7.079458e+06	3.583138e+00,	-1.41683e-02	
386	7.244360e+06	3.583137e+00,	-1.44984e-02	
387	7.413102e+06	3.583135e+00,	-1.48362e-02	
388	7.585776e+06	3.583133e+00,	-1.51818e-02	
389	7.762471e+06	3.583132e+00,	-1.55355e-02	
390	7.943282e+06	3.583130e+00,	-1.58974e-02	
391	8.128305e+06	3.583128e+00,	-1.62678e-02	
392	8.317638e+06	3.583126e+00,	-1.66468e-02	
393	8.511380e+06	3.583123e+00,	-1.70347e-02	
394	8.709636e+06	3.583121e+00,	-1.74315e-02	
395	8.912509e+06	3.583119e+00,	-1.78377e-02	
396	9.120108e+06	3.583116e+00,	-1.82533e-02	
397	9.332543e+06	3.583114e+00,	-1.86786e-02	
398	9.549926e+06	3.583111e+00,	-1.91138e-02	
399	9.772372e+06	3.583108e+00,	-1.95591e-02	
400	1.000000e+07	3.583105e+00,	-2.00148e-02	
401	1.023293e+07	3.583102e+00,	-2.04812e-02	
402	1.047129e+07	3.583099e+00,	-2.09584e-02	

Index   frequency       vop                             
--------------------------------------------------------------------------------
403	1.071519e+07	3.583095e+00,	-2.14468e-02	
404	1.096478e+07	3.583092e+00,	-2.19465e-02	
405	1.122018e+07	3.583088e+00,	-2.24579e-02	
406	1.148154e+07	3.583084e+00,	-2.29812e-02	
407	1.174898e+07	3.583080e+00,	-2.35168e-02	
408	1.202264e+07	3.583075e+00,	-2.40648e-02	
409	1.230269e+07	3.583071e+00,	-2.46256e-02	
410	1.258925e+07	3.583066e+00,	-2.51995e-02	
411	1.288250e+07	3.583061e+00,	-2.57867e-02	
412	1.318257e+07	3.583056e+00,	-2.63877e-02	
413	1.348963e+07	3.583050e+00,	-2.70027e-02	
414	1.380384e+07	3.583044e+00,	-2.76320e-02	
415	1.412538e+07	3.583038e+00,	-2.82760e-02	
416	1.445440e+07	3.583032e+00,	-2.89350e-02	
