** sch_path: /home/andylithia/openmpw/project-reisen-chip1/xschem/ota_wideband.sch
AC Analysis  Sun Oct 30 16:54:48  2022
--------------------------------------------------------------------------------
Index   frequency       vop                             
--------------------------------------------------------------------------------
0	1.000000e+03	3.626967e+00,	-2.12225e-06	
1	1.023293e+03	3.626967e+00,	-2.17168e-06	
2	1.047129e+03	3.626967e+00,	-2.22227e-06	
3	1.071519e+03	3.626967e+00,	-2.27403e-06	
4	1.096478e+03	3.626967e+00,	-2.32700e-06	
5	1.122018e+03	3.626967e+00,	-2.38120e-06	
6	1.148154e+03	3.626967e+00,	-2.43667e-06	
7	1.174898e+03	3.626967e+00,	-2.49342e-06	
8	1.202264e+03	3.626967e+00,	-2.55150e-06	
9	1.230269e+03	3.626967e+00,	-2.61094e-06	
10	1.258925e+03	3.626967e+00,	-2.67175e-06	
11	1.288250e+03	3.626967e+00,	-2.73398e-06	
12	1.318257e+03	3.626967e+00,	-2.79767e-06	
13	1.348963e+03	3.626967e+00,	-2.86283e-06	
14	1.380384e+03	3.626967e+00,	-2.92952e-06	
15	1.412538e+03	3.626967e+00,	-2.99775e-06	
16	1.445440e+03	3.626967e+00,	-3.06758e-06	
17	1.479108e+03	3.626967e+00,	-3.13903e-06	
18	1.513561e+03	3.626967e+00,	-3.21215e-06	
19	1.548817e+03	3.626967e+00,	-3.28697e-06	
20	1.584893e+03	3.626967e+00,	-3.36354e-06	
21	1.621810e+03	3.626967e+00,	-3.44188e-06	
22	1.659587e+03	3.626967e+00,	-3.52205e-06	
23	1.698244e+03	3.626967e+00,	-3.60409e-06	
24	1.737801e+03	3.626967e+00,	-3.68804e-06	
25	1.778279e+03	3.626967e+00,	-3.77395e-06	
26	1.819701e+03	3.626967e+00,	-3.86186e-06	
27	1.862087e+03	3.626967e+00,	-3.95181e-06	
28	1.905461e+03	3.626967e+00,	-4.04386e-06	
29	1.949845e+03	3.626967e+00,	-4.13805e-06	
30	1.995262e+03	3.626967e+00,	-4.23444e-06	
31	2.041738e+03	3.626967e+00,	-4.33307e-06	
32	2.089296e+03	3.626967e+00,	-4.43400e-06	
33	2.137962e+03	3.626967e+00,	-4.53729e-06	
34	2.187762e+03	3.626967e+00,	-4.64297e-06	
35	2.238721e+03	3.626967e+00,	-4.75112e-06	
36	2.290868e+03	3.626967e+00,	-4.86179e-06	
37	2.344229e+03	3.626967e+00,	-4.97503e-06	
38	2.398833e+03	3.626967e+00,	-5.09092e-06	
39	2.454709e+03	3.626967e+00,	-5.20950e-06	
40	2.511886e+03	3.626967e+00,	-5.33085e-06	
41	2.570396e+03	3.626967e+00,	-5.45502e-06	
42	2.630268e+03	3.626967e+00,	-5.58208e-06	
43	2.691535e+03	3.626967e+00,	-5.71210e-06	
44	2.754229e+03	3.626967e+00,	-5.84516e-06	
45	2.818383e+03	3.626967e+00,	-5.98131e-06	
46	2.884032e+03	3.626967e+00,	-6.12063e-06	
47	2.951209e+03	3.626967e+00,	-6.26320e-06	
48	3.019952e+03	3.626967e+00,	-6.40909e-06	
49	3.090295e+03	3.626967e+00,	-6.55837e-06	
50	3.162278e+03	3.626967e+00,	-6.71114e-06	
51	3.235937e+03	3.626967e+00,	-6.86746e-06	
52	3.311311e+03	3.626967e+00,	-7.02742e-06	
53	3.388442e+03	3.626967e+00,	-7.19111e-06	
54	3.467369e+03	3.626967e+00,	-7.35862e-06	

Index   frequency       vop                             
--------------------------------------------------------------------------------
55	3.548134e+03	3.626967e+00,	-7.53002e-06	
56	3.630781e+03	3.626967e+00,	-7.70542e-06	
57	3.715352e+03	3.626967e+00,	-7.88490e-06	
58	3.801894e+03	3.626967e+00,	-8.06856e-06	
59	3.890451e+03	3.626967e+00,	-8.25650e-06	
60	3.981072e+03	3.626967e+00,	-8.44882e-06	
61	4.073803e+03	3.626967e+00,	-8.64562e-06	
62	4.168694e+03	3.626967e+00,	-8.84700e-06	
63	4.265795e+03	3.626967e+00,	-9.05307e-06	
64	4.365158e+03	3.626967e+00,	-9.26395e-06	
65	4.466836e+03	3.626967e+00,	-9.47973e-06	
66	4.570882e+03	3.626967e+00,	-9.70054e-06	
67	4.677351e+03	3.626967e+00,	-9.92650e-06	
68	4.786301e+03	3.626967e+00,	-1.01577e-05	
69	4.897788e+03	3.626967e+00,	-1.03943e-05	
70	5.011872e+03	3.626967e+00,	-1.06364e-05	
71	5.128614e+03	3.626967e+00,	-1.08842e-05	
72	5.248075e+03	3.626967e+00,	-1.11377e-05	
73	5.370318e+03	3.626967e+00,	-1.13971e-05	
74	5.495409e+03	3.626967e+00,	-1.16626e-05	
75	5.623413e+03	3.626967e+00,	-1.19343e-05	
76	5.754399e+03	3.626967e+00,	-1.22123e-05	
77	5.888437e+03	3.626967e+00,	-1.24967e-05	
78	6.025596e+03	3.626967e+00,	-1.27878e-05	
79	6.165950e+03	3.626967e+00,	-1.30857e-05	
80	6.309573e+03	3.626967e+00,	-1.33905e-05	
81	6.456542e+03	3.626967e+00,	-1.37024e-05	
82	6.606934e+03	3.626967e+00,	-1.40216e-05	
83	6.760830e+03	3.626967e+00,	-1.43482e-05	
84	6.918310e+03	3.626967e+00,	-1.46824e-05	
85	7.079458e+03	3.626967e+00,	-1.50244e-05	
86	7.244360e+03	3.626967e+00,	-1.53743e-05	
87	7.413102e+03	3.626967e+00,	-1.57324e-05	
88	7.585776e+03	3.626967e+00,	-1.60989e-05	
89	7.762471e+03	3.626967e+00,	-1.64739e-05	
90	7.943282e+03	3.626967e+00,	-1.68576e-05	
91	8.128305e+03	3.626967e+00,	-1.72503e-05	
92	8.317638e+03	3.626967e+00,	-1.76521e-05	
93	8.511380e+03	3.626967e+00,	-1.80633e-05	
94	8.709636e+03	3.626967e+00,	-1.84840e-05	
95	8.912509e+03	3.626967e+00,	-1.89146e-05	
96	9.120108e+03	3.626967e+00,	-1.93551e-05	
97	9.332543e+03	3.626967e+00,	-1.98060e-05	
98	9.549926e+03	3.626967e+00,	-2.02673e-05	
99	9.772372e+03	3.626967e+00,	-2.07394e-05	
100	1.000000e+04	3.626967e+00,	-2.12225e-05	
101	1.023293e+04	3.626967e+00,	-2.17168e-05	
102	1.047129e+04	3.626967e+00,	-2.22227e-05	
103	1.071519e+04	3.626967e+00,	-2.27403e-05	
104	1.096478e+04	3.626967e+00,	-2.32700e-05	
105	1.122018e+04	3.626967e+00,	-2.38120e-05	
106	1.148154e+04	3.626967e+00,	-2.43667e-05	
107	1.174898e+04	3.626967e+00,	-2.49342e-05	
108	1.202264e+04	3.626967e+00,	-2.55150e-05	
109	1.230269e+04	3.626967e+00,	-2.61094e-05	
110	1.258925e+04	3.626967e+00,	-2.67175e-05	
111	1.288250e+04	3.626967e+00,	-2.73398e-05	
112	1.318257e+04	3.626967e+00,	-2.79767e-05	

Index   frequency       vop                             
--------------------------------------------------------------------------------
113	1.348963e+04	3.626967e+00,	-2.86283e-05	
114	1.380384e+04	3.626967e+00,	-2.92952e-05	
115	1.412538e+04	3.626967e+00,	-2.99775e-05	
116	1.445440e+04	3.626967e+00,	-3.06758e-05	
117	1.479108e+04	3.626967e+00,	-3.13903e-05	
118	1.513561e+04	3.626967e+00,	-3.21215e-05	
119	1.548817e+04	3.626967e+00,	-3.28697e-05	
120	1.584893e+04	3.626967e+00,	-3.36354e-05	
121	1.621810e+04	3.626967e+00,	-3.44188e-05	
122	1.659587e+04	3.626967e+00,	-3.52205e-05	
123	1.698244e+04	3.626967e+00,	-3.60409e-05	
124	1.737801e+04	3.626967e+00,	-3.68804e-05	
125	1.778279e+04	3.626967e+00,	-3.77395e-05	
126	1.819701e+04	3.626967e+00,	-3.86186e-05	
127	1.862087e+04	3.626967e+00,	-3.95181e-05	
128	1.905461e+04	3.626967e+00,	-4.04386e-05	
129	1.949845e+04	3.626967e+00,	-4.13805e-05	
130	1.995262e+04	3.626967e+00,	-4.23444e-05	
131	2.041738e+04	3.626967e+00,	-4.33307e-05	
132	2.089296e+04	3.626967e+00,	-4.43400e-05	
133	2.137962e+04	3.626967e+00,	-4.53729e-05	
134	2.187762e+04	3.626967e+00,	-4.64297e-05	
135	2.238721e+04	3.626967e+00,	-4.75112e-05	
136	2.290868e+04	3.626967e+00,	-4.86179e-05	
137	2.344229e+04	3.626967e+00,	-4.97503e-05	
138	2.398833e+04	3.626967e+00,	-5.09092e-05	
139	2.454709e+04	3.626967e+00,	-5.20950e-05	
140	2.511886e+04	3.626967e+00,	-5.33085e-05	
141	2.570396e+04	3.626967e+00,	-5.45502e-05	
142	2.630268e+04	3.626967e+00,	-5.58208e-05	
143	2.691535e+04	3.626967e+00,	-5.71210e-05	
144	2.754229e+04	3.626967e+00,	-5.84516e-05	
145	2.818383e+04	3.626967e+00,	-5.98131e-05	
146	2.884032e+04	3.626967e+00,	-6.12063e-05	
147	2.951209e+04	3.626967e+00,	-6.26320e-05	
148	3.019952e+04	3.626967e+00,	-6.40909e-05	
149	3.090295e+04	3.626967e+00,	-6.55837e-05	
150	3.162278e+04	3.626967e+00,	-6.71114e-05	
151	3.235937e+04	3.626967e+00,	-6.86746e-05	
152	3.311311e+04	3.626967e+00,	-7.02742e-05	
153	3.388442e+04	3.626967e+00,	-7.19111e-05	
154	3.467369e+04	3.626967e+00,	-7.35862e-05	
155	3.548134e+04	3.626967e+00,	-7.53002e-05	
156	3.630781e+04	3.626967e+00,	-7.70542e-05	
157	3.715352e+04	3.626967e+00,	-7.88490e-05	
158	3.801894e+04	3.626967e+00,	-8.06856e-05	
159	3.890451e+04	3.626967e+00,	-8.25650e-05	
160	3.981072e+04	3.626967e+00,	-8.44882e-05	
161	4.073803e+04	3.626967e+00,	-8.64562e-05	
162	4.168694e+04	3.626967e+00,	-8.84700e-05	
163	4.265795e+04	3.626967e+00,	-9.05307e-05	
164	4.365158e+04	3.626967e+00,	-9.26395e-05	
165	4.466836e+04	3.626967e+00,	-9.47973e-05	
166	4.570882e+04	3.626967e+00,	-9.70054e-05	
167	4.677351e+04	3.626967e+00,	-9.92650e-05	
168	4.786301e+04	3.626967e+00,	-1.01577e-04	
169	4.897788e+04	3.626967e+00,	-1.03943e-04	
170	5.011872e+04	3.626967e+00,	-1.06364e-04	

Index   frequency       vop                             
--------------------------------------------------------------------------------
171	5.128614e+04	3.626967e+00,	-1.08842e-04	
172	5.248075e+04	3.626967e+00,	-1.11377e-04	
173	5.370318e+04	3.626967e+00,	-1.13971e-04	
174	5.495409e+04	3.626967e+00,	-1.16626e-04	
175	5.623413e+04	3.626967e+00,	-1.19343e-04	
176	5.754399e+04	3.626967e+00,	-1.22123e-04	
177	5.888437e+04	3.626967e+00,	-1.24967e-04	
178	6.025596e+04	3.626967e+00,	-1.27878e-04	
179	6.165950e+04	3.626967e+00,	-1.30857e-04	
180	6.309573e+04	3.626967e+00,	-1.33905e-04	
181	6.456542e+04	3.626967e+00,	-1.37024e-04	
182	6.606934e+04	3.626967e+00,	-1.40216e-04	
183	6.760830e+04	3.626967e+00,	-1.43482e-04	
184	6.918310e+04	3.626967e+00,	-1.46824e-04	
185	7.079458e+04	3.626967e+00,	-1.50244e-04	
186	7.244360e+04	3.626967e+00,	-1.53743e-04	
187	7.413102e+04	3.626967e+00,	-1.57324e-04	
188	7.585776e+04	3.626967e+00,	-1.60989e-04	
189	7.762471e+04	3.626967e+00,	-1.64739e-04	
190	7.943282e+04	3.626967e+00,	-1.68576e-04	
191	8.128305e+04	3.626967e+00,	-1.72503e-04	
192	8.317638e+04	3.626967e+00,	-1.76521e-04	
193	8.511380e+04	3.626967e+00,	-1.80633e-04	
194	8.709636e+04	3.626967e+00,	-1.84840e-04	
195	8.912509e+04	3.626967e+00,	-1.89146e-04	
196	9.120108e+04	3.626967e+00,	-1.93551e-04	
197	9.332543e+04	3.626967e+00,	-1.98060e-04	
198	9.549926e+04	3.626967e+00,	-2.02673e-04	
199	9.772372e+04	3.626967e+00,	-2.07394e-04	
200	1.000000e+05	3.626967e+00,	-2.12225e-04	
201	1.023293e+05	3.626967e+00,	-2.17168e-04	
202	1.047129e+05	3.626967e+00,	-2.22227e-04	
203	1.071519e+05	3.626967e+00,	-2.27403e-04	
204	1.096478e+05	3.626967e+00,	-2.32700e-04	
205	1.122018e+05	3.626967e+00,	-2.38120e-04	
206	1.148154e+05	3.626967e+00,	-2.43667e-04	
207	1.174898e+05	3.626967e+00,	-2.49342e-04	
208	1.202264e+05	3.626967e+00,	-2.55150e-04	
209	1.230269e+05	3.626967e+00,	-2.61094e-04	
210	1.258925e+05	3.626967e+00,	-2.67175e-04	
211	1.288250e+05	3.626967e+00,	-2.73398e-04	
212	1.318257e+05	3.626967e+00,	-2.79767e-04	
213	1.348963e+05	3.626967e+00,	-2.86283e-04	
214	1.380384e+05	3.626967e+00,	-2.92952e-04	
215	1.412538e+05	3.626967e+00,	-2.99775e-04	
216	1.445440e+05	3.626967e+00,	-3.06758e-04	
217	1.479108e+05	3.626967e+00,	-3.13903e-04	
218	1.513561e+05	3.626967e+00,	-3.21215e-04	
219	1.548817e+05	3.626967e+00,	-3.28697e-04	
220	1.584893e+05	3.626967e+00,	-3.36354e-04	
221	1.621810e+05	3.626967e+00,	-3.44188e-04	
222	1.659587e+05	3.626967e+00,	-3.52205e-04	
223	1.698244e+05	3.626967e+00,	-3.60409e-04	
224	1.737801e+05	3.626967e+00,	-3.68804e-04	
225	1.778279e+05	3.626967e+00,	-3.77395e-04	
226	1.819701e+05	3.626967e+00,	-3.86186e-04	
227	1.862087e+05	3.626967e+00,	-3.95181e-04	
228	1.905461e+05	3.626967e+00,	-4.04386e-04	

Index   frequency       vop                             
--------------------------------------------------------------------------------
229	1.949845e+05	3.626967e+00,	-4.13805e-04	
230	1.995262e+05	3.626967e+00,	-4.23444e-04	
231	2.041738e+05	3.626967e+00,	-4.33307e-04	
232	2.089296e+05	3.626967e+00,	-4.43400e-04	
233	2.137962e+05	3.626967e+00,	-4.53729e-04	
234	2.187762e+05	3.626967e+00,	-4.64297e-04	
235	2.238721e+05	3.626967e+00,	-4.75112e-04	
236	2.290868e+05	3.626967e+00,	-4.86179e-04	
237	2.344229e+05	3.626967e+00,	-4.97503e-04	
238	2.398833e+05	3.626967e+00,	-5.09092e-04	
239	2.454709e+05	3.626967e+00,	-5.20950e-04	
240	2.511886e+05	3.626967e+00,	-5.33084e-04	
241	2.570396e+05	3.626967e+00,	-5.45502e-04	
242	2.630268e+05	3.626967e+00,	-5.58208e-04	
243	2.691535e+05	3.626967e+00,	-5.71210e-04	
244	2.754229e+05	3.626967e+00,	-5.84516e-04	
245	2.818383e+05	3.626967e+00,	-5.98131e-04	
246	2.884032e+05	3.626967e+00,	-6.12063e-04	
247	2.951209e+05	3.626967e+00,	-6.26320e-04	
248	3.019952e+05	3.626967e+00,	-6.40909e-04	
249	3.090295e+05	3.626967e+00,	-6.55837e-04	
250	3.162278e+05	3.626967e+00,	-6.71114e-04	
251	3.235937e+05	3.626967e+00,	-6.86746e-04	
252	3.311311e+05	3.626967e+00,	-7.02742e-04	
253	3.388442e+05	3.626967e+00,	-7.19111e-04	
254	3.467369e+05	3.626967e+00,	-7.35861e-04	
255	3.548134e+05	3.626967e+00,	-7.53002e-04	
256	3.630781e+05	3.626967e+00,	-7.70541e-04	
257	3.715352e+05	3.626967e+00,	-7.88490e-04	
258	3.801894e+05	3.626967e+00,	-8.06856e-04	
259	3.890451e+05	3.626967e+00,	-8.25650e-04	
260	3.981072e+05	3.626967e+00,	-8.44882e-04	
261	4.073803e+05	3.626967e+00,	-8.64562e-04	
262	4.168694e+05	3.626967e+00,	-8.84700e-04	
263	4.265795e+05	3.626967e+00,	-9.05307e-04	
264	4.365158e+05	3.626967e+00,	-9.26394e-04	
265	4.466836e+05	3.626967e+00,	-9.47973e-04	
266	4.570882e+05	3.626967e+00,	-9.70054e-04	
267	4.677351e+05	3.626967e+00,	-9.92650e-04	
268	4.786301e+05	3.626967e+00,	-1.01577e-03	
269	4.897788e+05	3.626967e+00,	-1.03943e-03	
270	5.011872e+05	3.626966e+00,	-1.06364e-03	
271	5.128614e+05	3.626966e+00,	-1.08842e-03	
272	5.248075e+05	3.626966e+00,	-1.11377e-03	
273	5.370318e+05	3.626966e+00,	-1.13971e-03	
274	5.495409e+05	3.626966e+00,	-1.16626e-03	
275	5.623413e+05	3.626966e+00,	-1.19343e-03	
276	5.754399e+05	3.626966e+00,	-1.22123e-03	
277	5.888437e+05	3.626966e+00,	-1.24967e-03	
278	6.025596e+05	3.626966e+00,	-1.27878e-03	
279	6.165950e+05	3.626966e+00,	-1.30857e-03	
280	6.309573e+05	3.626966e+00,	-1.33905e-03	
281	6.456542e+05	3.626966e+00,	-1.37024e-03	
282	6.606934e+05	3.626966e+00,	-1.40215e-03	
283	6.760830e+05	3.626966e+00,	-1.43481e-03	
284	6.918310e+05	3.626966e+00,	-1.46824e-03	
285	7.079458e+05	3.626966e+00,	-1.50244e-03	
286	7.244360e+05	3.626966e+00,	-1.53743e-03	

Index   frequency       vop                             
--------------------------------------------------------------------------------
287	7.413102e+05	3.626966e+00,	-1.57324e-03	
288	7.585776e+05	3.626966e+00,	-1.60989e-03	
289	7.762471e+05	3.626966e+00,	-1.64739e-03	
290	7.943282e+05	3.626966e+00,	-1.68576e-03	
291	8.128305e+05	3.626966e+00,	-1.72503e-03	
292	8.317638e+05	3.626966e+00,	-1.76521e-03	
293	8.511380e+05	3.626966e+00,	-1.80632e-03	
294	8.709636e+05	3.626966e+00,	-1.84840e-03	
295	8.912509e+05	3.626966e+00,	-1.89145e-03	
296	9.120108e+05	3.626966e+00,	-1.93551e-03	
297	9.332543e+05	3.626966e+00,	-1.98059e-03	
298	9.549926e+05	3.626966e+00,	-2.02673e-03	
299	9.772372e+05	3.626966e+00,	-2.07394e-03	
300	1.000000e+06	3.626966e+00,	-2.12224e-03	
301	1.023293e+06	3.626966e+00,	-2.17168e-03	
302	1.047129e+06	3.626965e+00,	-2.22226e-03	
303	1.071519e+06	3.626965e+00,	-2.27403e-03	
304	1.096478e+06	3.626965e+00,	-2.32699e-03	
305	1.122018e+06	3.626965e+00,	-2.38120e-03	
306	1.148154e+06	3.626965e+00,	-2.43666e-03	
307	1.174898e+06	3.626965e+00,	-2.49342e-03	
308	1.202264e+06	3.626965e+00,	-2.55150e-03	
309	1.230269e+06	3.626965e+00,	-2.61093e-03	
310	1.258925e+06	3.626965e+00,	-2.67174e-03	
311	1.288250e+06	3.626965e+00,	-2.73398e-03	
312	1.318257e+06	3.626965e+00,	-2.79766e-03	
313	1.348963e+06	3.626965e+00,	-2.86283e-03	
314	1.380384e+06	3.626964e+00,	-2.92951e-03	
315	1.412538e+06	3.626964e+00,	-2.99775e-03	
316	1.445440e+06	3.626964e+00,	-3.06757e-03	
317	1.479108e+06	3.626964e+00,	-3.13902e-03	
318	1.513561e+06	3.626964e+00,	-3.21214e-03	
319	1.548817e+06	3.626964e+00,	-3.28696e-03	
320	1.584893e+06	3.626964e+00,	-3.36352e-03	
321	1.621810e+06	3.626964e+00,	-3.44187e-03	
322	1.659587e+06	3.626963e+00,	-3.52204e-03	
323	1.698244e+06	3.626963e+00,	-3.60408e-03	
324	1.737801e+06	3.626963e+00,	-3.68803e-03	
325	1.778279e+06	3.626963e+00,	-3.77393e-03	
326	1.819701e+06	3.626963e+00,	-3.86184e-03	
327	1.862087e+06	3.626963e+00,	-3.95179e-03	
328	1.905461e+06	3.626962e+00,	-4.04384e-03	
329	1.949845e+06	3.626962e+00,	-4.13803e-03	
330	1.995262e+06	3.626962e+00,	-4.23441e-03	
331	2.041738e+06	3.626962e+00,	-4.33304e-03	
332	2.089296e+06	3.626961e+00,	-4.43397e-03	
333	2.137962e+06	3.626961e+00,	-4.53725e-03	
334	2.187762e+06	3.626961e+00,	-4.64294e-03	
335	2.238721e+06	3.626961e+00,	-4.75108e-03	
336	2.290868e+06	3.626960e+00,	-4.86175e-03	
337	2.344229e+06	3.626960e+00,	-4.97499e-03	
338	2.398833e+06	3.626960e+00,	-5.09087e-03	
339	2.454709e+06	3.626959e+00,	-5.20945e-03	
340	2.511886e+06	3.626959e+00,	-5.33079e-03	
341	2.570396e+06	3.626959e+00,	-5.45496e-03	
342	2.630268e+06	3.626958e+00,	-5.58202e-03	
343	2.691535e+06	3.626958e+00,	-5.71204e-03	
344	2.754229e+06	3.626957e+00,	-5.84508e-03	

Index   frequency       vop                             
--------------------------------------------------------------------------------
345	2.818383e+06	3.626957e+00,	-5.98123e-03	
346	2.884032e+06	3.626957e+00,	-6.12055e-03	
347	2.951209e+06	3.626956e+00,	-6.26311e-03	
348	3.019952e+06	3.626956e+00,	-6.40899e-03	
349	3.090295e+06	3.626955e+00,	-6.55827e-03	
350	3.162278e+06	3.626954e+00,	-6.71103e-03	
351	3.235937e+06	3.626954e+00,	-6.86734e-03	
352	3.311311e+06	3.626953e+00,	-7.02730e-03	
353	3.388442e+06	3.626953e+00,	-7.19098e-03	
354	3.467369e+06	3.626952e+00,	-7.35847e-03	
355	3.548134e+06	3.626951e+00,	-7.52987e-03	
356	3.630781e+06	3.626951e+00,	-7.70525e-03	
357	3.715352e+06	3.626950e+00,	-7.88472e-03	
358	3.801894e+06	3.626949e+00,	-8.06837e-03	
359	3.890451e+06	3.626948e+00,	-8.25630e-03	
360	3.981072e+06	3.626947e+00,	-8.44860e-03	
361	4.073803e+06	3.626946e+00,	-8.64539e-03	
362	4.168694e+06	3.626945e+00,	-8.84675e-03	
363	4.265795e+06	3.626944e+00,	-9.05281e-03	
364	4.365158e+06	3.626943e+00,	-9.26366e-03	
365	4.466836e+06	3.626942e+00,	-9.47943e-03	
366	4.570882e+06	3.626941e+00,	-9.70022e-03	
367	4.677351e+06	3.626940e+00,	-9.92615e-03	
368	4.786301e+06	3.626939e+00,	-1.01573e-02	
369	4.897788e+06	3.626937e+00,	-1.03939e-02	
370	5.011872e+06	3.626936e+00,	-1.06360e-02	
371	5.128614e+06	3.626934e+00,	-1.08837e-02	
372	5.248075e+06	3.626933e+00,	-1.11372e-02	
373	5.370318e+06	3.626931e+00,	-1.13966e-02	
374	5.495409e+06	3.626930e+00,	-1.16621e-02	
375	5.623413e+06	3.626928e+00,	-1.19337e-02	
376	5.754399e+06	3.626926e+00,	-1.22116e-02	
377	5.888437e+06	3.626924e+00,	-1.24960e-02	
378	6.025596e+06	3.626922e+00,	-1.27871e-02	
379	6.165950e+06	3.626920e+00,	-1.30849e-02	
380	6.309573e+06	3.626918e+00,	-1.33896e-02	
381	6.456542e+06	3.626916e+00,	-1.37015e-02	
382	6.606934e+06	3.626913e+00,	-1.40206e-02	
383	6.760830e+06	3.626911e+00,	-1.43471e-02	
384	6.918310e+06	3.626908e+00,	-1.46812e-02	
385	7.079458e+06	3.626905e+00,	-1.50232e-02	
386	7.244360e+06	3.626902e+00,	-1.53730e-02	
387	7.413102e+06	3.626899e+00,	-1.57311e-02	
388	7.585776e+06	3.626896e+00,	-1.60974e-02	
389	7.762471e+06	3.626893e+00,	-1.64723e-02	
390	7.943282e+06	3.626889e+00,	-1.68559e-02	
391	8.128305e+06	3.626886e+00,	-1.72485e-02	
392	8.317638e+06	3.626882e+00,	-1.76501e-02	
393	8.511380e+06	3.626878e+00,	-1.80612e-02	
394	8.709636e+06	3.626874e+00,	-1.84818e-02	
395	8.912509e+06	3.626869e+00,	-1.89122e-02	
396	9.120108e+06	3.626865e+00,	-1.93526e-02	
397	9.332543e+06	3.626860e+00,	-1.98032e-02	
398	9.549926e+06	3.626855e+00,	-2.02644e-02	
399	9.772372e+06	3.626850e+00,	-2.07362e-02	
400	1.000000e+07	3.626844e+00,	-2.12191e-02	
401	1.023293e+07	3.626838e+00,	-2.17132e-02	
402	1.047129e+07	3.626832e+00,	-2.22188e-02	

Index   frequency       vop                             
--------------------------------------------------------------------------------
403	1.071519e+07	3.626826e+00,	-2.27362e-02	
404	1.096478e+07	3.626819e+00,	-2.32656e-02	
405	1.122018e+07	3.626812e+00,	-2.38073e-02	
406	1.148154e+07	3.626805e+00,	-2.43616e-02	
407	1.174898e+07	3.626798e+00,	-2.49288e-02	
408	1.202264e+07	3.626790e+00,	-2.55092e-02	
409	1.230269e+07	3.626781e+00,	-2.61031e-02	
410	1.258925e+07	3.626773e+00,	-2.67109e-02	
411	1.288250e+07	3.626764e+00,	-2.73327e-02	
412	1.318257e+07	3.626754e+00,	-2.79691e-02	
413	1.348963e+07	3.626744e+00,	-2.86202e-02	
414	1.380384e+07	3.626734e+00,	-2.92865e-02	
415	1.412538e+07	3.626723e+00,	-2.99682e-02	
416	1.445440e+07	3.626711e+00,	-3.06658e-02	
