  ** sch_path: /home/andylithia/openmpw/project-reisen-chip1/xschem/ctle_3.sch
  AC Analysis  Sun Oct 30 23:20:13  2022
--------------------------------------------------------------------------------
Index   frequency       vop                             
--------------------------------------------------------------------------------
0	1.000000e+03	1.044849e+00,	1.448065e-07	
1	1.023293e+03	1.044849e+00,	1.481795e-07	
2	1.047129e+03	1.044849e+00,	1.516310e-07	
3	1.071519e+03	1.044849e+00,	1.551629e-07	
4	1.096478e+03	1.044849e+00,	1.587771e-07	
5	1.122018e+03	1.044849e+00,	1.624755e-07	
6	1.148154e+03	1.044849e+00,	1.662601e-07	
7	1.174898e+03	1.044849e+00,	1.701328e-07	
8	1.202264e+03	1.044849e+00,	1.740957e-07	
9	1.230269e+03	1.044849e+00,	1.781509e-07	
10	1.258925e+03	1.044849e+00,	1.823006e-07	
11	1.288250e+03	1.044849e+00,	1.865469e-07	
12	1.318257e+03	1.044849e+00,	1.908921e-07	
13	1.348963e+03	1.044849e+00,	1.953386e-07	
14	1.380384e+03	1.044849e+00,	1.998886e-07	
15	1.412538e+03	1.044849e+00,	2.045446e-07	
16	1.445440e+03	1.044849e+00,	2.093090e-07	
17	1.479108e+03	1.044849e+00,	2.141845e-07	
18	1.513561e+03	1.044849e+00,	2.191735e-07	
19	1.548817e+03	1.044849e+00,	2.242787e-07	
20	1.584893e+03	1.044849e+00,	2.295028e-07	
21	1.621810e+03	1.044849e+00,	2.348486e-07	
22	1.659587e+03	1.044849e+00,	2.403189e-07	
23	1.698244e+03	1.044849e+00,	2.459167e-07	
24	1.737801e+03	1.044849e+00,	2.516448e-07	
25	1.778279e+03	1.044849e+00,	2.575064e-07	
26	1.819701e+03	1.044849e+00,	2.635045e-07	
27	1.862087e+03	1.044849e+00,	2.696423e-07	
28	1.905461e+03	1.044849e+00,	2.759231e-07	
29	1.949845e+03	1.044849e+00,	2.823501e-07	
30	1.995262e+03	1.044849e+00,	2.889269e-07	
31	2.041738e+03	1.044849e+00,	2.956569e-07	
32	2.089296e+03	1.044849e+00,	3.025436e-07	
33	2.137962e+03	1.044849e+00,	3.095908e-07	
34	2.187762e+03	1.044849e+00,	3.168021e-07	
35	2.238721e+03	1.044849e+00,	3.241813e-07	
36	2.290868e+03	1.044849e+00,	3.317325e-07	
37	2.344229e+03	1.044849e+00,	3.394595e-07	
38	2.398833e+03	1.044849e+00,	3.473665e-07	
39	2.454709e+03	1.044849e+00,	3.554577e-07	
40	2.511886e+03	1.044849e+00,	3.637374e-07	
41	2.570396e+03	1.044849e+00,	3.722100e-07	
42	2.630268e+03	1.044849e+00,	3.808798e-07	
43	2.691535e+03	1.044849e+00,	3.897517e-07	
44	2.754229e+03	1.044849e+00,	3.988302e-07	
45	2.818383e+03	1.044849e+00,	4.081201e-07	
46	2.884032e+03	1.044849e+00,	4.176264e-07	
47	2.951209e+03	1.044849e+00,	4.273542e-07	
48	3.019952e+03	1.044849e+00,	4.373086e-07	
49	3.090295e+03	1.044849e+00,	4.474948e-07	
50	3.162278e+03	1.044849e+00,	4.579183e-07	
51	3.235937e+03	1.044849e+00,	4.685846e-07	
52	3.311311e+03	1.044849e+00,	4.794993e-07	
53	3.388442e+03	1.044849e+00,	4.906683e-07	
54	3.467369e+03	1.044849e+00,	5.020974e-07	

Index   frequency       vop                             
--------------------------------------------------------------------------------
55	3.548134e+03	1.044849e+00,	5.137928e-07	
56	3.630781e+03	1.044849e+00,	5.257605e-07	
57	3.715352e+03	1.044849e+00,	5.380071e-07	
58	3.801894e+03	1.044849e+00,	5.505389e-07	
59	3.890451e+03	1.044849e+00,	5.633626e-07	
60	3.981072e+03	1.044849e+00,	5.764850e-07	
61	4.073803e+03	1.044849e+00,	5.899130e-07	
62	4.168694e+03	1.044849e+00,	6.036539e-07	
63	4.265795e+03	1.044849e+00,	6.177148e-07	
64	4.365158e+03	1.044849e+00,	6.321032e-07	
65	4.466836e+03	1.044849e+00,	6.468268e-07	
66	4.570882e+03	1.044849e+00,	6.618933e-07	
67	4.677351e+03	1.044849e+00,	6.773108e-07	
68	4.786301e+03	1.044849e+00,	6.930874e-07	
69	4.897788e+03	1.044849e+00,	7.092314e-07	
70	5.011872e+03	1.044849e+00,	7.257516e-07	
71	5.128614e+03	1.044849e+00,	7.426565e-07	
72	5.248075e+03	1.044849e+00,	7.599552e-07	
73	5.370318e+03	1.044849e+00,	7.776568e-07	
74	5.495409e+03	1.044849e+00,	7.957708e-07	
75	5.623413e+03	1.044849e+00,	8.143067e-07	
76	5.754399e+03	1.044849e+00,	8.332743e-07	
77	5.888437e+03	1.044849e+00,	8.526837e-07	
78	6.025596e+03	1.044849e+00,	8.725453e-07	
79	6.165950e+03	1.044849e+00,	8.928695e-07	
80	6.309573e+03	1.044849e+00,	9.136671e-07	
81	6.456542e+03	1.044849e+00,	9.349491e-07	
82	6.606934e+03	1.044849e+00,	9.567269e-07	
83	6.760830e+03	1.044849e+00,	9.790119e-07	
84	6.918310e+03	1.044849e+00,	1.001816e-06	
85	7.079458e+03	1.044849e+00,	1.025151e-06	
86	7.244360e+03	1.044849e+00,	1.049030e-06	
87	7.413102e+03	1.044849e+00,	1.073465e-06	
88	7.585776e+03	1.044849e+00,	1.098469e-06	
89	7.762471e+03	1.044849e+00,	1.124056e-06	
90	7.943282e+03	1.044849e+00,	1.150239e-06	
91	8.128305e+03	1.044849e+00,	1.177031e-06	
92	8.317638e+03	1.044849e+00,	1.204448e-06	
93	8.511380e+03	1.044849e+00,	1.232503e-06	
94	8.709636e+03	1.044849e+00,	1.261212e-06	
95	8.912509e+03	1.044849e+00,	1.290589e-06	
96	9.120108e+03	1.044849e+00,	1.320651e-06	
97	9.332543e+03	1.044849e+00,	1.351413e-06	
98	9.549926e+03	1.044849e+00,	1.382891e-06	
99	9.772372e+03	1.044849e+00,	1.415103e-06	
100	1.000000e+04	1.044849e+00,	1.448065e-06	
101	1.023293e+04	1.044849e+00,	1.481795e-06	
102	1.047129e+04	1.044849e+00,	1.516310e-06	
103	1.071519e+04	1.044849e+00,	1.551629e-06	
104	1.096478e+04	1.044849e+00,	1.587771e-06	
105	1.122018e+04	1.044849e+00,	1.624755e-06	
106	1.148154e+04	1.044849e+00,	1.662601e-06	
107	1.174898e+04	1.044849e+00,	1.701328e-06	
108	1.202264e+04	1.044849e+00,	1.740957e-06	
109	1.230269e+04	1.044849e+00,	1.781509e-06	
110	1.258925e+04	1.044849e+00,	1.823006e-06	
111	1.288250e+04	1.044849e+00,	1.865469e-06	
112	1.318257e+04	1.044849e+00,	1.908921e-06	

Index   frequency       vop                             
--------------------------------------------------------------------------------
113	1.348963e+04	1.044849e+00,	1.953386e-06	
114	1.380384e+04	1.044849e+00,	1.998886e-06	
115	1.412538e+04	1.044849e+00,	2.045446e-06	
116	1.445440e+04	1.044849e+00,	2.093090e-06	
117	1.479108e+04	1.044849e+00,	2.141845e-06	
118	1.513561e+04	1.044849e+00,	2.191735e-06	
119	1.548817e+04	1.044849e+00,	2.242787e-06	
120	1.584893e+04	1.044849e+00,	2.295028e-06	
121	1.621810e+04	1.044849e+00,	2.348486e-06	
122	1.659587e+04	1.044849e+00,	2.403189e-06	
123	1.698244e+04	1.044849e+00,	2.459167e-06	
124	1.737801e+04	1.044849e+00,	2.516448e-06	
125	1.778279e+04	1.044849e+00,	2.575064e-06	
126	1.819701e+04	1.044849e+00,	2.635045e-06	
127	1.862087e+04	1.044849e+00,	2.696423e-06	
128	1.905461e+04	1.044849e+00,	2.759231e-06	
129	1.949845e+04	1.044849e+00,	2.823501e-06	
130	1.995262e+04	1.044849e+00,	2.889269e-06	
131	2.041738e+04	1.044849e+00,	2.956569e-06	
132	2.089296e+04	1.044849e+00,	3.025436e-06	
133	2.137962e+04	1.044849e+00,	3.095908e-06	
134	2.187762e+04	1.044849e+00,	3.168021e-06	
135	2.238721e+04	1.044849e+00,	3.241813e-06	
136	2.290868e+04	1.044849e+00,	3.317325e-06	
137	2.344229e+04	1.044849e+00,	3.394595e-06	
138	2.398833e+04	1.044849e+00,	3.473665e-06	
139	2.454709e+04	1.044849e+00,	3.554577e-06	
140	2.511886e+04	1.044849e+00,	3.637374e-06	
141	2.570396e+04	1.044849e+00,	3.722100e-06	
142	2.630268e+04	1.044849e+00,	3.808798e-06	
143	2.691535e+04	1.044849e+00,	3.897517e-06	
144	2.754229e+04	1.044849e+00,	3.988302e-06	
145	2.818383e+04	1.044849e+00,	4.081201e-06	
146	2.884032e+04	1.044849e+00,	4.176264e-06	
147	2.951209e+04	1.044849e+00,	4.273542e-06	
148	3.019952e+04	1.044849e+00,	4.373086e-06	
149	3.090295e+04	1.044849e+00,	4.474948e-06	
150	3.162278e+04	1.044849e+00,	4.579183e-06	
151	3.235937e+04	1.044849e+00,	4.685846e-06	
152	3.311311e+04	1.044849e+00,	4.794993e-06	
153	3.388442e+04	1.044849e+00,	4.906683e-06	
154	3.467369e+04	1.044849e+00,	5.020974e-06	
155	3.548134e+04	1.044849e+00,	5.137928e-06	
156	3.630781e+04	1.044849e+00,	5.257605e-06	
157	3.715352e+04	1.044849e+00,	5.380071e-06	
158	3.801894e+04	1.044849e+00,	5.505389e-06	
159	3.890451e+04	1.044849e+00,	5.633626e-06	
160	3.981072e+04	1.044849e+00,	5.764850e-06	
161	4.073803e+04	1.044849e+00,	5.899130e-06	
162	4.168694e+04	1.044849e+00,	6.036539e-06	
163	4.265795e+04	1.044849e+00,	6.177148e-06	
164	4.365158e+04	1.044849e+00,	6.321032e-06	
165	4.466836e+04	1.044849e+00,	6.468268e-06	
166	4.570882e+04	1.044849e+00,	6.618933e-06	
167	4.677351e+04	1.044849e+00,	6.773108e-06	
168	4.786301e+04	1.044849e+00,	6.930874e-06	
169	4.897788e+04	1.044849e+00,	7.092314e-06	
170	5.011872e+04	1.044849e+00,	7.257516e-06	

Index   frequency       vop                             
--------------------------------------------------------------------------------
171	5.128614e+04	1.044849e+00,	7.426565e-06	
172	5.248075e+04	1.044849e+00,	7.599552e-06	
173	5.370318e+04	1.044849e+00,	7.776568e-06	
174	5.495409e+04	1.044849e+00,	7.957708e-06	
175	5.623413e+04	1.044849e+00,	8.143067e-06	
176	5.754399e+04	1.044849e+00,	8.332743e-06	
177	5.888437e+04	1.044849e+00,	8.526837e-06	
178	6.025596e+04	1.044849e+00,	8.725453e-06	
179	6.165950e+04	1.044849e+00,	8.928695e-06	
180	6.309573e+04	1.044849e+00,	9.136671e-06	
181	6.456542e+04	1.044849e+00,	9.349491e-06	
182	6.606934e+04	1.044849e+00,	9.567269e-06	
183	6.760830e+04	1.044849e+00,	9.790119e-06	
184	6.918310e+04	1.044849e+00,	1.001816e-05	
185	7.079458e+04	1.044849e+00,	1.025151e-05	
186	7.244360e+04	1.044849e+00,	1.049030e-05	
187	7.413102e+04	1.044849e+00,	1.073465e-05	
188	7.585776e+04	1.044849e+00,	1.098469e-05	
189	7.762471e+04	1.044849e+00,	1.124056e-05	
190	7.943282e+04	1.044849e+00,	1.150239e-05	
191	8.128305e+04	1.044849e+00,	1.177031e-05	
192	8.317638e+04	1.044849e+00,	1.204448e-05	
193	8.511380e+04	1.044849e+00,	1.232503e-05	
194	8.709636e+04	1.044849e+00,	1.261212e-05	
195	8.912509e+04	1.044849e+00,	1.290589e-05	
196	9.120108e+04	1.044849e+00,	1.320651e-05	
197	9.332543e+04	1.044849e+00,	1.351413e-05	
198	9.549926e+04	1.044849e+00,	1.382891e-05	
199	9.772372e+04	1.044849e+00,	1.415103e-05	
200	1.000000e+05	1.044849e+00,	1.448065e-05	
201	1.023293e+05	1.044849e+00,	1.481795e-05	
202	1.047129e+05	1.044849e+00,	1.516310e-05	
203	1.071519e+05	1.044849e+00,	1.551629e-05	
204	1.096478e+05	1.044849e+00,	1.587771e-05	
205	1.122018e+05	1.044849e+00,	1.624755e-05	
206	1.148154e+05	1.044849e+00,	1.662601e-05	
207	1.174898e+05	1.044849e+00,	1.701328e-05	
208	1.202264e+05	1.044849e+00,	1.740957e-05	
209	1.230269e+05	1.044849e+00,	1.781509e-05	
210	1.258925e+05	1.044849e+00,	1.823006e-05	
211	1.288250e+05	1.044849e+00,	1.865469e-05	
212	1.318257e+05	1.044849e+00,	1.908921e-05	
213	1.348963e+05	1.044849e+00,	1.953386e-05	
214	1.380384e+05	1.044849e+00,	1.998886e-05	
215	1.412538e+05	1.044849e+00,	2.045446e-05	
216	1.445440e+05	1.044849e+00,	2.093090e-05	
217	1.479108e+05	1.044849e+00,	2.141845e-05	
218	1.513561e+05	1.044849e+00,	2.191735e-05	
219	1.548817e+05	1.044849e+00,	2.242787e-05	
220	1.584893e+05	1.044849e+00,	2.295028e-05	
221	1.621810e+05	1.044849e+00,	2.348486e-05	
222	1.659587e+05	1.044849e+00,	2.403189e-05	
223	1.698244e+05	1.044849e+00,	2.459167e-05	
224	1.737801e+05	1.044849e+00,	2.516448e-05	
225	1.778279e+05	1.044849e+00,	2.575064e-05	
226	1.819701e+05	1.044849e+00,	2.635045e-05	
227	1.862087e+05	1.044849e+00,	2.696423e-05	
228	1.905461e+05	1.044849e+00,	2.759230e-05	

Index   frequency       vop                             
--------------------------------------------------------------------------------
229	1.949845e+05	1.044849e+00,	2.823501e-05	
230	1.995262e+05	1.044849e+00,	2.889269e-05	
231	2.041738e+05	1.044849e+00,	2.956569e-05	
232	2.089296e+05	1.044849e+00,	3.025436e-05	
233	2.137962e+05	1.044849e+00,	3.095907e-05	
234	2.187762e+05	1.044849e+00,	3.168020e-05	
235	2.238721e+05	1.044849e+00,	3.241813e-05	
236	2.290868e+05	1.044849e+00,	3.317325e-05	
237	2.344229e+05	1.044849e+00,	3.394595e-05	
238	2.398833e+05	1.044849e+00,	3.473665e-05	
239	2.454709e+05	1.044849e+00,	3.554577e-05	
240	2.511886e+05	1.044849e+00,	3.637374e-05	
241	2.570396e+05	1.044849e+00,	3.722099e-05	
242	2.630268e+05	1.044849e+00,	3.808798e-05	
243	2.691535e+05	1.044849e+00,	3.897517e-05	
244	2.754229e+05	1.044849e+00,	3.988301e-05	
245	2.818383e+05	1.044849e+00,	4.081201e-05	
246	2.884032e+05	1.044849e+00,	4.176264e-05	
247	2.951209e+05	1.044849e+00,	4.273542e-05	
248	3.019952e+05	1.044849e+00,	4.373085e-05	
249	3.090295e+05	1.044849e+00,	4.474948e-05	
250	3.162278e+05	1.044849e+00,	4.579183e-05	
251	3.235937e+05	1.044849e+00,	4.685845e-05	
252	3.311311e+05	1.044849e+00,	4.794993e-05	
253	3.388442e+05	1.044849e+00,	4.906683e-05	
254	3.467369e+05	1.044849e+00,	5.020974e-05	
255	3.548134e+05	1.044849e+00,	5.137927e-05	
256	3.630781e+05	1.044849e+00,	5.257605e-05	
257	3.715352e+05	1.044849e+00,	5.380070e-05	
258	3.801894e+05	1.044849e+00,	5.505388e-05	
259	3.890451e+05	1.044849e+00,	5.633625e-05	
260	3.981072e+05	1.044849e+00,	5.764849e-05	
261	4.073803e+05	1.044849e+00,	5.899130e-05	
262	4.168694e+05	1.044849e+00,	6.036538e-05	
263	4.265795e+05	1.044849e+00,	6.177147e-05	
264	4.365158e+05	1.044849e+00,	6.321031e-05	
265	4.466836e+05	1.044849e+00,	6.468267e-05	
266	4.570882e+05	1.044849e+00,	6.618932e-05	
267	4.677351e+05	1.044849e+00,	6.773107e-05	
268	4.786301e+05	1.044849e+00,	6.930873e-05	
269	4.897788e+05	1.044849e+00,	7.092314e-05	
270	5.011872e+05	1.044849e+00,	7.257515e-05	
271	5.128614e+05	1.044849e+00,	7.426564e-05	
272	5.248075e+05	1.044849e+00,	7.599551e-05	
273	5.370318e+05	1.044849e+00,	7.776567e-05	
274	5.495409e+05	1.044849e+00,	7.957707e-05	
275	5.623413e+05	1.044849e+00,	8.143065e-05	
276	5.754399e+05	1.044849e+00,	8.332742e-05	
277	5.888437e+05	1.044849e+00,	8.526836e-05	
278	6.025596e+05	1.044849e+00,	8.725451e-05	
279	6.165950e+05	1.044849e+00,	8.928693e-05	
280	6.309573e+05	1.044849e+00,	9.136669e-05	
281	6.456542e+05	1.044849e+00,	9.349489e-05	
282	6.606934e+05	1.044849e+00,	9.567267e-05	
283	6.760830e+05	1.044849e+00,	9.790117e-05	
284	6.918310e+05	1.044849e+00,	1.001816e-04	
285	7.079458e+05	1.044849e+00,	1.025151e-04	
286	7.244360e+05	1.044849e+00,	1.049030e-04	

Index   frequency       vop                             
--------------------------------------------------------------------------------
287	7.413102e+05	1.044849e+00,	1.073465e-04	
288	7.585776e+05	1.044849e+00,	1.098469e-04	
289	7.762471e+05	1.044849e+00,	1.124056e-04	
290	7.943282e+05	1.044849e+00,	1.150238e-04	
291	8.128305e+05	1.044849e+00,	1.177031e-04	
292	8.317638e+05	1.044849e+00,	1.204447e-04	
293	8.511380e+05	1.044849e+00,	1.232503e-04	
294	8.709636e+05	1.044849e+00,	1.261211e-04	
295	8.912509e+05	1.044849e+00,	1.290589e-04	
296	9.120108e+05	1.044849e+00,	1.320650e-04	
297	9.332543e+05	1.044849e+00,	1.351412e-04	
298	9.549926e+05	1.044849e+00,	1.382890e-04	
299	9.772372e+05	1.044849e+00,	1.415102e-04	
300	1.000000e+06	1.044849e+00,	1.448064e-04	
301	1.023293e+06	1.044849e+00,	1.481794e-04	
302	1.047129e+06	1.044849e+00,	1.516309e-04	
303	1.071519e+06	1.044849e+00,	1.551628e-04	
304	1.096478e+06	1.044849e+00,	1.587771e-04	
305	1.122018e+06	1.044849e+00,	1.624754e-04	
306	1.148154e+06	1.044849e+00,	1.662600e-04	
307	1.174898e+06	1.044849e+00,	1.701327e-04	
308	1.202264e+06	1.044849e+00,	1.740956e-04	
309	1.230269e+06	1.044849e+00,	1.781508e-04	
310	1.258925e+06	1.044849e+00,	1.823004e-04	
311	1.288250e+06	1.044849e+00,	1.865467e-04	
312	1.318257e+06	1.044849e+00,	1.908920e-04	
313	1.348963e+06	1.044849e+00,	1.953384e-04	
314	1.380384e+06	1.044849e+00,	1.998884e-04	
315	1.412538e+06	1.044849e+00,	2.045444e-04	
316	1.445440e+06	1.044849e+00,	2.093088e-04	
317	1.479108e+06	1.044849e+00,	2.141842e-04	
318	1.513561e+06	1.044849e+00,	2.191732e-04	
319	1.548817e+06	1.044849e+00,	2.242784e-04	
320	1.584893e+06	1.044849e+00,	2.295025e-04	
321	1.621810e+06	1.044849e+00,	2.348483e-04	
322	1.659587e+06	1.044849e+00,	2.403186e-04	
323	1.698244e+06	1.044849e+00,	2.459163e-04	
324	1.737801e+06	1.044849e+00,	2.516444e-04	
325	1.778279e+06	1.044849e+00,	2.575060e-04	
326	1.819701e+06	1.044849e+00,	2.635040e-04	
327	1.862087e+06	1.044849e+00,	2.696418e-04	
328	1.905461e+06	1.044850e+00,	2.759226e-04	
329	1.949845e+06	1.044850e+00,	2.823496e-04	
330	1.995262e+06	1.044850e+00,	2.889263e-04	
331	2.041738e+06	1.044850e+00,	2.956563e-04	
332	2.089296e+06	1.044850e+00,	3.025430e-04	
333	2.137962e+06	1.044850e+00,	3.095901e-04	
334	2.187762e+06	1.044850e+00,	3.168013e-04	
335	2.238721e+06	1.044850e+00,	3.241805e-04	
336	2.290868e+06	1.044850e+00,	3.317316e-04	
337	2.344229e+06	1.044850e+00,	3.394586e-04	
338	2.398833e+06	1.044850e+00,	3.473656e-04	
339	2.454709e+06	1.044850e+00,	3.554567e-04	
340	2.511886e+06	1.044850e+00,	3.637363e-04	
341	2.570396e+06	1.044850e+00,	3.722088e-04	
342	2.630268e+06	1.044850e+00,	3.808786e-04	
343	2.691535e+06	1.044850e+00,	3.897503e-04	
344	2.754229e+06	1.044850e+00,	3.988287e-04	

Index   frequency       vop                             
--------------------------------------------------------------------------------
345	2.818383e+06	1.044850e+00,	4.081185e-04	
346	2.884032e+06	1.044850e+00,	4.176247e-04	
347	2.951209e+06	1.044850e+00,	4.273524e-04	
348	3.019952e+06	1.044850e+00,	4.373066e-04	
349	3.090295e+06	1.044850e+00,	4.474927e-04	
350	3.162278e+06	1.044850e+00,	4.579161e-04	
351	3.235937e+06	1.044850e+00,	4.685822e-04	
352	3.311311e+06	1.044850e+00,	4.794968e-04	
353	3.388442e+06	1.044850e+00,	4.906655e-04	
354	3.467369e+06	1.044850e+00,	5.020945e-04	
355	3.548134e+06	1.044850e+00,	5.137896e-04	
356	3.630781e+06	1.044851e+00,	5.257572e-04	
357	3.715352e+06	1.044851e+00,	5.380035e-04	
358	3.801894e+06	1.044851e+00,	5.505350e-04	
359	3.890451e+06	1.044851e+00,	5.633584e-04	
360	3.981072e+06	1.044851e+00,	5.764805e-04	
361	4.073803e+06	1.044851e+00,	5.899083e-04	
362	4.168694e+06	1.044851e+00,	6.036488e-04	
363	4.265795e+06	1.044851e+00,	6.177093e-04	
364	4.365158e+06	1.044851e+00,	6.320973e-04	
365	4.466836e+06	1.044851e+00,	6.468205e-04	
366	4.570882e+06	1.044851e+00,	6.618866e-04	
367	4.677351e+06	1.044851e+00,	6.773036e-04	
368	4.786301e+06	1.044852e+00,	6.930796e-04	
369	4.897788e+06	1.044852e+00,	7.092232e-04	
370	5.011872e+06	1.044852e+00,	7.257427e-04	
371	5.128614e+06	1.044852e+00,	7.426470e-04	
372	5.248075e+06	1.044852e+00,	7.599450e-04	
373	5.370318e+06	1.044852e+00,	7.776459e-04	
374	5.495409e+06	1.044852e+00,	7.957591e-04	
375	5.623413e+06	1.044852e+00,	8.142941e-04	
376	5.754399e+06	1.044853e+00,	8.332609e-04	
377	5.888437e+06	1.044853e+00,	8.526694e-04	
378	6.025596e+06	1.044853e+00,	8.725299e-04	
379	6.165950e+06	1.044853e+00,	8.928530e-04	
380	6.309573e+06	1.044853e+00,	9.136494e-04	
381	6.456542e+06	1.044853e+00,	9.349302e-04	
382	6.606934e+06	1.044854e+00,	9.567066e-04	
383	6.760830e+06	1.044854e+00,	9.789902e-04	
384	6.918310e+06	1.044854e+00,	1.001793e-03	
385	7.079458e+06	1.044854e+00,	1.025126e-03	
386	7.244360e+06	1.044855e+00,	1.049003e-03	
387	7.413102e+06	1.044855e+00,	1.073437e-03	
388	7.585776e+06	1.044855e+00,	1.098439e-03	
389	7.762471e+06	1.044855e+00,	1.124023e-03	
390	7.943282e+06	1.044856e+00,	1.150203e-03	
391	8.128305e+06	1.044856e+00,	1.176993e-03	
392	8.317638e+06	1.044856e+00,	1.204407e-03	
393	8.511380e+06	1.044857e+00,	1.232460e-03	
394	8.709636e+06	1.044857e+00,	1.261165e-03	
395	8.912509e+06	1.044857e+00,	1.290539e-03	
396	9.120108e+06	1.044858e+00,	1.320597e-03	
397	9.332543e+06	1.044858e+00,	1.351355e-03	
398	9.549926e+06	1.044859e+00,	1.382830e-03	
399	9.772372e+06	1.044859e+00,	1.415037e-03	
400	1.000000e+07	1.044860e+00,	1.447994e-03	
401	1.023293e+07	1.044860e+00,	1.481719e-03	
402	1.047129e+07	1.044861e+00,	1.516229e-03	

Index   frequency       vop                             
--------------------------------------------------------------------------------
403	1.071519e+07	1.044861e+00,	1.551543e-03	
404	1.096478e+07	1.044862e+00,	1.587679e-03	
405	1.122018e+07	1.044862e+00,	1.624656e-03	
406	1.148154e+07	1.044863e+00,	1.662494e-03	
407	1.174898e+07	1.044863e+00,	1.701214e-03	
408	1.202264e+07	1.044864e+00,	1.740834e-03	
409	1.230269e+07	1.044865e+00,	1.781378e-03	
410	1.258925e+07	1.044866e+00,	1.822865e-03	
411	1.288250e+07	1.044866e+00,	1.865318e-03	
412	1.318257e+07	1.044867e+00,	1.908760e-03	
413	1.348963e+07	1.044868e+00,	1.953213e-03	
414	1.380384e+07	1.044869e+00,	1.998701e-03	
415	1.412538e+07	1.044870e+00,	2.045247e-03	
416	1.445440e+07	1.044871e+00,	2.092878e-03	
