  ** sch_path: /home/andylithia/openmpw/project-reisen-chip1/xschem/ctle_3.sch
  AC Analysis  Sun Oct 30 23:20:13  2022
--------------------------------------------------------------------------------
Index   frequency       vop                             
--------------------------------------------------------------------------------
0	1.000000e+03	8.718111e-01,	2.354932e-07	
1	1.023293e+03	8.718111e-01,	2.409785e-07	
2	1.047129e+03	8.718111e-01,	2.465916e-07	
3	1.071519e+03	8.718111e-01,	2.523355e-07	
4	1.096478e+03	8.718111e-01,	2.582131e-07	
5	1.122018e+03	8.718111e-01,	2.642277e-07	
6	1.148154e+03	8.718111e-01,	2.703824e-07	
7	1.174898e+03	8.718111e-01,	2.766804e-07	
8	1.202264e+03	8.718111e-01,	2.831251e-07	
9	1.230269e+03	8.718111e-01,	2.897199e-07	
10	1.258925e+03	8.718111e-01,	2.964684e-07	
11	1.288250e+03	8.718111e-01,	3.033740e-07	
12	1.318257e+03	8.718111e-01,	3.104405e-07	
13	1.348963e+03	8.718111e-01,	3.176716e-07	
14	1.380384e+03	8.718111e-01,	3.250711e-07	
15	1.412538e+03	8.718111e-01,	3.326430e-07	
16	1.445440e+03	8.718111e-01,	3.403912e-07	
17	1.479108e+03	8.718111e-01,	3.483199e-07	
18	1.513561e+03	8.718111e-01,	3.564334e-07	
19	1.548817e+03	8.718111e-01,	3.647358e-07	
20	1.584893e+03	8.718111e-01,	3.732315e-07	
21	1.621810e+03	8.718111e-01,	3.819252e-07	
22	1.659587e+03	8.718111e-01,	3.908214e-07	
23	1.698244e+03	8.718111e-01,	3.999248e-07	
24	1.737801e+03	8.718111e-01,	4.092403e-07	
25	1.778279e+03	8.718111e-01,	4.187727e-07	
26	1.819701e+03	8.718111e-01,	4.285271e-07	
27	1.862087e+03	8.718111e-01,	4.385088e-07	
28	1.905461e+03	8.718111e-01,	4.487230e-07	
29	1.949845e+03	8.718111e-01,	4.591751e-07	
30	1.995262e+03	8.718111e-01,	4.698707e-07	
31	2.041738e+03	8.718111e-01,	4.808154e-07	
32	2.089296e+03	8.718111e-01,	4.920150e-07	
33	2.137962e+03	8.718111e-01,	5.034755e-07	
34	2.187762e+03	8.718111e-01,	5.152030e-07	
35	2.238721e+03	8.718111e-01,	5.272036e-07	
36	2.290868e+03	8.718111e-01,	5.394837e-07	
37	2.344229e+03	8.718111e-01,	5.520499e-07	
38	2.398833e+03	8.718111e-01,	5.649088e-07	
39	2.454709e+03	8.718111e-01,	5.780672e-07	
40	2.511886e+03	8.718111e-01,	5.915321e-07	
41	2.570396e+03	8.718111e-01,	6.053107e-07	
42	2.630268e+03	8.718111e-01,	6.194102e-07	
43	2.691535e+03	8.718111e-01,	6.338381e-07	
44	2.754229e+03	8.718111e-01,	6.486021e-07	
45	2.818383e+03	8.718111e-01,	6.637100e-07	
46	2.884032e+03	8.718111e-01,	6.791698e-07	
47	2.951209e+03	8.718111e-01,	6.949897e-07	
48	3.019952e+03	8.718111e-01,	7.111780e-07	
49	3.090295e+03	8.718111e-01,	7.277435e-07	
50	3.162278e+03	8.718111e-01,	7.446948e-07	
51	3.235937e+03	8.718111e-01,	7.620410e-07	
52	3.311311e+03	8.718111e-01,	7.797912e-07	
53	3.388442e+03	8.718111e-01,	7.979549e-07	
54	3.467369e+03	8.718111e-01,	8.165417e-07	

Index   frequency       vop                             
--------------------------------------------------------------------------------
55	3.548134e+03	8.718111e-01,	8.355613e-07	
56	3.630781e+03	8.718111e-01,	8.550241e-07	
57	3.715352e+03	8.718111e-01,	8.749401e-07	
58	3.801894e+03	8.718111e-01,	8.953201e-07	
59	3.890451e+03	8.718111e-01,	9.161748e-07	
60	3.981072e+03	8.718111e-01,	9.375153e-07	
61	4.073803e+03	8.718111e-01,	9.593528e-07	
62	4.168694e+03	8.718111e-01,	9.816990e-07	
63	4.265795e+03	8.718111e-01,	1.004566e-06	
64	4.365158e+03	8.718111e-01,	1.027965e-06	
65	4.466836e+03	8.718111e-01,	1.051909e-06	
66	4.570882e+03	8.718111e-01,	1.076412e-06	
67	4.677351e+03	8.718111e-01,	1.101484e-06	
68	4.786301e+03	8.718111e-01,	1.127141e-06	
69	4.897788e+03	8.718111e-01,	1.153396e-06	
70	5.011872e+03	8.718111e-01,	1.180262e-06	
71	5.128614e+03	8.718111e-01,	1.207754e-06	
72	5.248075e+03	8.718111e-01,	1.235886e-06	
73	5.370318e+03	8.718111e-01,	1.264673e-06	
74	5.495409e+03	8.718111e-01,	1.294131e-06	
75	5.623413e+03	8.718111e-01,	1.324275e-06	
76	5.754399e+03	8.718111e-01,	1.355122e-06	
77	5.888437e+03	8.718111e-01,	1.386687e-06	
78	6.025596e+03	8.718111e-01,	1.418987e-06	
79	6.165950e+03	8.718111e-01,	1.452039e-06	
80	6.309573e+03	8.718111e-01,	1.485862e-06	
81	6.456542e+03	8.718111e-01,	1.520472e-06	
82	6.606934e+03	8.718111e-01,	1.555888e-06	
83	6.760830e+03	8.718111e-01,	1.592129e-06	
84	6.918310e+03	8.718111e-01,	1.629215e-06	
85	7.079458e+03	8.718111e-01,	1.667164e-06	
86	7.244360e+03	8.718111e-01,	1.705997e-06	
87	7.413102e+03	8.718111e-01,	1.745735e-06	
88	7.585776e+03	8.718111e-01,	1.786398e-06	
89	7.762471e+03	8.718111e-01,	1.828009e-06	
90	7.943282e+03	8.718111e-01,	1.870589e-06	
91	8.128305e+03	8.718111e-01,	1.914160e-06	
92	8.317638e+03	8.718111e-01,	1.958747e-06	
93	8.511380e+03	8.718111e-01,	2.004372e-06	
94	8.709636e+03	8.718111e-01,	2.051060e-06	
95	8.912509e+03	8.718111e-01,	2.098835e-06	
96	9.120108e+03	8.718111e-01,	2.147723e-06	
97	9.332543e+03	8.718111e-01,	2.197750e-06	
98	9.549926e+03	8.718111e-01,	2.248942e-06	
99	9.772372e+03	8.718111e-01,	2.301327e-06	
100	1.000000e+04	8.718111e-01,	2.354932e-06	
101	1.023293e+04	8.718111e-01,	2.409785e-06	
102	1.047129e+04	8.718111e-01,	2.465916e-06	
103	1.071519e+04	8.718111e-01,	2.523355e-06	
104	1.096478e+04	8.718111e-01,	2.582131e-06	
105	1.122018e+04	8.718111e-01,	2.642277e-06	
106	1.148154e+04	8.718111e-01,	2.703824e-06	
107	1.174898e+04	8.718111e-01,	2.766804e-06	
108	1.202264e+04	8.718111e-01,	2.831251e-06	
109	1.230269e+04	8.718111e-01,	2.897199e-06	
110	1.258925e+04	8.718111e-01,	2.964684e-06	
111	1.288250e+04	8.718111e-01,	3.033740e-06	
112	1.318257e+04	8.718111e-01,	3.104405e-06	

Index   frequency       vop                             
--------------------------------------------------------------------------------
113	1.348963e+04	8.718111e-01,	3.176716e-06	
114	1.380384e+04	8.718111e-01,	3.250711e-06	
115	1.412538e+04	8.718111e-01,	3.326430e-06	
116	1.445440e+04	8.718111e-01,	3.403912e-06	
117	1.479108e+04	8.718111e-01,	3.483199e-06	
118	1.513561e+04	8.718111e-01,	3.564334e-06	
119	1.548817e+04	8.718111e-01,	3.647358e-06	
120	1.584893e+04	8.718111e-01,	3.732315e-06	
121	1.621810e+04	8.718111e-01,	3.819252e-06	
122	1.659587e+04	8.718111e-01,	3.908214e-06	
123	1.698244e+04	8.718111e-01,	3.999248e-06	
124	1.737801e+04	8.718111e-01,	4.092403e-06	
125	1.778279e+04	8.718111e-01,	4.187727e-06	
126	1.819701e+04	8.718111e-01,	4.285271e-06	
127	1.862087e+04	8.718111e-01,	4.385088e-06	
128	1.905461e+04	8.718111e-01,	4.487230e-06	
129	1.949845e+04	8.718111e-01,	4.591751e-06	
130	1.995262e+04	8.718111e-01,	4.698707e-06	
131	2.041738e+04	8.718111e-01,	4.808154e-06	
132	2.089296e+04	8.718111e-01,	4.920150e-06	
133	2.137962e+04	8.718111e-01,	5.034755e-06	
134	2.187762e+04	8.718111e-01,	5.152030e-06	
135	2.238721e+04	8.718111e-01,	5.272036e-06	
136	2.290868e+04	8.718111e-01,	5.394837e-06	
137	2.344229e+04	8.718111e-01,	5.520499e-06	
138	2.398833e+04	8.718111e-01,	5.649088e-06	
139	2.454709e+04	8.718111e-01,	5.780672e-06	
140	2.511886e+04	8.718111e-01,	5.915321e-06	
141	2.570396e+04	8.718111e-01,	6.053107e-06	
142	2.630268e+04	8.718111e-01,	6.194102e-06	
143	2.691535e+04	8.718111e-01,	6.338381e-06	
144	2.754229e+04	8.718111e-01,	6.486021e-06	
145	2.818383e+04	8.718111e-01,	6.637100e-06	
146	2.884032e+04	8.718111e-01,	6.791698e-06	
147	2.951209e+04	8.718111e-01,	6.949897e-06	
148	3.019952e+04	8.718111e-01,	7.111780e-06	
149	3.090295e+04	8.718111e-01,	7.277435e-06	
150	3.162278e+04	8.718111e-01,	7.446948e-06	
151	3.235937e+04	8.718111e-01,	7.620410e-06	
152	3.311311e+04	8.718111e-01,	7.797912e-06	
153	3.388442e+04	8.718111e-01,	7.979549e-06	
154	3.467369e+04	8.718111e-01,	8.165417e-06	
155	3.548134e+04	8.718111e-01,	8.355613e-06	
156	3.630781e+04	8.718111e-01,	8.550241e-06	
157	3.715352e+04	8.718111e-01,	8.749401e-06	
158	3.801894e+04	8.718111e-01,	8.953201e-06	
159	3.890451e+04	8.718111e-01,	9.161748e-06	
160	3.981072e+04	8.718111e-01,	9.375153e-06	
161	4.073803e+04	8.718111e-01,	9.593528e-06	
162	4.168694e+04	8.718111e-01,	9.816990e-06	
163	4.265795e+04	8.718111e-01,	1.004566e-05	
164	4.365158e+04	8.718111e-01,	1.027965e-05	
165	4.466836e+04	8.718111e-01,	1.051909e-05	
166	4.570882e+04	8.718111e-01,	1.076412e-05	
167	4.677351e+04	8.718111e-01,	1.101484e-05	
168	4.786301e+04	8.718111e-01,	1.127141e-05	
169	4.897788e+04	8.718111e-01,	1.153396e-05	
170	5.011872e+04	8.718111e-01,	1.180262e-05	

Index   frequency       vop                             
--------------------------------------------------------------------------------
171	5.128614e+04	8.718111e-01,	1.207754e-05	
172	5.248075e+04	8.718111e-01,	1.235886e-05	
173	5.370318e+04	8.718111e-01,	1.264673e-05	
174	5.495409e+04	8.718111e-01,	1.294131e-05	
175	5.623413e+04	8.718111e-01,	1.324275e-05	
176	5.754399e+04	8.718111e-01,	1.355122e-05	
177	5.888437e+04	8.718111e-01,	1.386687e-05	
178	6.025596e+04	8.718111e-01,	1.418987e-05	
179	6.165950e+04	8.718111e-01,	1.452039e-05	
180	6.309573e+04	8.718111e-01,	1.485862e-05	
181	6.456542e+04	8.718111e-01,	1.520472e-05	
182	6.606934e+04	8.718111e-01,	1.555888e-05	
183	6.760830e+04	8.718111e-01,	1.592129e-05	
184	6.918310e+04	8.718111e-01,	1.629215e-05	
185	7.079458e+04	8.718111e-01,	1.667164e-05	
186	7.244360e+04	8.718111e-01,	1.705997e-05	
187	7.413102e+04	8.718111e-01,	1.745735e-05	
188	7.585776e+04	8.718111e-01,	1.786398e-05	
189	7.762471e+04	8.718111e-01,	1.828009e-05	
190	7.943282e+04	8.718111e-01,	1.870589e-05	
191	8.128305e+04	8.718111e-01,	1.914160e-05	
192	8.317638e+04	8.718111e-01,	1.958747e-05	
193	8.511380e+04	8.718111e-01,	2.004372e-05	
194	8.709636e+04	8.718111e-01,	2.051060e-05	
195	8.912509e+04	8.718111e-01,	2.098835e-05	
196	9.120108e+04	8.718111e-01,	2.147723e-05	
197	9.332543e+04	8.718111e-01,	2.197750e-05	
198	9.549926e+04	8.718111e-01,	2.248942e-05	
199	9.772372e+04	8.718111e-01,	2.301327e-05	
200	1.000000e+05	8.718111e-01,	2.354932e-05	
201	1.023293e+05	8.718111e-01,	2.409785e-05	
202	1.047129e+05	8.718111e-01,	2.465916e-05	
203	1.071519e+05	8.718111e-01,	2.523355e-05	
204	1.096478e+05	8.718111e-01,	2.582131e-05	
205	1.122018e+05	8.718111e-01,	2.642277e-05	
206	1.148154e+05	8.718111e-01,	2.703824e-05	
207	1.174898e+05	8.718111e-01,	2.766804e-05	
208	1.202264e+05	8.718111e-01,	2.831251e-05	
209	1.230269e+05	8.718111e-01,	2.897199e-05	
210	1.258925e+05	8.718111e-01,	2.964684e-05	
211	1.288250e+05	8.718111e-01,	3.033740e-05	
212	1.318257e+05	8.718111e-01,	3.104405e-05	
213	1.348963e+05	8.718111e-01,	3.176716e-05	
214	1.380384e+05	8.718111e-01,	3.250711e-05	
215	1.412538e+05	8.718111e-01,	3.326430e-05	
216	1.445440e+05	8.718111e-01,	3.403912e-05	
217	1.479108e+05	8.718111e-01,	3.483199e-05	
218	1.513561e+05	8.718111e-01,	3.564334e-05	
219	1.548817e+05	8.718111e-01,	3.647358e-05	
220	1.584893e+05	8.718111e-01,	3.732315e-05	
221	1.621810e+05	8.718111e-01,	3.819252e-05	
222	1.659587e+05	8.718111e-01,	3.908214e-05	
223	1.698244e+05	8.718111e-01,	3.999248e-05	
224	1.737801e+05	8.718111e-01,	4.092402e-05	
225	1.778279e+05	8.718111e-01,	4.187727e-05	
226	1.819701e+05	8.718111e-01,	4.285271e-05	
227	1.862087e+05	8.718111e-01,	4.385088e-05	
228	1.905461e+05	8.718111e-01,	4.487230e-05	

Index   frequency       vop                             
--------------------------------------------------------------------------------
229	1.949845e+05	8.718111e-01,	4.591751e-05	
230	1.995262e+05	8.718111e-01,	4.698707e-05	
231	2.041738e+05	8.718111e-01,	4.808154e-05	
232	2.089296e+05	8.718111e-01,	4.920150e-05	
233	2.137962e+05	8.718111e-01,	5.034755e-05	
234	2.187762e+05	8.718111e-01,	5.152029e-05	
235	2.238721e+05	8.718111e-01,	5.272036e-05	
236	2.290868e+05	8.718111e-01,	5.394837e-05	
237	2.344229e+05	8.718111e-01,	5.520499e-05	
238	2.398833e+05	8.718111e-01,	5.649088e-05	
239	2.454709e+05	8.718111e-01,	5.780672e-05	
240	2.511886e+05	8.718111e-01,	5.915321e-05	
241	2.570396e+05	8.718111e-01,	6.053107e-05	
242	2.630268e+05	8.718111e-01,	6.194102e-05	
243	2.691535e+05	8.718111e-01,	6.338381e-05	
244	2.754229e+05	8.718111e-01,	6.486021e-05	
245	2.818383e+05	8.718111e-01,	6.637099e-05	
246	2.884032e+05	8.718111e-01,	6.791697e-05	
247	2.951209e+05	8.718111e-01,	6.949896e-05	
248	3.019952e+05	8.718111e-01,	7.111780e-05	
249	3.090295e+05	8.718111e-01,	7.277435e-05	
250	3.162278e+05	8.718111e-01,	7.446948e-05	
251	3.235937e+05	8.718111e-01,	7.620410e-05	
252	3.311311e+05	8.718111e-01,	7.797912e-05	
253	3.388442e+05	8.718111e-01,	7.979549e-05	
254	3.467369e+05	8.718111e-01,	8.165416e-05	
255	3.548134e+05	8.718111e-01,	8.355613e-05	
256	3.630781e+05	8.718111e-01,	8.550240e-05	
257	3.715352e+05	8.718111e-01,	8.749401e-05	
258	3.801894e+05	8.718111e-01,	8.953201e-05	
259	3.890451e+05	8.718111e-01,	9.161747e-05	
260	3.981072e+05	8.718111e-01,	9.375152e-05	
261	4.073803e+05	8.718111e-01,	9.593527e-05	
262	4.168694e+05	8.718111e-01,	9.816989e-05	
263	4.265795e+05	8.718111e-01,	1.004566e-04	
264	4.365158e+05	8.718111e-01,	1.027965e-04	
265	4.466836e+05	8.718111e-01,	1.051909e-04	
266	4.570882e+05	8.718111e-01,	1.076411e-04	
267	4.677351e+05	8.718111e-01,	1.101484e-04	
268	4.786301e+05	8.718111e-01,	1.127141e-04	
269	4.897788e+05	8.718111e-01,	1.153396e-04	
270	5.011872e+05	8.718111e-01,	1.180262e-04	
271	5.128614e+05	8.718111e-01,	1.207753e-04	
272	5.248075e+05	8.718111e-01,	1.235886e-04	
273	5.370318e+05	8.718111e-01,	1.264673e-04	
274	5.495409e+05	8.718111e-01,	1.294131e-04	
275	5.623413e+05	8.718111e-01,	1.324275e-04	
276	5.754399e+05	8.718111e-01,	1.355122e-04	
277	5.888437e+05	8.718111e-01,	1.386686e-04	
278	6.025596e+05	8.718111e-01,	1.418987e-04	
279	6.165950e+05	8.718111e-01,	1.452039e-04	
280	6.309573e+05	8.718111e-01,	1.485861e-04	
281	6.456542e+05	8.718111e-01,	1.520471e-04	
282	6.606934e+05	8.718111e-01,	1.555888e-04	
283	6.760830e+05	8.718111e-01,	1.592129e-04	
284	6.918310e+05	8.718112e-01,	1.629214e-04	
285	7.079458e+05	8.718112e-01,	1.667164e-04	
286	7.244360e+05	8.718112e-01,	1.705997e-04	

Index   frequency       vop                             
--------------------------------------------------------------------------------
287	7.413102e+05	8.718112e-01,	1.745735e-04	
288	7.585776e+05	8.718112e-01,	1.786398e-04	
289	7.762471e+05	8.718112e-01,	1.828009e-04	
290	7.943282e+05	8.718112e-01,	1.870588e-04	
291	8.128305e+05	8.718112e-01,	1.914160e-04	
292	8.317638e+05	8.718112e-01,	1.958746e-04	
293	8.511380e+05	8.718112e-01,	2.004371e-04	
294	8.709636e+05	8.718112e-01,	2.051059e-04	
295	8.912509e+05	8.718112e-01,	2.098835e-04	
296	9.120108e+05	8.718112e-01,	2.147723e-04	
297	9.332543e+05	8.718112e-01,	2.197749e-04	
298	9.549926e+05	8.718112e-01,	2.248942e-04	
299	9.772372e+05	8.718112e-01,	2.301326e-04	
300	1.000000e+06	8.718112e-01,	2.354931e-04	
301	1.023293e+06	8.718112e-01,	2.409784e-04	
302	1.047129e+06	8.718112e-01,	2.465915e-04	
303	1.071519e+06	8.718112e-01,	2.523354e-04	
304	1.096478e+06	8.718113e-01,	2.582130e-04	
305	1.122018e+06	8.718113e-01,	2.642276e-04	
306	1.148154e+06	8.718113e-01,	2.703822e-04	
307	1.174898e+06	8.718113e-01,	2.766802e-04	
308	1.202264e+06	8.718113e-01,	2.831249e-04	
309	1.230269e+06	8.718113e-01,	2.897197e-04	
310	1.258925e+06	8.718113e-01,	2.964682e-04	
311	1.288250e+06	8.718113e-01,	3.033738e-04	
312	1.318257e+06	8.718113e-01,	3.104403e-04	
313	1.348963e+06	8.718113e-01,	3.176713e-04	
314	1.380384e+06	8.718114e-01,	3.250708e-04	
315	1.412538e+06	8.718114e-01,	3.326427e-04	
316	1.445440e+06	8.718114e-01,	3.403909e-04	
317	1.479108e+06	8.718114e-01,	3.483196e-04	
318	1.513561e+06	8.718114e-01,	3.564330e-04	
319	1.548817e+06	8.718114e-01,	3.647354e-04	
320	1.584893e+06	8.718114e-01,	3.732312e-04	
321	1.621810e+06	8.718115e-01,	3.819248e-04	
322	1.659587e+06	8.718115e-01,	3.908210e-04	
323	1.698244e+06	8.718115e-01,	3.999243e-04	
324	1.737801e+06	8.718115e-01,	4.092397e-04	
325	1.778279e+06	8.718115e-01,	4.187721e-04	
326	1.819701e+06	8.718116e-01,	4.285266e-04	
327	1.862087e+06	8.718116e-01,	4.385082e-04	
328	1.905461e+06	8.718116e-01,	4.487223e-04	
329	1.949845e+06	8.718116e-01,	4.591744e-04	
330	1.995262e+06	8.718117e-01,	4.698699e-04	
331	2.041738e+06	8.718117e-01,	4.808146e-04	
332	2.089296e+06	8.718117e-01,	4.920141e-04	
333	2.137962e+06	8.718118e-01,	5.034746e-04	
334	2.187762e+06	8.718118e-01,	5.152019e-04	
335	2.238721e+06	8.718118e-01,	5.272025e-04	
336	2.290868e+06	8.718118e-01,	5.394826e-04	
337	2.344229e+06	8.718119e-01,	5.520487e-04	
338	2.398833e+06	8.718119e-01,	5.649075e-04	
339	2.454709e+06	8.718120e-01,	5.780658e-04	
340	2.511886e+06	8.718120e-01,	5.915306e-04	
341	2.570396e+06	8.718120e-01,	6.053091e-04	
342	2.630268e+06	8.718121e-01,	6.194084e-04	
343	2.691535e+06	8.718121e-01,	6.338362e-04	
344	2.754229e+06	8.718122e-01,	6.486001e-04	

Index   frequency       vop                             
--------------------------------------------------------------------------------
345	2.818383e+06	8.718122e-01,	6.637078e-04	
346	2.884032e+06	8.718123e-01,	6.791675e-04	
347	2.951209e+06	8.718124e-01,	6.949872e-04	
348	3.019952e+06	8.718124e-01,	7.111754e-04	
349	3.090295e+06	8.718125e-01,	7.277407e-04	
350	3.162278e+06	8.718125e-01,	7.446918e-04	
351	3.235937e+06	8.718126e-01,	7.620377e-04	
352	3.311311e+06	8.718127e-01,	7.797877e-04	
353	3.388442e+06	8.718128e-01,	7.979511e-04	
354	3.467369e+06	8.718128e-01,	8.165376e-04	
355	3.548134e+06	8.718129e-01,	8.355570e-04	
356	3.630781e+06	8.718130e-01,	8.550195e-04	
357	3.715352e+06	8.718131e-01,	8.749352e-04	
358	3.801894e+06	8.718132e-01,	8.953148e-04	
359	3.890451e+06	8.718133e-01,	9.161691e-04	
360	3.981072e+06	8.718134e-01,	9.375092e-04	
361	4.073803e+06	8.718135e-01,	9.593463e-04	
362	4.168694e+06	8.718136e-01,	9.816920e-04	
363	4.265795e+06	8.718137e-01,	1.004558e-03	
364	4.365158e+06	8.718139e-01,	1.027957e-03	
365	4.466836e+06	8.718140e-01,	1.051901e-03	
366	4.570882e+06	8.718141e-01,	1.076402e-03	
367	4.677351e+06	8.718143e-01,	1.101475e-03	
368	4.786301e+06	8.718144e-01,	1.127131e-03	
369	4.897788e+06	8.718146e-01,	1.153384e-03	
370	5.011872e+06	8.718148e-01,	1.180250e-03	
371	5.128614e+06	8.718149e-01,	1.207741e-03	
372	5.248075e+06	8.718151e-01,	1.235872e-03	
373	5.370318e+06	8.718153e-01,	1.264658e-03	
374	5.495409e+06	8.718155e-01,	1.294115e-03	
375	5.623413e+06	8.718157e-01,	1.324258e-03	
376	5.754399e+06	8.718159e-01,	1.355103e-03	
377	5.888437e+06	8.718162e-01,	1.386667e-03	
378	6.025596e+06	8.718164e-01,	1.418966e-03	
379	6.165950e+06	8.718166e-01,	1.452017e-03	
380	6.309573e+06	8.718169e-01,	1.485837e-03	
381	6.456542e+06	8.718172e-01,	1.520446e-03	
382	6.606934e+06	8.718175e-01,	1.555860e-03	
383	6.760830e+06	8.718178e-01,	1.592100e-03	
384	6.918310e+06	8.718181e-01,	1.629183e-03	
385	7.079458e+06	8.718184e-01,	1.667130e-03	
386	7.244360e+06	8.718188e-01,	1.705961e-03	
387	7.413102e+06	8.718191e-01,	1.745696e-03	
388	7.585776e+06	8.718195e-01,	1.786356e-03	
389	7.762471e+06	8.718199e-01,	1.827964e-03	
390	7.943282e+06	8.718203e-01,	1.870541e-03	
391	8.128305e+06	8.718207e-01,	1.914109e-03	
392	8.317638e+06	8.718212e-01,	1.958692e-03	
393	8.511380e+06	8.718217e-01,	2.004313e-03	
394	8.709636e+06	8.718222e-01,	2.050996e-03	
395	8.912509e+06	8.718227e-01,	2.098767e-03	
396	9.120108e+06	8.718232e-01,	2.147650e-03	
397	9.332543e+06	8.718238e-01,	2.197672e-03	
398	9.549926e+06	8.718244e-01,	2.248859e-03	
399	9.772372e+06	8.718251e-01,	2.301237e-03	
400	1.000000e+07	8.718257e-01,	2.354835e-03	
401	1.023293e+07	8.718264e-01,	2.409682e-03	
402	1.047129e+07	8.718271e-01,	2.465806e-03	

Index   frequency       vop                             
--------------------------------------------------------------------------------
403	1.071519e+07	8.718279e-01,	2.523236e-03	
404	1.096478e+07	8.718287e-01,	2.582004e-03	
405	1.122018e+07	8.718295e-01,	2.642141e-03	
406	1.148154e+07	8.718304e-01,	2.703678e-03	
407	1.174898e+07	8.718313e-01,	2.766647e-03	
408	1.202264e+07	8.718322e-01,	2.831083e-03	
409	1.230269e+07	8.718332e-01,	2.897020e-03	
410	1.258925e+07	8.718343e-01,	2.964491e-03	
411	1.288250e+07	8.718354e-01,	3.033534e-03	
412	1.318257e+07	8.718365e-01,	3.104184e-03	
413	1.348963e+07	8.718377e-01,	3.176479e-03	
414	1.380384e+07	8.718390e-01,	3.250457e-03	
415	1.412538e+07	8.718403e-01,	3.326158e-03	
416	1.445440e+07	8.718416e-01,	3.403621e-03	
