** sch_path: /home/andylithia/openmpw/project-reisen-chip1/xschem/ota_wideband.sch
AC Analysis  Sun Oct 30 17:11:03  2022
--------------------------------------------------------------------------------
Index   frequency       vop                             
--------------------------------------------------------------------------------
0	1.000000e+03	3.561390e+00,	-1.97972e-06	
1	1.023293e+03	3.561390e+00,	-2.02583e-06	
2	1.047129e+03	3.561390e+00,	-2.07302e-06	
3	1.071519e+03	3.561390e+00,	-2.12131e-06	
4	1.096478e+03	3.561390e+00,	-2.17072e-06	
5	1.122018e+03	3.561390e+00,	-2.22128e-06	
6	1.148154e+03	3.561390e+00,	-2.27302e-06	
7	1.174898e+03	3.561390e+00,	-2.32597e-06	
8	1.202264e+03	3.561390e+00,	-2.38014e-06	
9	1.230269e+03	3.561390e+00,	-2.43558e-06	
10	1.258925e+03	3.561390e+00,	-2.49232e-06	
11	1.288250e+03	3.561390e+00,	-2.55037e-06	
12	1.318257e+03	3.561390e+00,	-2.60978e-06	
13	1.348963e+03	3.561390e+00,	-2.67057e-06	
14	1.380384e+03	3.561390e+00,	-2.73277e-06	
15	1.412538e+03	3.561390e+00,	-2.79643e-06	
16	1.445440e+03	3.561390e+00,	-2.86156e-06	
17	1.479108e+03	3.561390e+00,	-2.92822e-06	
18	1.513561e+03	3.561390e+00,	-2.99642e-06	
19	1.548817e+03	3.561390e+00,	-3.06622e-06	
20	1.584893e+03	3.561390e+00,	-3.13764e-06	
21	1.621810e+03	3.561390e+00,	-3.21073e-06	
22	1.659587e+03	3.561390e+00,	-3.28551e-06	
23	1.698244e+03	3.561390e+00,	-3.36204e-06	
24	1.737801e+03	3.561390e+00,	-3.44036e-06	
25	1.778279e+03	3.561390e+00,	-3.52049e-06	
26	1.819701e+03	3.561390e+00,	-3.60249e-06	
27	1.862087e+03	3.561390e+00,	-3.68641e-06	
28	1.905461e+03	3.561390e+00,	-3.77227e-06	
29	1.949845e+03	3.561390e+00,	-3.86014e-06	
30	1.995262e+03	3.561390e+00,	-3.95006e-06	
31	2.041738e+03	3.561390e+00,	-4.04206e-06	
32	2.089296e+03	3.561390e+00,	-4.13622e-06	
33	2.137962e+03	3.561390e+00,	-4.23256e-06	
34	2.187762e+03	3.561390e+00,	-4.33115e-06	
35	2.238721e+03	3.561390e+00,	-4.43204e-06	
36	2.290868e+03	3.561390e+00,	-4.53527e-06	
37	2.344229e+03	3.561390e+00,	-4.64091e-06	
38	2.398833e+03	3.561390e+00,	-4.74901e-06	
39	2.454709e+03	3.561390e+00,	-4.85963e-06	
40	2.511886e+03	3.561390e+00,	-4.97283e-06	
41	2.570396e+03	3.561390e+00,	-5.08866e-06	
42	2.630268e+03	3.561390e+00,	-5.20719e-06	
43	2.691535e+03	3.561390e+00,	-5.32848e-06	
44	2.754229e+03	3.561390e+00,	-5.45260e-06	
45	2.818383e+03	3.561390e+00,	-5.57960e-06	
46	2.884032e+03	3.561390e+00,	-5.70957e-06	
47	2.951209e+03	3.561390e+00,	-5.84256e-06	
48	3.019952e+03	3.561390e+00,	-5.97865e-06	
49	3.090295e+03	3.561390e+00,	-6.11791e-06	
50	3.162278e+03	3.561390e+00,	-6.26042e-06	
51	3.235937e+03	3.561390e+00,	-6.40624e-06	
52	3.311311e+03	3.561390e+00,	-6.55546e-06	
53	3.388442e+03	3.561390e+00,	-6.70816e-06	
54	3.467369e+03	3.561390e+00,	-6.86441e-06	

Index   frequency       vop                             
--------------------------------------------------------------------------------
55	3.548134e+03	3.561390e+00,	-7.02430e-06	
56	3.630781e+03	3.561390e+00,	-7.18792e-06	
57	3.715352e+03	3.561390e+00,	-7.35535e-06	
58	3.801894e+03	3.561390e+00,	-7.52668e-06	
59	3.890451e+03	3.561390e+00,	-7.70200e-06	
60	3.981072e+03	3.561390e+00,	-7.88140e-06	
61	4.073803e+03	3.561390e+00,	-8.06498e-06	
62	4.168694e+03	3.561390e+00,	-8.25284e-06	
63	4.265795e+03	3.561390e+00,	-8.44507e-06	
64	4.365158e+03	3.561390e+00,	-8.64178e-06	
65	4.466836e+03	3.561390e+00,	-8.84307e-06	
66	4.570882e+03	3.561390e+00,	-9.04906e-06	
67	4.677351e+03	3.561390e+00,	-9.25984e-06	
68	4.786301e+03	3.561390e+00,	-9.47552e-06	
69	4.897788e+03	3.561390e+00,	-9.69624e-06	
70	5.011872e+03	3.561390e+00,	-9.92209e-06	
71	5.128614e+03	3.561390e+00,	-1.01532e-05	
72	5.248075e+03	3.561390e+00,	-1.03897e-05	
73	5.370318e+03	3.561390e+00,	-1.06317e-05	
74	5.495409e+03	3.561390e+00,	-1.08794e-05	
75	5.623413e+03	3.561390e+00,	-1.11328e-05	
76	5.754399e+03	3.561390e+00,	-1.13921e-05	
77	5.888437e+03	3.561390e+00,	-1.16574e-05	
78	6.025596e+03	3.561390e+00,	-1.19290e-05	
79	6.165950e+03	3.561390e+00,	-1.22068e-05	
80	6.309573e+03	3.561390e+00,	-1.24912e-05	
81	6.456542e+03	3.561390e+00,	-1.27821e-05	
82	6.606934e+03	3.561390e+00,	-1.30799e-05	
83	6.760830e+03	3.561390e+00,	-1.33845e-05	
84	6.918310e+03	3.561390e+00,	-1.36963e-05	
85	7.079458e+03	3.561390e+00,	-1.40153e-05	
86	7.244360e+03	3.561390e+00,	-1.43418e-05	
87	7.413102e+03	3.561390e+00,	-1.46759e-05	
88	7.585776e+03	3.561390e+00,	-1.50177e-05	
89	7.762471e+03	3.561390e+00,	-1.53675e-05	
90	7.943282e+03	3.561390e+00,	-1.57255e-05	
91	8.128305e+03	3.561390e+00,	-1.60918e-05	
92	8.317638e+03	3.561390e+00,	-1.64666e-05	
93	8.511380e+03	3.561390e+00,	-1.68501e-05	
94	8.709636e+03	3.561390e+00,	-1.72426e-05	
95	8.912509e+03	3.561390e+00,	-1.76443e-05	
96	9.120108e+03	3.561390e+00,	-1.80552e-05	
97	9.332543e+03	3.561390e+00,	-1.84758e-05	
98	9.549926e+03	3.561390e+00,	-1.89062e-05	
99	9.772372e+03	3.561390e+00,	-1.93465e-05	
100	1.000000e+04	3.561390e+00,	-1.97972e-05	
101	1.023293e+04	3.561390e+00,	-2.02583e-05	
102	1.047129e+04	3.561390e+00,	-2.07302e-05	
103	1.071519e+04	3.561390e+00,	-2.12131e-05	
104	1.096478e+04	3.561390e+00,	-2.17072e-05	
105	1.122018e+04	3.561390e+00,	-2.22128e-05	
106	1.148154e+04	3.561390e+00,	-2.27302e-05	
107	1.174898e+04	3.561390e+00,	-2.32597e-05	
108	1.202264e+04	3.561390e+00,	-2.38014e-05	
109	1.230269e+04	3.561390e+00,	-2.43558e-05	
110	1.258925e+04	3.561390e+00,	-2.49232e-05	
111	1.288250e+04	3.561390e+00,	-2.55037e-05	
112	1.318257e+04	3.561390e+00,	-2.60978e-05	

Index   frequency       vop                             
--------------------------------------------------------------------------------
113	1.348963e+04	3.561390e+00,	-2.67057e-05	
114	1.380384e+04	3.561390e+00,	-2.73277e-05	
115	1.412538e+04	3.561390e+00,	-2.79643e-05	
116	1.445440e+04	3.561390e+00,	-2.86156e-05	
117	1.479108e+04	3.561390e+00,	-2.92822e-05	
118	1.513561e+04	3.561390e+00,	-2.99642e-05	
119	1.548817e+04	3.561390e+00,	-3.06622e-05	
120	1.584893e+04	3.561390e+00,	-3.13764e-05	
121	1.621810e+04	3.561390e+00,	-3.21073e-05	
122	1.659587e+04	3.561390e+00,	-3.28551e-05	
123	1.698244e+04	3.561390e+00,	-3.36204e-05	
124	1.737801e+04	3.561390e+00,	-3.44036e-05	
125	1.778279e+04	3.561390e+00,	-3.52049e-05	
126	1.819701e+04	3.561390e+00,	-3.60249e-05	
127	1.862087e+04	3.561390e+00,	-3.68641e-05	
128	1.905461e+04	3.561390e+00,	-3.77227e-05	
129	1.949845e+04	3.561390e+00,	-3.86014e-05	
130	1.995262e+04	3.561390e+00,	-3.95006e-05	
131	2.041738e+04	3.561390e+00,	-4.04206e-05	
132	2.089296e+04	3.561390e+00,	-4.13622e-05	
133	2.137962e+04	3.561390e+00,	-4.23256e-05	
134	2.187762e+04	3.561390e+00,	-4.33115e-05	
135	2.238721e+04	3.561390e+00,	-4.43204e-05	
136	2.290868e+04	3.561390e+00,	-4.53527e-05	
137	2.344229e+04	3.561390e+00,	-4.64091e-05	
138	2.398833e+04	3.561390e+00,	-4.74901e-05	
139	2.454709e+04	3.561390e+00,	-4.85963e-05	
140	2.511886e+04	3.561390e+00,	-4.97283e-05	
141	2.570396e+04	3.561390e+00,	-5.08866e-05	
142	2.630268e+04	3.561390e+00,	-5.20719e-05	
143	2.691535e+04	3.561390e+00,	-5.32848e-05	
144	2.754229e+04	3.561390e+00,	-5.45260e-05	
145	2.818383e+04	3.561390e+00,	-5.57960e-05	
146	2.884032e+04	3.561390e+00,	-5.70957e-05	
147	2.951209e+04	3.561390e+00,	-5.84256e-05	
148	3.019952e+04	3.561390e+00,	-5.97865e-05	
149	3.090295e+04	3.561390e+00,	-6.11791e-05	
150	3.162278e+04	3.561390e+00,	-6.26042e-05	
151	3.235937e+04	3.561390e+00,	-6.40624e-05	
152	3.311311e+04	3.561390e+00,	-6.55546e-05	
153	3.388442e+04	3.561390e+00,	-6.70816e-05	
154	3.467369e+04	3.561390e+00,	-6.86441e-05	
155	3.548134e+04	3.561390e+00,	-7.02430e-05	
156	3.630781e+04	3.561390e+00,	-7.18792e-05	
157	3.715352e+04	3.561390e+00,	-7.35535e-05	
158	3.801894e+04	3.561390e+00,	-7.52668e-05	
159	3.890451e+04	3.561390e+00,	-7.70200e-05	
160	3.981072e+04	3.561390e+00,	-7.88140e-05	
161	4.073803e+04	3.561390e+00,	-8.06498e-05	
162	4.168694e+04	3.561390e+00,	-8.25284e-05	
163	4.265795e+04	3.561390e+00,	-8.44507e-05	
164	4.365158e+04	3.561390e+00,	-8.64178e-05	
165	4.466836e+04	3.561390e+00,	-8.84307e-05	
166	4.570882e+04	3.561390e+00,	-9.04906e-05	
167	4.677351e+04	3.561390e+00,	-9.25984e-05	
168	4.786301e+04	3.561390e+00,	-9.47552e-05	
169	4.897788e+04	3.561390e+00,	-9.69624e-05	
170	5.011872e+04	3.561390e+00,	-9.92209e-05	

Index   frequency       vop                             
--------------------------------------------------------------------------------
171	5.128614e+04	3.561390e+00,	-1.01532e-04	
172	5.248075e+04	3.561390e+00,	-1.03897e-04	
173	5.370318e+04	3.561390e+00,	-1.06317e-04	
174	5.495409e+04	3.561390e+00,	-1.08794e-04	
175	5.623413e+04	3.561390e+00,	-1.11328e-04	
176	5.754399e+04	3.561390e+00,	-1.13921e-04	
177	5.888437e+04	3.561390e+00,	-1.16574e-04	
178	6.025596e+04	3.561390e+00,	-1.19290e-04	
179	6.165950e+04	3.561390e+00,	-1.22068e-04	
180	6.309573e+04	3.561390e+00,	-1.24912e-04	
181	6.456542e+04	3.561390e+00,	-1.27821e-04	
182	6.606934e+04	3.561390e+00,	-1.30799e-04	
183	6.760830e+04	3.561390e+00,	-1.33845e-04	
184	6.918310e+04	3.561390e+00,	-1.36963e-04	
185	7.079458e+04	3.561390e+00,	-1.40153e-04	
186	7.244360e+04	3.561390e+00,	-1.43418e-04	
187	7.413102e+04	3.561390e+00,	-1.46759e-04	
188	7.585776e+04	3.561390e+00,	-1.50177e-04	
189	7.762471e+04	3.561390e+00,	-1.53675e-04	
190	7.943282e+04	3.561390e+00,	-1.57255e-04	
191	8.128305e+04	3.561390e+00,	-1.60917e-04	
192	8.317638e+04	3.561390e+00,	-1.64666e-04	
193	8.511380e+04	3.561390e+00,	-1.68501e-04	
194	8.709636e+04	3.561390e+00,	-1.72426e-04	
195	8.912509e+04	3.561390e+00,	-1.76443e-04	
196	9.120108e+04	3.561390e+00,	-1.80552e-04	
197	9.332543e+04	3.561390e+00,	-1.84758e-04	
198	9.549926e+04	3.561390e+00,	-1.89062e-04	
199	9.772372e+04	3.561390e+00,	-1.93465e-04	
200	1.000000e+05	3.561390e+00,	-1.97972e-04	
201	1.023293e+05	3.561390e+00,	-2.02583e-04	
202	1.047129e+05	3.561390e+00,	-2.07302e-04	
203	1.071519e+05	3.561390e+00,	-2.12131e-04	
204	1.096478e+05	3.561390e+00,	-2.17072e-04	
205	1.122018e+05	3.561390e+00,	-2.22128e-04	
206	1.148154e+05	3.561390e+00,	-2.27302e-04	
207	1.174898e+05	3.561390e+00,	-2.32597e-04	
208	1.202264e+05	3.561390e+00,	-2.38014e-04	
209	1.230269e+05	3.561390e+00,	-2.43558e-04	
210	1.258925e+05	3.561390e+00,	-2.49232e-04	
211	1.288250e+05	3.561390e+00,	-2.55037e-04	
212	1.318257e+05	3.561390e+00,	-2.60978e-04	
213	1.348963e+05	3.561390e+00,	-2.67057e-04	
214	1.380384e+05	3.561390e+00,	-2.73277e-04	
215	1.412538e+05	3.561390e+00,	-2.79643e-04	
216	1.445440e+05	3.561390e+00,	-2.86156e-04	
217	1.479108e+05	3.561390e+00,	-2.92822e-04	
218	1.513561e+05	3.561390e+00,	-2.99642e-04	
219	1.548817e+05	3.561390e+00,	-3.06622e-04	
220	1.584893e+05	3.561390e+00,	-3.13764e-04	
221	1.621810e+05	3.561390e+00,	-3.21073e-04	
222	1.659587e+05	3.561390e+00,	-3.28551e-04	
223	1.698244e+05	3.561390e+00,	-3.36204e-04	
224	1.737801e+05	3.561390e+00,	-3.44035e-04	
225	1.778279e+05	3.561390e+00,	-3.52049e-04	
226	1.819701e+05	3.561390e+00,	-3.60249e-04	
227	1.862087e+05	3.561390e+00,	-3.68641e-04	
228	1.905461e+05	3.561390e+00,	-3.77227e-04	

Index   frequency       vop                             
--------------------------------------------------------------------------------
229	1.949845e+05	3.561390e+00,	-3.86014e-04	
230	1.995262e+05	3.561390e+00,	-3.95006e-04	
231	2.041738e+05	3.561390e+00,	-4.04206e-04	
232	2.089296e+05	3.561390e+00,	-4.13622e-04	
233	2.137962e+05	3.561390e+00,	-4.23256e-04	
234	2.187762e+05	3.561390e+00,	-4.33115e-04	
235	2.238721e+05	3.561390e+00,	-4.43204e-04	
236	2.290868e+05	3.561390e+00,	-4.53527e-04	
237	2.344229e+05	3.561390e+00,	-4.64091e-04	
238	2.398833e+05	3.561390e+00,	-4.74901e-04	
239	2.454709e+05	3.561390e+00,	-4.85963e-04	
240	2.511886e+05	3.561390e+00,	-4.97283e-04	
241	2.570396e+05	3.561390e+00,	-5.08866e-04	
242	2.630268e+05	3.561390e+00,	-5.20719e-04	
243	2.691535e+05	3.561390e+00,	-5.32848e-04	
244	2.754229e+05	3.561390e+00,	-5.45259e-04	
245	2.818383e+05	3.561390e+00,	-5.57960e-04	
246	2.884032e+05	3.561390e+00,	-5.70957e-04	
247	2.951209e+05	3.561390e+00,	-5.84256e-04	
248	3.019952e+05	3.561390e+00,	-5.97865e-04	
249	3.090295e+05	3.561390e+00,	-6.11791e-04	
250	3.162278e+05	3.561390e+00,	-6.26042e-04	
251	3.235937e+05	3.561390e+00,	-6.40624e-04	
252	3.311311e+05	3.561390e+00,	-6.55546e-04	
253	3.388442e+05	3.561390e+00,	-6.70816e-04	
254	3.467369e+05	3.561390e+00,	-6.86441e-04	
255	3.548134e+05	3.561390e+00,	-7.02430e-04	
256	3.630781e+05	3.561390e+00,	-7.18792e-04	
257	3.715352e+05	3.561389e+00,	-7.35535e-04	
258	3.801894e+05	3.561389e+00,	-7.52667e-04	
259	3.890451e+05	3.561389e+00,	-7.70199e-04	
260	3.981072e+05	3.561389e+00,	-7.88140e-04	
261	4.073803e+05	3.561389e+00,	-8.06498e-04	
262	4.168694e+05	3.561389e+00,	-8.25283e-04	
263	4.265795e+05	3.561389e+00,	-8.44507e-04	
264	4.365158e+05	3.561389e+00,	-8.64178e-04	
265	4.466836e+05	3.561389e+00,	-8.84307e-04	
266	4.570882e+05	3.561389e+00,	-9.04905e-04	
267	4.677351e+05	3.561389e+00,	-9.25983e-04	
268	4.786301e+05	3.561389e+00,	-9.47552e-04	
269	4.897788e+05	3.561389e+00,	-9.69623e-04	
270	5.011872e+05	3.561389e+00,	-9.92209e-04	
271	5.128614e+05	3.561389e+00,	-1.01532e-03	
272	5.248075e+05	3.561389e+00,	-1.03897e-03	
273	5.370318e+05	3.561389e+00,	-1.06317e-03	
274	5.495409e+05	3.561389e+00,	-1.08794e-03	
275	5.623413e+05	3.561389e+00,	-1.11328e-03	
276	5.754399e+05	3.561389e+00,	-1.13921e-03	
277	5.888437e+05	3.561389e+00,	-1.16574e-03	
278	6.025596e+05	3.561389e+00,	-1.19290e-03	
279	6.165950e+05	3.561389e+00,	-1.22068e-03	
280	6.309573e+05	3.561389e+00,	-1.24912e-03	
281	6.456542e+05	3.561389e+00,	-1.27821e-03	
282	6.606934e+05	3.561389e+00,	-1.30799e-03	
283	6.760830e+05	3.561389e+00,	-1.33845e-03	
284	6.918310e+05	3.561389e+00,	-1.36963e-03	
285	7.079458e+05	3.561389e+00,	-1.40153e-03	
286	7.244360e+05	3.561389e+00,	-1.43418e-03	

Index   frequency       vop                             
--------------------------------------------------------------------------------
287	7.413102e+05	3.561389e+00,	-1.46758e-03	
288	7.585776e+05	3.561389e+00,	-1.50177e-03	
289	7.762471e+05	3.561389e+00,	-1.53675e-03	
290	7.943282e+05	3.561389e+00,	-1.57254e-03	
291	8.128305e+05	3.561389e+00,	-1.60917e-03	
292	8.317638e+05	3.561389e+00,	-1.64666e-03	
293	8.511380e+05	3.561389e+00,	-1.68501e-03	
294	8.709636e+05	3.561389e+00,	-1.72426e-03	
295	8.912509e+05	3.561389e+00,	-1.76442e-03	
296	9.120108e+05	3.561389e+00,	-1.80552e-03	
297	9.332543e+05	3.561389e+00,	-1.84758e-03	
298	9.549926e+05	3.561389e+00,	-1.89061e-03	
299	9.772372e+05	3.561389e+00,	-1.93465e-03	
300	1.000000e+06	3.561389e+00,	-1.97971e-03	
301	1.023293e+06	3.561389e+00,	-2.02583e-03	
302	1.047129e+06	3.561388e+00,	-2.07301e-03	
303	1.071519e+06	3.561388e+00,	-2.12130e-03	
304	1.096478e+06	3.561388e+00,	-2.17071e-03	
305	1.122018e+06	3.561388e+00,	-2.22127e-03	
306	1.148154e+06	3.561388e+00,	-2.27301e-03	
307	1.174898e+06	3.561388e+00,	-2.32596e-03	
308	1.202264e+06	3.561388e+00,	-2.38014e-03	
309	1.230269e+06	3.561388e+00,	-2.43558e-03	
310	1.258925e+06	3.561388e+00,	-2.49231e-03	
311	1.288250e+06	3.561388e+00,	-2.55036e-03	
312	1.318257e+06	3.561388e+00,	-2.60977e-03	
313	1.348963e+06	3.561388e+00,	-2.67056e-03	
314	1.380384e+06	3.561388e+00,	-2.73276e-03	
315	1.412538e+06	3.561388e+00,	-2.79641e-03	
316	1.445440e+06	3.561387e+00,	-2.86155e-03	
317	1.479108e+06	3.561387e+00,	-2.92820e-03	
318	1.513561e+06	3.561387e+00,	-2.99641e-03	
319	1.548817e+06	3.561387e+00,	-3.06620e-03	
320	1.584893e+06	3.561387e+00,	-3.13762e-03	
321	1.621810e+06	3.561387e+00,	-3.21071e-03	
322	1.659587e+06	3.561387e+00,	-3.28549e-03	
323	1.698244e+06	3.561387e+00,	-3.36202e-03	
324	1.737801e+06	3.561386e+00,	-3.44033e-03	
325	1.778279e+06	3.561386e+00,	-3.52047e-03	
326	1.819701e+06	3.561386e+00,	-3.60247e-03	
327	1.862087e+06	3.561386e+00,	-3.68638e-03	
328	1.905461e+06	3.561386e+00,	-3.77225e-03	
329	1.949845e+06	3.561386e+00,	-3.86011e-03	
330	1.995262e+06	3.561385e+00,	-3.95002e-03	
331	2.041738e+06	3.561385e+00,	-4.04203e-03	
332	2.089296e+06	3.561385e+00,	-4.13618e-03	
333	2.137962e+06	3.561385e+00,	-4.23252e-03	
334	2.187762e+06	3.561385e+00,	-4.33111e-03	
335	2.238721e+06	3.561384e+00,	-4.43199e-03	
336	2.290868e+06	3.561384e+00,	-4.53522e-03	
337	2.344229e+06	3.561384e+00,	-4.64086e-03	
338	2.398833e+06	3.561383e+00,	-4.74896e-03	
339	2.454709e+06	3.561383e+00,	-4.85957e-03	
340	2.511886e+06	3.561383e+00,	-4.97276e-03	
341	2.570396e+06	3.561383e+00,	-5.08859e-03	
342	2.630268e+06	3.561382e+00,	-5.20711e-03	
343	2.691535e+06	3.561382e+00,	-5.32840e-03	
344	2.754229e+06	3.561382e+00,	-5.45251e-03	

Index   frequency       vop                             
--------------------------------------------------------------------------------
345	2.818383e+06	3.561381e+00,	-5.57951e-03	
346	2.884032e+06	3.561381e+00,	-5.70947e-03	
347	2.951209e+06	3.561380e+00,	-5.84246e-03	
348	3.019952e+06	3.561380e+00,	-5.97854e-03	
349	3.090295e+06	3.561379e+00,	-6.11779e-03	
350	3.162278e+06	3.561379e+00,	-6.26029e-03	
351	3.235937e+06	3.561378e+00,	-6.40610e-03	
352	3.311311e+06	3.561378e+00,	-6.55531e-03	
353	3.388442e+06	3.561377e+00,	-6.70800e-03	
354	3.467369e+06	3.561377e+00,	-6.86424e-03	
355	3.548134e+06	3.561376e+00,	-7.02412e-03	
356	3.630781e+06	3.561376e+00,	-7.18773e-03	
357	3.715352e+06	3.561375e+00,	-7.35514e-03	
358	3.801894e+06	3.561374e+00,	-7.52645e-03	
359	3.890451e+06	3.561373e+00,	-7.70176e-03	
360	3.981072e+06	3.561373e+00,	-7.88114e-03	
361	4.073803e+06	3.561372e+00,	-8.06470e-03	
362	4.168694e+06	3.561371e+00,	-8.25254e-03	
363	4.265795e+06	3.561370e+00,	-8.44475e-03	
364	4.365158e+06	3.561369e+00,	-8.64144e-03	
365	4.466836e+06	3.561368e+00,	-8.84271e-03	
366	4.570882e+06	3.561367e+00,	-9.04867e-03	
367	4.677351e+06	3.561366e+00,	-9.25942e-03	
368	4.786301e+06	3.561365e+00,	-9.47508e-03	
369	4.897788e+06	3.561364e+00,	-9.69576e-03	
370	5.011872e+06	3.561363e+00,	-9.92158e-03	
371	5.128614e+06	3.561362e+00,	-1.01527e-02	
372	5.248075e+06	3.561360e+00,	-1.03891e-02	
373	5.370318e+06	3.561359e+00,	-1.06311e-02	
374	5.495409e+06	3.561357e+00,	-1.08787e-02	
375	5.623413e+06	3.561356e+00,	-1.11320e-02	
376	5.754399e+06	3.561354e+00,	-1.13913e-02	
377	5.888437e+06	3.561353e+00,	-1.16566e-02	
378	6.025596e+06	3.561351e+00,	-1.19281e-02	
379	6.165950e+06	3.561349e+00,	-1.22059e-02	
380	6.309573e+06	3.561347e+00,	-1.24902e-02	
381	6.456542e+06	3.561345e+00,	-1.27810e-02	
382	6.606934e+06	3.561343e+00,	-1.30787e-02	
383	6.760830e+06	3.561341e+00,	-1.33833e-02	
384	6.918310e+06	3.561339e+00,	-1.36950e-02	
385	7.079458e+06	3.561336e+00,	-1.40139e-02	
386	7.244360e+06	3.561334e+00,	-1.43402e-02	
387	7.413102e+06	3.561331e+00,	-1.46742e-02	
388	7.585776e+06	3.561328e+00,	-1.50159e-02	
389	7.762471e+06	3.561325e+00,	-1.53656e-02	
390	7.943282e+06	3.561322e+00,	-1.57234e-02	
391	8.128305e+06	3.561319e+00,	-1.60896e-02	
392	8.317638e+06	3.561316e+00,	-1.64643e-02	
393	8.511380e+06	3.561312e+00,	-1.68476e-02	
394	8.709636e+06	3.561309e+00,	-1.72400e-02	
395	8.912509e+06	3.561305e+00,	-1.76414e-02	
396	9.120108e+06	3.561301e+00,	-1.80522e-02	
397	9.332543e+06	3.561297e+00,	-1.84725e-02	
398	9.549926e+06	3.561293e+00,	-1.89027e-02	
399	9.772372e+06	3.561288e+00,	-1.93428e-02	
400	1.000000e+07	3.561283e+00,	-1.97932e-02	
401	1.023293e+07	3.561278e+00,	-2.02540e-02	
402	1.047129e+07	3.561273e+00,	-2.07256e-02	

Index   frequency       vop                             
--------------------------------------------------------------------------------
403	1.071519e+07	3.561268e+00,	-2.12081e-02	
404	1.096478e+07	3.561262e+00,	-2.17019e-02	
405	1.122018e+07	3.561256e+00,	-2.22072e-02	
406	1.148154e+07	3.561250e+00,	-2.27242e-02	
407	1.174898e+07	3.561243e+00,	-2.32532e-02	
408	1.202264e+07	3.561236e+00,	-2.37945e-02	
409	1.230269e+07	3.561229e+00,	-2.43485e-02	
410	1.258925e+07	3.561221e+00,	-2.49153e-02	
411	1.288250e+07	3.561214e+00,	-2.54952e-02	
412	1.318257e+07	3.561205e+00,	-2.60887e-02	
413	1.348963e+07	3.561197e+00,	-2.66960e-02	
414	1.380384e+07	3.561188e+00,	-2.73174e-02	
415	1.412538e+07	3.561178e+00,	-2.79532e-02	
416	1.445440e+07	3.561168e+00,	-2.86038e-02	
