  ** sch_path: /home/andylithia/openmpw/project-reisen-chip1/xschem/ctle_3.sch
  AC Analysis  Sun Oct 30 23:22:42  2022
--------------------------------------------------------------------------------
Index   frequency       vop                             
--------------------------------------------------------------------------------
0	1.000000e+03	1.278292e-01,	7.679578e-07	
1	1.023293e+03	1.278292e-01,	7.858458e-07	
2	1.047129e+03	1.278292e-01,	8.041505e-07	
3	1.071519e+03	1.278292e-01,	8.228816e-07	
4	1.096478e+03	1.278292e-01,	8.420490e-07	
5	1.122018e+03	1.278292e-01,	8.616628e-07	
6	1.148154e+03	1.278292e-01,	8.817335e-07	
7	1.174898e+03	1.278292e-01,	9.022717e-07	
8	1.202264e+03	1.278292e-01,	9.232883e-07	
9	1.230269e+03	1.278292e-01,	9.447945e-07	
10	1.258925e+03	1.278292e-01,	9.668016e-07	
11	1.288250e+03	1.278292e-01,	9.893213e-07	
12	1.318257e+03	1.278292e-01,	1.012366e-06	
13	1.348963e+03	1.278292e-01,	1.035947e-06	
14	1.380384e+03	1.278292e-01,	1.060077e-06	
15	1.412538e+03	1.278292e-01,	1.084769e-06	
16	1.445440e+03	1.278292e-01,	1.110037e-06	
17	1.479108e+03	1.278292e-01,	1.135893e-06	
18	1.513561e+03	1.278292e-01,	1.162351e-06	
19	1.548817e+03	1.278292e-01,	1.189426e-06	
20	1.584893e+03	1.278292e-01,	1.217131e-06	
21	1.621810e+03	1.278292e-01,	1.245482e-06	
22	1.659587e+03	1.278292e-01,	1.274493e-06	
23	1.698244e+03	1.278292e-01,	1.304179e-06	
24	1.737801e+03	1.278292e-01,	1.334558e-06	
25	1.778279e+03	1.278292e-01,	1.365644e-06	
26	1.819701e+03	1.278292e-01,	1.397453e-06	
27	1.862087e+03	1.278292e-01,	1.430004e-06	
28	1.905461e+03	1.278292e-01,	1.463313e-06	
29	1.949845e+03	1.278292e-01,	1.497398e-06	
30	1.995262e+03	1.278292e-01,	1.532277e-06	
31	2.041738e+03	1.278292e-01,	1.567969e-06	
32	2.089296e+03	1.278292e-01,	1.604491e-06	
33	2.137962e+03	1.278292e-01,	1.641865e-06	
34	2.187762e+03	1.278292e-01,	1.680109e-06	
35	2.238721e+03	1.278292e-01,	1.719243e-06	
36	2.290868e+03	1.278292e-01,	1.759290e-06	
37	2.344229e+03	1.278292e-01,	1.800269e-06	
38	2.398833e+03	1.278292e-01,	1.842202e-06	
39	2.454709e+03	1.278292e-01,	1.885113e-06	
40	2.511886e+03	1.278292e-01,	1.929023e-06	
41	2.570396e+03	1.278292e-01,	1.973955e-06	
42	2.630268e+03	1.278292e-01,	2.019935e-06	
43	2.691535e+03	1.278292e-01,	2.066985e-06	
44	2.754229e+03	1.278292e-01,	2.115131e-06	
45	2.818383e+03	1.278292e-01,	2.164399e-06	
46	2.884032e+03	1.278292e-01,	2.214814e-06	
47	2.951209e+03	1.278292e-01,	2.266404e-06	
48	3.019952e+03	1.278292e-01,	2.319195e-06	
49	3.090295e+03	1.278292e-01,	2.373216e-06	
50	3.162278e+03	1.278292e-01,	2.428496e-06	
51	3.235937e+03	1.278292e-01,	2.485063e-06	
52	3.311311e+03	1.278292e-01,	2.542947e-06	
53	3.388442e+03	1.278292e-01,	2.602180e-06	
54	3.467369e+03	1.278292e-01,	2.662793e-06	

Index   frequency       vop                             
--------------------------------------------------------------------------------
55	3.548134e+03	1.278292e-01,	2.724817e-06	
56	3.630781e+03	1.278292e-01,	2.788286e-06	
57	3.715352e+03	1.278292e-01,	2.853234e-06	
58	3.801894e+03	1.278292e-01,	2.919694e-06	
59	3.890451e+03	1.278292e-01,	2.987702e-06	
60	3.981072e+03	1.278292e-01,	3.057295e-06	
61	4.073803e+03	1.278292e-01,	3.128509e-06	
62	4.168694e+03	1.278292e-01,	3.201381e-06	
63	4.265795e+03	1.278292e-01,	3.275951e-06	
64	4.365158e+03	1.278292e-01,	3.352257e-06	
65	4.466836e+03	1.278292e-01,	3.430341e-06	
66	4.570882e+03	1.278292e-01,	3.510244e-06	
67	4.677351e+03	1.278292e-01,	3.592008e-06	
68	4.786301e+03	1.278292e-01,	3.675677e-06	
69	4.897788e+03	1.278292e-01,	3.761295e-06	
70	5.011872e+03	1.278292e-01,	3.848906e-06	
71	5.128614e+03	1.278292e-01,	3.938559e-06	
72	5.248075e+03	1.278292e-01,	4.030300e-06	
73	5.370318e+03	1.278292e-01,	4.124177e-06	
74	5.495409e+03	1.278292e-01,	4.220242e-06	
75	5.623413e+03	1.278292e-01,	4.318544e-06	
76	5.754399e+03	1.278292e-01,	4.419136e-06	
77	5.888437e+03	1.278292e-01,	4.522071e-06	
78	6.025596e+03	1.278292e-01,	4.627403e-06	
79	6.165950e+03	1.278292e-01,	4.735189e-06	
80	6.309573e+03	1.278292e-01,	4.845486e-06	
81	6.456542e+03	1.278292e-01,	4.958352e-06	
82	6.606934e+03	1.278292e-01,	5.073847e-06	
83	6.760830e+03	1.278292e-01,	5.192032e-06	
84	6.918310e+03	1.278292e-01,	5.312970e-06	
85	7.079458e+03	1.278292e-01,	5.436725e-06	
86	7.244360e+03	1.278292e-01,	5.563362e-06	
87	7.413102e+03	1.278292e-01,	5.692950e-06	
88	7.585776e+03	1.278292e-01,	5.825556e-06	
89	7.762471e+03	1.278292e-01,	5.961250e-06	
90	7.943282e+03	1.278292e-01,	6.100106e-06	
91	8.128305e+03	1.278292e-01,	6.242195e-06	
92	8.317638e+03	1.278292e-01,	6.387595e-06	
93	8.511380e+03	1.278292e-01,	6.536381e-06	
94	8.709636e+03	1.278292e-01,	6.688633e-06	
95	8.912509e+03	1.278292e-01,	6.844431e-06	
96	9.120108e+03	1.278292e-01,	7.003858e-06	
97	9.332543e+03	1.278292e-01,	7.166999e-06	
98	9.549926e+03	1.278292e-01,	7.333940e-06	
99	9.772372e+03	1.278292e-01,	7.504769e-06	
100	1.000000e+04	1.278292e-01,	7.679578e-06	
101	1.023293e+04	1.278292e-01,	7.858458e-06	
102	1.047129e+04	1.278292e-01,	8.041505e-06	
103	1.071519e+04	1.278292e-01,	8.228816e-06	
104	1.096478e+04	1.278292e-01,	8.420490e-06	
105	1.122018e+04	1.278292e-01,	8.616628e-06	
106	1.148154e+04	1.278292e-01,	8.817335e-06	
107	1.174898e+04	1.278292e-01,	9.022717e-06	
108	1.202264e+04	1.278292e-01,	9.232883e-06	
109	1.230269e+04	1.278292e-01,	9.447945e-06	
110	1.258925e+04	1.278292e-01,	9.668016e-06	
111	1.288250e+04	1.278292e-01,	9.893213e-06	
112	1.318257e+04	1.278292e-01,	1.012366e-05	

Index   frequency       vop                             
--------------------------------------------------------------------------------
113	1.348963e+04	1.278292e-01,	1.035947e-05	
114	1.380384e+04	1.278292e-01,	1.060077e-05	
115	1.412538e+04	1.278292e-01,	1.084769e-05	
116	1.445440e+04	1.278292e-01,	1.110037e-05	
117	1.479108e+04	1.278292e-01,	1.135893e-05	
118	1.513561e+04	1.278292e-01,	1.162351e-05	
119	1.548817e+04	1.278292e-01,	1.189426e-05	
120	1.584893e+04	1.278292e-01,	1.217131e-05	
121	1.621810e+04	1.278292e-01,	1.245482e-05	
122	1.659587e+04	1.278292e-01,	1.274493e-05	
123	1.698244e+04	1.278292e-01,	1.304179e-05	
124	1.737801e+04	1.278292e-01,	1.334558e-05	
125	1.778279e+04	1.278292e-01,	1.365644e-05	
126	1.819701e+04	1.278292e-01,	1.397453e-05	
127	1.862087e+04	1.278292e-01,	1.430004e-05	
128	1.905461e+04	1.278292e-01,	1.463313e-05	
129	1.949845e+04	1.278292e-01,	1.497398e-05	
130	1.995262e+04	1.278292e-01,	1.532277e-05	
131	2.041738e+04	1.278292e-01,	1.567969e-05	
132	2.089296e+04	1.278292e-01,	1.604491e-05	
133	2.137962e+04	1.278292e-01,	1.641865e-05	
134	2.187762e+04	1.278292e-01,	1.680109e-05	
135	2.238721e+04	1.278292e-01,	1.719243e-05	
136	2.290868e+04	1.278292e-01,	1.759290e-05	
137	2.344229e+04	1.278292e-01,	1.800269e-05	
138	2.398833e+04	1.278292e-01,	1.842202e-05	
139	2.454709e+04	1.278292e-01,	1.885113e-05	
140	2.511886e+04	1.278292e-01,	1.929023e-05	
141	2.570396e+04	1.278292e-01,	1.973955e-05	
142	2.630268e+04	1.278292e-01,	2.019935e-05	
143	2.691535e+04	1.278292e-01,	2.066985e-05	
144	2.754229e+04	1.278292e-01,	2.115131e-05	
145	2.818383e+04	1.278292e-01,	2.164399e-05	
146	2.884032e+04	1.278292e-01,	2.214814e-05	
147	2.951209e+04	1.278292e-01,	2.266404e-05	
148	3.019952e+04	1.278292e-01,	2.319195e-05	
149	3.090295e+04	1.278292e-01,	2.373216e-05	
150	3.162278e+04	1.278292e-01,	2.428496e-05	
151	3.235937e+04	1.278292e-01,	2.485063e-05	
152	3.311311e+04	1.278292e-01,	2.542947e-05	
153	3.388442e+04	1.278292e-01,	2.602180e-05	
154	3.467369e+04	1.278292e-01,	2.662793e-05	
155	3.548134e+04	1.278292e-01,	2.724817e-05	
156	3.630781e+04	1.278292e-01,	2.788286e-05	
157	3.715352e+04	1.278292e-01,	2.853234e-05	
158	3.801894e+04	1.278292e-01,	2.919694e-05	
159	3.890451e+04	1.278292e-01,	2.987703e-05	
160	3.981072e+04	1.278292e-01,	3.057295e-05	
161	4.073803e+04	1.278292e-01,	3.128509e-05	
162	4.168694e+04	1.278292e-01,	3.201381e-05	
163	4.265795e+04	1.278292e-01,	3.275951e-05	
164	4.365158e+04	1.278292e-01,	3.352257e-05	
165	4.466836e+04	1.278292e-01,	3.430342e-05	
166	4.570882e+04	1.278292e-01,	3.510244e-05	
167	4.677351e+04	1.278292e-01,	3.592009e-05	
168	4.786301e+04	1.278292e-01,	3.675677e-05	
169	4.897788e+04	1.278292e-01,	3.761295e-05	
170	5.011872e+04	1.278292e-01,	3.848906e-05	

Index   frequency       vop                             
--------------------------------------------------------------------------------
171	5.128614e+04	1.278292e-01,	3.938559e-05	
172	5.248075e+04	1.278292e-01,	4.030300e-05	
173	5.370318e+04	1.278292e-01,	4.124178e-05	
174	5.495409e+04	1.278292e-01,	4.220242e-05	
175	5.623413e+04	1.278292e-01,	4.318544e-05	
176	5.754399e+04	1.278292e-01,	4.419136e-05	
177	5.888437e+04	1.278292e-01,	4.522071e-05	
178	6.025596e+04	1.278292e-01,	4.627403e-05	
179	6.165950e+04	1.278292e-01,	4.735190e-05	
180	6.309573e+04	1.278292e-01,	4.845486e-05	
181	6.456542e+04	1.278292e-01,	4.958352e-05	
182	6.606934e+04	1.278292e-01,	5.073847e-05	
183	6.760830e+04	1.278292e-01,	5.192032e-05	
184	6.918310e+04	1.278292e-01,	5.312970e-05	
185	7.079458e+04	1.278292e-01,	5.436725e-05	
186	7.244360e+04	1.278292e-01,	5.563363e-05	
187	7.413102e+04	1.278292e-01,	5.692950e-05	
188	7.585776e+04	1.278292e-01,	5.825556e-05	
189	7.762471e+04	1.278292e-01,	5.961251e-05	
190	7.943282e+04	1.278292e-01,	6.100106e-05	
191	8.128305e+04	1.278292e-01,	6.242196e-05	
192	8.317638e+04	1.278292e-01,	6.387595e-05	
193	8.511380e+04	1.278292e-01,	6.536381e-05	
194	8.709636e+04	1.278292e-01,	6.688633e-05	
195	8.912509e+04	1.278292e-01,	6.844432e-05	
196	9.120108e+04	1.278292e-01,	7.003859e-05	
197	9.332543e+04	1.278292e-01,	7.167000e-05	
198	9.549926e+04	1.278292e-01,	7.333941e-05	
199	9.772372e+04	1.278292e-01,	7.504770e-05	
200	1.000000e+05	1.278292e-01,	7.679579e-05	
201	1.023293e+05	1.278292e-01,	7.858459e-05	
202	1.047129e+05	1.278292e-01,	8.041506e-05	
203	1.071519e+05	1.278292e-01,	8.228817e-05	
204	1.096478e+05	1.278292e-01,	8.420491e-05	
205	1.122018e+05	1.278292e-01,	8.616630e-05	
206	1.148154e+05	1.278292e-01,	8.817337e-05	
207	1.174898e+05	1.278292e-01,	9.022719e-05	
208	1.202264e+05	1.278292e-01,	9.232885e-05	
209	1.230269e+05	1.278292e-01,	9.447947e-05	
210	1.258925e+05	1.278292e-01,	9.668018e-05	
211	1.288250e+05	1.278292e-01,	9.893215e-05	
212	1.318257e+05	1.278292e-01,	1.012366e-04	
213	1.348963e+05	1.278292e-01,	1.035947e-04	
214	1.380384e+05	1.278292e-01,	1.060077e-04	
215	1.412538e+05	1.278292e-01,	1.084769e-04	
216	1.445440e+05	1.278292e-01,	1.110037e-04	
217	1.479108e+05	1.278292e-01,	1.135893e-04	
218	1.513561e+05	1.278292e-01,	1.162351e-04	
219	1.548817e+05	1.278292e-01,	1.189426e-04	
220	1.584893e+05	1.278292e-01,	1.217131e-04	
221	1.621810e+05	1.278292e-01,	1.245482e-04	
222	1.659587e+05	1.278292e-01,	1.274493e-04	
223	1.698244e+05	1.278292e-01,	1.304180e-04	
224	1.737801e+05	1.278292e-01,	1.334558e-04	
225	1.778279e+05	1.278292e-01,	1.365644e-04	
226	1.819701e+05	1.278292e-01,	1.397454e-04	
227	1.862087e+05	1.278292e-01,	1.430005e-04	
228	1.905461e+05	1.278292e-01,	1.463314e-04	

Index   frequency       vop                             
--------------------------------------------------------------------------------
229	1.949845e+05	1.278292e-01,	1.497399e-04	
230	1.995262e+05	1.278292e-01,	1.532278e-04	
231	2.041738e+05	1.278292e-01,	1.567969e-04	
232	2.089296e+05	1.278292e-01,	1.604492e-04	
233	2.137962e+05	1.278292e-01,	1.641866e-04	
234	2.187762e+05	1.278292e-01,	1.680110e-04	
235	2.238721e+05	1.278292e-01,	1.719244e-04	
236	2.290868e+05	1.278292e-01,	1.759291e-04	
237	2.344229e+05	1.278292e-01,	1.800270e-04	
238	2.398833e+05	1.278292e-01,	1.842204e-04	
239	2.454709e+05	1.278292e-01,	1.885114e-04	
240	2.511886e+05	1.278292e-01,	1.929024e-04	
241	2.570396e+05	1.278292e-01,	1.973957e-04	
242	2.630268e+05	1.278293e-01,	2.019937e-04	
243	2.691535e+05	1.278293e-01,	2.066987e-04	
244	2.754229e+05	1.278293e-01,	2.115134e-04	
245	2.818383e+05	1.278293e-01,	2.164401e-04	
246	2.884032e+05	1.278293e-01,	2.214817e-04	
247	2.951209e+05	1.278293e-01,	2.266407e-04	
248	3.019952e+05	1.278293e-01,	2.319198e-04	
249	3.090295e+05	1.278293e-01,	2.373219e-04	
250	3.162278e+05	1.278293e-01,	2.428499e-04	
251	3.235937e+05	1.278293e-01,	2.485066e-04	
252	3.311311e+05	1.278293e-01,	2.542951e-04	
253	3.388442e+05	1.278293e-01,	2.602184e-04	
254	3.467369e+05	1.278293e-01,	2.662797e-04	
255	3.548134e+05	1.278293e-01,	2.724822e-04	
256	3.630781e+05	1.278293e-01,	2.788291e-04	
257	3.715352e+05	1.278293e-01,	2.853239e-04	
258	3.801894e+05	1.278293e-01,	2.919700e-04	
259	3.890451e+05	1.278293e-01,	2.987709e-04	
260	3.981072e+05	1.278293e-01,	3.057301e-04	
261	4.073803e+05	1.278293e-01,	3.128515e-04	
262	4.168694e+05	1.278293e-01,	3.201388e-04	
263	4.265795e+05	1.278293e-01,	3.275959e-04	
264	4.365158e+05	1.278293e-01,	3.352266e-04	
265	4.466836e+05	1.278293e-01,	3.430351e-04	
266	4.570882e+05	1.278293e-01,	3.510254e-04	
267	4.677351e+05	1.278293e-01,	3.592019e-04	
268	4.786301e+05	1.278293e-01,	3.675688e-04	
269	4.897788e+05	1.278293e-01,	3.761307e-04	
270	5.011872e+05	1.278293e-01,	3.848919e-04	
271	5.128614e+05	1.278293e-01,	3.938573e-04	
272	5.248075e+05	1.278293e-01,	4.030314e-04	
273	5.370318e+05	1.278294e-01,	4.124193e-04	
274	5.495409e+05	1.278294e-01,	4.220259e-04	
275	5.623413e+05	1.278294e-01,	4.318562e-04	
276	5.754399e+05	1.278294e-01,	4.419155e-04	
277	5.888437e+05	1.278294e-01,	4.522091e-04	
278	6.025596e+05	1.278294e-01,	4.627425e-04	
279	6.165950e+05	1.278294e-01,	4.735213e-04	
280	6.309573e+05	1.278294e-01,	4.845512e-04	
281	6.456542e+05	1.278294e-01,	4.958379e-04	
282	6.606934e+05	1.278294e-01,	5.073876e-04	
283	6.760830e+05	1.278294e-01,	5.192063e-04	
284	6.918310e+05	1.278294e-01,	5.313003e-04	
285	7.079458e+05	1.278295e-01,	5.436761e-04	
286	7.244360e+05	1.278295e-01,	5.563401e-04	

Index   frequency       vop                             
--------------------------------------------------------------------------------
287	7.413102e+05	1.278295e-01,	5.692991e-04	
288	7.585776e+05	1.278295e-01,	5.825599e-04	
289	7.762471e+05	1.278295e-01,	5.961297e-04	
290	7.943282e+05	1.278295e-01,	6.100156e-04	
291	8.128305e+05	1.278295e-01,	6.242249e-04	
292	8.317638e+05	1.278295e-01,	6.387652e-04	
293	8.511380e+05	1.278296e-01,	6.536442e-04	
294	8.709636e+05	1.278296e-01,	6.688699e-04	
295	8.912509e+05	1.278296e-01,	6.844501e-04	
296	9.120108e+05	1.278296e-01,	7.003934e-04	
297	9.332543e+05	1.278296e-01,	7.167080e-04	
298	9.549926e+05	1.278296e-01,	7.334026e-04	
299	9.772372e+05	1.278297e-01,	7.504861e-04	
300	1.000000e+06	1.278297e-01,	7.679676e-04	
301	1.023293e+06	1.278297e-01,	7.858564e-04	
302	1.047129e+06	1.278297e-01,	8.041618e-04	
303	1.071519e+06	1.278298e-01,	8.228936e-04	
304	1.096478e+06	1.278298e-01,	8.420618e-04	
305	1.122018e+06	1.278298e-01,	8.616765e-04	
306	1.148154e+06	1.278298e-01,	8.817482e-04	
307	1.174898e+06	1.278299e-01,	9.022874e-04	
308	1.202264e+06	1.278299e-01,	9.233051e-04	
309	1.230269e+06	1.278299e-01,	9.448123e-04	
310	1.258925e+06	1.278300e-01,	9.668206e-04	
311	1.288250e+06	1.278300e-01,	9.893416e-04	
312	1.318257e+06	1.278300e-01,	1.012387e-03	
313	1.348963e+06	1.278301e-01,	1.035970e-03	
314	1.380384e+06	1.278301e-01,	1.060102e-03	
315	1.412538e+06	1.278302e-01,	1.084796e-03	
316	1.445440e+06	1.278302e-01,	1.110065e-03	
317	1.479108e+06	1.278303e-01,	1.135923e-03	
318	1.513561e+06	1.278303e-01,	1.162383e-03	
319	1.548817e+06	1.278304e-01,	1.189460e-03	
320	1.584893e+06	1.278304e-01,	1.217167e-03	
321	1.621810e+06	1.278305e-01,	1.245520e-03	
322	1.659587e+06	1.278305e-01,	1.274534e-03	
323	1.698244e+06	1.278306e-01,	1.304223e-03	
324	1.737801e+06	1.278307e-01,	1.334604e-03	
325	1.778279e+06	1.278307e-01,	1.365693e-03	
326	1.819701e+06	1.278308e-01,	1.397506e-03	
327	1.862087e+06	1.278309e-01,	1.430060e-03	
328	1.905461e+06	1.278310e-01,	1.463372e-03	
329	1.949845e+06	1.278310e-01,	1.497461e-03	
330	1.995262e+06	1.278311e-01,	1.532344e-03	
331	2.041738e+06	1.278312e-01,	1.568039e-03	
332	2.089296e+06	1.278313e-01,	1.604566e-03	
333	2.137962e+06	1.278314e-01,	1.641943e-03	
334	2.187762e+06	1.278315e-01,	1.680192e-03	
335	2.238721e+06	1.278316e-01,	1.719331e-03	
336	2.290868e+06	1.278318e-01,	1.759382e-03	
337	2.344229e+06	1.278319e-01,	1.800367e-03	
338	2.398833e+06	1.278320e-01,	1.842305e-03	
339	2.454709e+06	1.278321e-01,	1.885221e-03	
340	2.511886e+06	1.278323e-01,	1.929137e-03	
341	2.570396e+06	1.278324e-01,	1.974075e-03	
342	2.630268e+06	1.278326e-01,	2.020060e-03	
343	2.691535e+06	1.278328e-01,	2.067116e-03	
344	2.754229e+06	1.278329e-01,	2.115268e-03	

Index   frequency       vop                             
--------------------------------------------------------------------------------
345	2.818383e+06	1.278331e-01,	2.164542e-03	
346	2.884032e+06	1.278333e-01,	2.214963e-03	
347	2.951209e+06	1.278335e-01,	2.266559e-03	
348	3.019952e+06	1.278337e-01,	2.319356e-03	
349	3.090295e+06	1.278339e-01,	2.373382e-03	
350	3.162278e+06	1.278342e-01,	2.428667e-03	
351	3.235937e+06	1.278344e-01,	2.485239e-03	
352	3.311311e+06	1.278347e-01,	2.543128e-03	
353	3.388442e+06	1.278349e-01,	2.602365e-03	
354	3.467369e+06	1.278352e-01,	2.662981e-03	
355	3.548134e+06	1.278355e-01,	2.725008e-03	
356	3.630781e+06	1.278358e-01,	2.788479e-03	
357	3.715352e+06	1.278361e-01,	2.853427e-03	
358	3.801894e+06	1.278365e-01,	2.919888e-03	
359	3.890451e+06	1.278368e-01,	2.987894e-03	
360	3.981072e+06	1.278372e-01,	3.057484e-03	
361	4.073803e+06	1.278376e-01,	3.128693e-03	
362	4.168694e+06	1.278380e-01,	3.201559e-03	
363	4.265795e+06	1.278384e-01,	3.276120e-03	
364	4.365158e+06	1.278388e-01,	3.352416e-03	
365	4.466836e+06	1.278393e-01,	3.430488e-03	
366	4.570882e+06	1.278398e-01,	3.510375e-03	
367	4.677351e+06	1.278403e-01,	3.592121e-03	
368	4.786301e+06	1.278408e-01,	3.675768e-03	
369	4.897788e+06	1.278414e-01,	3.761361e-03	
370	5.011872e+06	1.278420e-01,	3.848946e-03	
371	5.128614e+06	1.278426e-01,	3.938567e-03	
372	5.248075e+06	1.278432e-01,	4.030273e-03	
373	5.370318e+06	1.278439e-01,	4.124113e-03	
374	5.495409e+06	1.278446e-01,	4.220135e-03	
375	5.623413e+06	1.278453e-01,	4.318391e-03	
376	5.754399e+06	1.278460e-01,	4.418933e-03	
377	5.888437e+06	1.278468e-01,	4.521814e-03	
378	6.025596e+06	1.278476e-01,	4.627088e-03	
379	6.165950e+06	1.278485e-01,	4.734812e-03	
380	6.309573e+06	1.278494e-01,	4.845042e-03	
381	6.456542e+06	1.278503e-01,	4.957837e-03	
382	6.606934e+06	1.278513e-01,	5.073257e-03	
383	6.760830e+06	1.278523e-01,	5.191364e-03	
384	6.918310e+06	1.278534e-01,	5.312219e-03	
385	7.079458e+06	1.278545e-01,	5.435887e-03	
386	7.244360e+06	1.278556e-01,	5.562435e-03	
387	7.413102e+06	1.278568e-01,	5.691928e-03	
388	7.585776e+06	1.278581e-01,	5.824436e-03	
389	7.762471e+06	1.278594e-01,	5.960029e-03	
390	7.943282e+06	1.278607e-01,	6.098779e-03	
391	8.128305e+06	1.278622e-01,	6.240761e-03	
392	8.317638e+06	1.278637e-01,	6.386048e-03	
393	8.511380e+06	1.278652e-01,	6.534719e-03	
394	8.709636e+06	1.278668e-01,	6.686853e-03	
395	8.912509e+06	1.278685e-01,	6.842529e-03	
396	9.120108e+06	1.278703e-01,	7.001831e-03	
397	9.332543e+06	1.278722e-01,	7.164844e-03	
398	9.549926e+06	1.278741e-01,	7.331653e-03	
399	9.772372e+06	1.278761e-01,	7.502347e-03	
400	1.000000e+07	1.278782e-01,	7.677017e-03	
401	1.023293e+07	1.278805e-01,	7.855756e-03	
402	1.047129e+07	1.278828e-01,	8.038658e-03	

Index   frequency       vop                             
--------------------------------------------------------------------------------
403	1.071519e+07	1.278852e-01,	8.225819e-03	
404	1.096478e+07	1.278877e-01,	8.417340e-03	
405	1.122018e+07	1.278904e-01,	8.613322e-03	
406	1.148154e+07	1.278932e-01,	8.813869e-03	
407	1.174898e+07	1.278961e-01,	9.019086e-03	
408	1.202264e+07	1.278991e-01,	9.229083e-03	
409	1.230269e+07	1.279023e-01,	9.443971e-03	
410	1.258925e+07	1.279056e-01,	9.663864e-03	
411	1.288250e+07	1.279091e-01,	9.888878e-03	
412	1.318257e+07	1.279127e-01,	1.011913e-02	
413	1.348963e+07	1.279165e-01,	1.035475e-02	
414	1.380384e+07	1.279205e-01,	1.059585e-02	
415	1.412538e+07	1.279247e-01,	1.084257e-02	
416	1.445440e+07	1.279291e-01,	1.109503e-02	
