** sch_path: /home/andylithia/openmpw/project-reisen-chip1/xschem/ota_wideband.sch
AC Analysis  Sun Oct 30 17:11:03  2022
--------------------------------------------------------------------------------
Index   frequency       vop                             
--------------------------------------------------------------------------------
0	1.000000e+03	2.131420e+00,	9.312373e-06	
1	1.023293e+03	2.131420e+00,	9.529286e-06	
2	1.047129e+03	2.131420e+00,	9.751252e-06	
3	1.071519e+03	2.131420e+00,	9.978388e-06	
4	1.096478e+03	2.131420e+00,	1.021081e-05	
5	1.122018e+03	2.131420e+00,	1.044865e-05	
6	1.148154e+03	2.131420e+00,	1.069204e-05	
7	1.174898e+03	2.131420e+00,	1.094108e-05	
8	1.202264e+03	2.131420e+00,	1.119594e-05	
9	1.230269e+03	2.131420e+00,	1.145672e-05	
10	1.258925e+03	2.131420e+00,	1.172358e-05	
11	1.288250e+03	2.131420e+00,	1.199666e-05	
12	1.318257e+03	2.131420e+00,	1.227610e-05	
13	1.348963e+03	2.131420e+00,	1.256205e-05	
14	1.380384e+03	2.131420e+00,	1.285465e-05	
15	1.412538e+03	2.131420e+00,	1.315408e-05	
16	1.445440e+03	2.131420e+00,	1.346047e-05	
17	1.479108e+03	2.131420e+00,	1.377401e-05	
18	1.513561e+03	2.131420e+00,	1.409485e-05	
19	1.548817e+03	2.131420e+00,	1.442316e-05	
20	1.584893e+03	2.131420e+00,	1.475912e-05	
21	1.621810e+03	2.131420e+00,	1.510290e-05	
22	1.659587e+03	2.131420e+00,	1.545469e-05	
23	1.698244e+03	2.131420e+00,	1.581468e-05	
24	1.737801e+03	2.131420e+00,	1.618305e-05	
25	1.778279e+03	2.131420e+00,	1.656000e-05	
26	1.819701e+03	2.131420e+00,	1.694573e-05	
27	1.862087e+03	2.131420e+00,	1.734045e-05	
28	1.905461e+03	2.131420e+00,	1.774436e-05	
29	1.949845e+03	2.131420e+00,	1.815768e-05	
30	1.995262e+03	2.131420e+00,	1.858063e-05	
31	2.041738e+03	2.131420e+00,	1.901343e-05	
32	2.089296e+03	2.131420e+00,	1.945631e-05	
33	2.137962e+03	2.131420e+00,	1.990950e-05	
34	2.187762e+03	2.131420e+00,	2.037325e-05	
35	2.238721e+03	2.131420e+00,	2.084781e-05	
36	2.290868e+03	2.131420e+00,	2.133341e-05	
37	2.344229e+03	2.131420e+00,	2.183033e-05	
38	2.398833e+03	2.131420e+00,	2.233883e-05	
39	2.454709e+03	2.131420e+00,	2.285917e-05	
40	2.511886e+03	2.131420e+00,	2.339162e-05	
41	2.570396e+03	2.131420e+00,	2.393648e-05	
42	2.630268e+03	2.131420e+00,	2.449404e-05	
43	2.691535e+03	2.131420e+00,	2.506458e-05	
44	2.754229e+03	2.131420e+00,	2.564841e-05	
45	2.818383e+03	2.131420e+00,	2.624583e-05	
46	2.884032e+03	2.131420e+00,	2.685718e-05	
47	2.951209e+03	2.131420e+00,	2.748276e-05	
48	3.019952e+03	2.131420e+00,	2.812292e-05	
49	3.090295e+03	2.131420e+00,	2.877798e-05	
50	3.162278e+03	2.131420e+00,	2.944831e-05	
51	3.235937e+03	2.131420e+00,	3.013425e-05	
52	3.311311e+03	2.131420e+00,	3.083617e-05	
53	3.388442e+03	2.131420e+00,	3.155443e-05	
54	3.467369e+03	2.131420e+00,	3.228943e-05	

Index   frequency       vop                             
--------------------------------------------------------------------------------
55	3.548134e+03	2.131420e+00,	3.304155e-05	
56	3.630781e+03	2.131420e+00,	3.381118e-05	
57	3.715352e+03	2.131420e+00,	3.459875e-05	
58	3.801894e+03	2.131420e+00,	3.540466e-05	
59	3.890451e+03	2.131420e+00,	3.622934e-05	
60	3.981072e+03	2.131420e+00,	3.707323e-05	
61	4.073803e+03	2.131420e+00,	3.793677e-05	
62	4.168694e+03	2.131420e+00,	3.882043e-05	
63	4.265795e+03	2.131420e+00,	3.972468e-05	
64	4.365158e+03	2.131420e+00,	4.064998e-05	
65	4.466836e+03	2.131420e+00,	4.159684e-05	
66	4.570882e+03	2.131420e+00,	4.256576e-05	
67	4.677351e+03	2.131420e+00,	4.355724e-05	
68	4.786301e+03	2.131420e+00,	4.457182e-05	
69	4.897788e+03	2.131420e+00,	4.561003e-05	
70	5.011872e+03	2.131420e+00,	4.667243e-05	
71	5.128614e+03	2.131420e+00,	4.775957e-05	
72	5.248075e+03	2.131420e+00,	4.887203e-05	
73	5.370318e+03	2.131420e+00,	5.001041e-05	
74	5.495409e+03	2.131420e+00,	5.117530e-05	
75	5.623413e+03	2.131420e+00,	5.236732e-05	
76	5.754399e+03	2.131420e+00,	5.358711e-05	
77	5.888437e+03	2.131420e+00,	5.483532e-05	
78	6.025596e+03	2.131420e+00,	5.611260e-05	
79	6.165950e+03	2.131420e+00,	5.741963e-05	
80	6.309573e+03	2.131420e+00,	5.875710e-05	
81	6.456542e+03	2.131420e+00,	6.012573e-05	
82	6.606934e+03	2.131420e+00,	6.152624e-05	
83	6.760830e+03	2.131420e+00,	6.295937e-05	
84	6.918310e+03	2.131420e+00,	6.442588e-05	
85	7.079458e+03	2.131420e+00,	6.592655e-05	
86	7.244360e+03	2.131420e+00,	6.746218e-05	
87	7.413102e+03	2.131420e+00,	6.903358e-05	
88	7.585776e+03	2.131420e+00,	7.064157e-05	
89	7.762471e+03	2.131420e+00,	7.228703e-05	
90	7.943282e+03	2.131420e+00,	7.397081e-05	
91	8.128305e+03	2.131420e+00,	7.569381e-05	
92	8.317638e+03	2.131420e+00,	7.745695e-05	
93	8.511380e+03	2.131420e+00,	7.926115e-05	
94	8.709636e+03	2.131420e+00,	8.110738e-05	
95	8.912509e+03	2.131420e+00,	8.299661e-05	
96	9.120108e+03	2.131420e+00,	8.492985e-05	
97	9.332543e+03	2.131420e+00,	8.690812e-05	
98	9.549926e+03	2.131420e+00,	8.893247e-05	
99	9.772372e+03	2.131420e+00,	9.100398e-05	
100	1.000000e+04	2.131420e+00,	9.312373e-05	
101	1.023293e+04	2.131420e+00,	9.529286e-05	
102	1.047129e+04	2.131420e+00,	9.751252e-05	
103	1.071519e+04	2.131420e+00,	9.978388e-05	
104	1.096478e+04	2.131420e+00,	1.021081e-04	
105	1.122018e+04	2.131420e+00,	1.044865e-04	
106	1.148154e+04	2.131420e+00,	1.069203e-04	
107	1.174898e+04	2.131420e+00,	1.094108e-04	
108	1.202264e+04	2.131420e+00,	1.119594e-04	
109	1.230269e+04	2.131420e+00,	1.145672e-04	
110	1.258925e+04	2.131420e+00,	1.172358e-04	
111	1.288250e+04	2.131420e+00,	1.199666e-04	
112	1.318257e+04	2.131420e+00,	1.227610e-04	

Index   frequency       vop                             
--------------------------------------------------------------------------------
113	1.348963e+04	2.131420e+00,	1.256205e-04	
114	1.380384e+04	2.131420e+00,	1.285465e-04	
115	1.412538e+04	2.131420e+00,	1.315408e-04	
116	1.445440e+04	2.131420e+00,	1.346047e-04	
117	1.479108e+04	2.131420e+00,	1.377401e-04	
118	1.513561e+04	2.131420e+00,	1.409485e-04	
119	1.548817e+04	2.131420e+00,	1.442316e-04	
120	1.584893e+04	2.131420e+00,	1.475912e-04	
121	1.621810e+04	2.131420e+00,	1.510290e-04	
122	1.659587e+04	2.131420e+00,	1.545469e-04	
123	1.698244e+04	2.131420e+00,	1.581468e-04	
124	1.737801e+04	2.131420e+00,	1.618305e-04	
125	1.778279e+04	2.131420e+00,	1.656000e-04	
126	1.819701e+04	2.131420e+00,	1.694573e-04	
127	1.862087e+04	2.131420e+00,	1.734045e-04	
128	1.905461e+04	2.131420e+00,	1.774436e-04	
129	1.949845e+04	2.131420e+00,	1.815768e-04	
130	1.995262e+04	2.131420e+00,	1.858063e-04	
131	2.041738e+04	2.131420e+00,	1.901343e-04	
132	2.089296e+04	2.131420e+00,	1.945630e-04	
133	2.137962e+04	2.131420e+00,	1.990950e-04	
134	2.187762e+04	2.131420e+00,	2.037325e-04	
135	2.238721e+04	2.131420e+00,	2.084781e-04	
136	2.290868e+04	2.131420e+00,	2.133341e-04	
137	2.344229e+04	2.131420e+00,	2.183033e-04	
138	2.398833e+04	2.131420e+00,	2.233883e-04	
139	2.454709e+04	2.131420e+00,	2.285916e-04	
140	2.511886e+04	2.131420e+00,	2.339162e-04	
141	2.570396e+04	2.131420e+00,	2.393648e-04	
142	2.630268e+04	2.131420e+00,	2.449404e-04	
143	2.691535e+04	2.131420e+00,	2.506458e-04	
144	2.754229e+04	2.131420e+00,	2.564840e-04	
145	2.818383e+04	2.131420e+00,	2.624583e-04	
146	2.884032e+04	2.131420e+00,	2.685718e-04	
147	2.951209e+04	2.131420e+00,	2.748276e-04	
148	3.019952e+04	2.131420e+00,	2.812292e-04	
149	3.090295e+04	2.131420e+00,	2.877798e-04	
150	3.162278e+04	2.131420e+00,	2.944831e-04	
151	3.235937e+04	2.131420e+00,	3.013425e-04	
152	3.311311e+04	2.131420e+00,	3.083616e-04	
153	3.388442e+04	2.131420e+00,	3.155443e-04	
154	3.467369e+04	2.131420e+00,	3.228943e-04	
155	3.548134e+04	2.131420e+00,	3.304154e-04	
156	3.630781e+04	2.131420e+00,	3.381118e-04	
157	3.715352e+04	2.131420e+00,	3.459874e-04	
158	3.801894e+04	2.131420e+00,	3.540465e-04	
159	3.890451e+04	2.131420e+00,	3.622933e-04	
160	3.981072e+04	2.131420e+00,	3.707322e-04	
161	4.073803e+04	2.131420e+00,	3.793677e-04	
162	4.168694e+04	2.131420e+00,	3.882043e-04	
163	4.265795e+04	2.131420e+00,	3.972467e-04	
164	4.365158e+04	2.131420e+00,	4.064998e-04	
165	4.466836e+04	2.131420e+00,	4.159684e-04	
166	4.570882e+04	2.131420e+00,	4.256575e-04	
167	4.677351e+04	2.131420e+00,	4.355724e-04	
168	4.786301e+04	2.131420e+00,	4.457182e-04	
169	4.897788e+04	2.131420e+00,	4.561003e-04	
170	5.011872e+04	2.131420e+00,	4.667242e-04	

Index   frequency       vop                             
--------------------------------------------------------------------------------
171	5.128614e+04	2.131420e+00,	4.775956e-04	
172	5.248075e+04	2.131420e+00,	4.887202e-04	
173	5.370318e+04	2.131420e+00,	5.001040e-04	
174	5.495409e+04	2.131420e+00,	5.117529e-04	
175	5.623413e+04	2.131420e+00,	5.236731e-04	
176	5.754399e+04	2.131420e+00,	5.358711e-04	
177	5.888437e+04	2.131420e+00,	5.483531e-04	
178	6.025596e+04	2.131420e+00,	5.611259e-04	
179	6.165950e+04	2.131420e+00,	5.741962e-04	
180	6.309573e+04	2.131420e+00,	5.875709e-04	
181	6.456542e+04	2.131420e+00,	6.012572e-04	
182	6.606934e+04	2.131420e+00,	6.152623e-04	
183	6.760830e+04	2.131420e+00,	6.295936e-04	
184	6.918310e+04	2.131420e+00,	6.442587e-04	
185	7.079458e+04	2.131420e+00,	6.592654e-04	
186	7.244360e+04	2.131420e+00,	6.746216e-04	
187	7.413102e+04	2.131420e+00,	6.903356e-04	
188	7.585776e+04	2.131420e+00,	7.064155e-04	
189	7.762471e+04	2.131420e+00,	7.228701e-04	
190	7.943282e+04	2.131420e+00,	7.397079e-04	
191	8.128305e+04	2.131420e+00,	7.569379e-04	
192	8.317638e+04	2.131420e+00,	7.745692e-04	
193	8.511380e+04	2.131420e+00,	7.926112e-04	
194	8.709636e+04	2.131420e+00,	8.110735e-04	
195	8.912509e+04	2.131420e+00,	8.299658e-04	
196	9.120108e+04	2.131420e+00,	8.492982e-04	
197	9.332543e+04	2.131420e+00,	8.690809e-04	
198	9.549926e+04	2.131421e+00,	8.893243e-04	
199	9.772372e+04	2.131421e+00,	9.100393e-04	
200	1.000000e+05	2.131421e+00,	9.312369e-04	
201	1.023293e+05	2.131421e+00,	9.529281e-04	
202	1.047129e+05	2.131421e+00,	9.751247e-04	
203	1.071519e+05	2.131421e+00,	9.978382e-04	
204	1.096478e+05	2.131421e+00,	1.021081e-03	
205	1.122018e+05	2.131421e+00,	1.044865e-03	
206	1.148154e+05	2.131421e+00,	1.069203e-03	
207	1.174898e+05	2.131421e+00,	1.094108e-03	
208	1.202264e+05	2.131421e+00,	1.119593e-03	
209	1.230269e+05	2.131421e+00,	1.145671e-03	
210	1.258925e+05	2.131421e+00,	1.172357e-03	
211	1.288250e+05	2.131421e+00,	1.199665e-03	
212	1.318257e+05	2.131421e+00,	1.227609e-03	
213	1.348963e+05	2.131421e+00,	1.256203e-03	
214	1.380384e+05	2.131421e+00,	1.285464e-03	
215	1.412538e+05	2.131421e+00,	1.315406e-03	
216	1.445440e+05	2.131421e+00,	1.346046e-03	
217	1.479108e+05	2.131421e+00,	1.377399e-03	
218	1.513561e+05	2.131422e+00,	1.409483e-03	
219	1.548817e+05	2.131422e+00,	1.442314e-03	
220	1.584893e+05	2.131422e+00,	1.475910e-03	
221	1.621810e+05	2.131422e+00,	1.510288e-03	
222	1.659587e+05	2.131422e+00,	1.545467e-03	
223	1.698244e+05	2.131422e+00,	1.581466e-03	
224	1.737801e+05	2.131422e+00,	1.618303e-03	
225	1.778279e+05	2.131422e+00,	1.655998e-03	
226	1.819701e+05	2.131422e+00,	1.694571e-03	
227	1.862087e+05	2.131422e+00,	1.734042e-03	
228	1.905461e+05	2.131423e+00,	1.774433e-03	

Index   frequency       vop                             
--------------------------------------------------------------------------------
229	1.949845e+05	2.131423e+00,	1.815765e-03	
230	1.995262e+05	2.131423e+00,	1.858059e-03	
231	2.041738e+05	2.131423e+00,	1.901339e-03	
232	2.089296e+05	2.131423e+00,	1.945626e-03	
233	2.137962e+05	2.131423e+00,	1.990946e-03	
234	2.187762e+05	2.131423e+00,	2.037320e-03	
235	2.238721e+05	2.131424e+00,	2.084776e-03	
236	2.290868e+05	2.131424e+00,	2.133336e-03	
237	2.344229e+05	2.131424e+00,	2.183027e-03	
238	2.398833e+05	2.131424e+00,	2.233876e-03	
239	2.454709e+05	2.131424e+00,	2.285910e-03	
240	2.511886e+05	2.131424e+00,	2.339155e-03	
241	2.570396e+05	2.131425e+00,	2.393641e-03	
242	2.630268e+05	2.131425e+00,	2.449395e-03	
243	2.691535e+05	2.131425e+00,	2.506449e-03	
244	2.754229e+05	2.131425e+00,	2.564831e-03	
245	2.818383e+05	2.131426e+00,	2.624573e-03	
246	2.884032e+05	2.131426e+00,	2.685707e-03	
247	2.951209e+05	2.131426e+00,	2.748264e-03	
248	3.019952e+05	2.131427e+00,	2.812279e-03	
249	3.090295e+05	2.131427e+00,	2.877785e-03	
250	3.162278e+05	2.131427e+00,	2.944816e-03	
251	3.235937e+05	2.131428e+00,	3.013409e-03	
252	3.311311e+05	2.131428e+00,	3.083600e-03	
253	3.388442e+05	2.131428e+00,	3.155425e-03	
254	3.467369e+05	2.131429e+00,	3.228924e-03	
255	3.548134e+05	2.131429e+00,	3.304134e-03	
256	3.630781e+05	2.131430e+00,	3.381096e-03	
257	3.715352e+05	2.131430e+00,	3.459851e-03	
258	3.801894e+05	2.131430e+00,	3.540440e-03	
259	3.890451e+05	2.131431e+00,	3.622906e-03	
260	3.981072e+05	2.131431e+00,	3.707293e-03	
261	4.073803e+05	2.131432e+00,	3.793646e-03	
262	4.168694e+05	2.131433e+00,	3.882010e-03	
263	4.265795e+05	2.131433e+00,	3.972432e-03	
264	4.365158e+05	2.131434e+00,	4.064960e-03	
265	4.466836e+05	2.131434e+00,	4.159643e-03	
266	4.570882e+05	2.131435e+00,	4.256532e-03	
267	4.677351e+05	2.131436e+00,	4.355677e-03	
268	4.786301e+05	2.131437e+00,	4.457132e-03	
269	4.897788e+05	2.131437e+00,	4.560949e-03	
270	5.011872e+05	2.131438e+00,	4.667185e-03	
271	5.128614e+05	2.131439e+00,	4.775894e-03	
272	5.248075e+05	2.131440e+00,	4.887136e-03	
273	5.370318e+05	2.131441e+00,	5.000969e-03	
274	5.495409e+05	2.131442e+00,	5.117453e-03	
275	5.623413e+05	2.131443e+00,	5.236650e-03	
276	5.754399e+05	2.131444e+00,	5.358624e-03	
277	5.888437e+05	2.131445e+00,	5.483438e-03	
278	6.025596e+05	2.131447e+00,	5.611159e-03	
279	6.165950e+05	2.131448e+00,	5.741855e-03	
280	6.309573e+05	2.131449e+00,	5.875595e-03	
281	6.456542e+05	2.131450e+00,	6.012449e-03	
282	6.606934e+05	2.131452e+00,	6.152491e-03	
283	6.760830e+05	2.131453e+00,	6.295795e-03	
284	6.918310e+05	2.131455e+00,	6.442436e-03	
285	7.079458e+05	2.131457e+00,	6.592492e-03	
286	7.244360e+05	2.131458e+00,	6.746043e-03	

Index   frequency       vop                             
--------------------------------------------------------------------------------
287	7.413102e+05	2.131460e+00,	6.903170e-03	
288	7.585776e+05	2.131462e+00,	7.063956e-03	
289	7.762471e+05	2.131464e+00,	7.228487e-03	
290	7.943282e+05	2.131466e+00,	7.396850e-03	
291	8.128305e+05	2.131468e+00,	7.569134e-03	
292	8.317638e+05	2.131471e+00,	7.745430e-03	
293	8.511380e+05	2.131473e+00,	7.925831e-03	
294	8.709636e+05	2.131476e+00,	8.110434e-03	
295	8.912509e+05	2.131478e+00,	8.299335e-03	
296	9.120108e+05	2.131481e+00,	8.492636e-03	
297	9.332543e+05	2.131484e+00,	8.690438e-03	
298	9.549926e+05	2.131487e+00,	8.892846e-03	
299	9.772372e+05	2.131490e+00,	9.099968e-03	
300	1.000000e+06	2.131493e+00,	9.311913e-03	
301	1.023293e+06	2.131497e+00,	9.528793e-03	
302	1.047129e+06	2.131500e+00,	9.750723e-03	
303	1.071519e+06	2.131504e+00,	9.977821e-03	
304	1.096478e+06	2.131508e+00,	1.021021e-02	
305	1.122018e+06	2.131512e+00,	1.044800e-02	
306	1.148154e+06	2.131517e+00,	1.069134e-02	
307	1.174898e+06	2.131521e+00,	1.094034e-02	
308	1.202264e+06	2.131526e+00,	1.119513e-02	
309	1.230269e+06	2.131531e+00,	1.145586e-02	
310	1.258925e+06	2.131536e+00,	1.172266e-02	
311	1.288250e+06	2.131542e+00,	1.199568e-02	
312	1.318257e+06	2.131547e+00,	1.227504e-02	
313	1.348963e+06	2.131553e+00,	1.256092e-02	
314	1.380384e+06	2.131560e+00,	1.285344e-02	
315	1.412538e+06	2.131566e+00,	1.315278e-02	
316	1.445440e+06	2.131573e+00,	1.345908e-02	
317	1.479108e+06	2.131581e+00,	1.377252e-02	
318	1.513561e+06	2.131588e+00,	1.409325e-02	
319	1.548817e+06	2.131596e+00,	1.442145e-02	
320	1.584893e+06	2.131604e+00,	1.475728e-02	
321	1.621810e+06	2.131613e+00,	1.510094e-02	
322	1.659587e+06	2.131622e+00,	1.545259e-02	
323	1.698244e+06	2.131632e+00,	1.581242e-02	
324	1.737801e+06	2.131642e+00,	1.618063e-02	
325	1.778279e+06	2.131652e+00,	1.655741e-02	
326	1.819701e+06	2.131663e+00,	1.694296e-02	
327	1.862087e+06	2.131674e+00,	1.733748e-02	
328	1.905461e+06	2.131686e+00,	1.774117e-02	
329	1.949845e+06	2.131699e+00,	1.815427e-02	
330	1.995262e+06	2.131712e+00,	1.857697e-02	
331	2.041738e+06	2.131726e+00,	1.900951e-02	
332	2.089296e+06	2.131740e+00,	1.945210e-02	
333	2.137962e+06	2.131755e+00,	1.990500e-02	
334	2.187762e+06	2.131771e+00,	2.036843e-02	
335	2.238721e+06	2.131788e+00,	2.084264e-02	
336	2.290868e+06	2.131805e+00,	2.132788e-02	
337	2.344229e+06	2.131823e+00,	2.182440e-02	
338	2.398833e+06	2.131842e+00,	2.233247e-02	
339	2.454709e+06	2.131862e+00,	2.285235e-02	
340	2.511886e+06	2.131883e+00,	2.338432e-02	
341	2.570396e+06	2.131905e+00,	2.392866e-02	
342	2.630268e+06	2.131928e+00,	2.448566e-02	
343	2.691535e+06	2.131952e+00,	2.505560e-02	
344	2.754229e+06	2.131977e+00,	2.563878e-02	

Index   frequency       vop                             
--------------------------------------------------------------------------------
345	2.818383e+06	2.132003e+00,	2.623552e-02	
346	2.884032e+06	2.132031e+00,	2.684613e-02	
347	2.951209e+06	2.132059e+00,	2.747092e-02	
348	3.019952e+06	2.132089e+00,	2.811023e-02	
349	3.090295e+06	2.132121e+00,	2.876439e-02	
350	3.162278e+06	2.132154e+00,	2.943375e-02	
351	3.235937e+06	2.132189e+00,	3.011864e-02	
352	3.311311e+06	2.132225e+00,	3.081945e-02	
353	3.388442e+06	2.132263e+00,	3.153652e-02	
354	3.467369e+06	2.132302e+00,	3.227023e-02	
355	3.548134e+06	2.132344e+00,	3.302098e-02	
356	3.630781e+06	2.132388e+00,	3.378914e-02	
357	3.715352e+06	2.132433e+00,	3.457513e-02	
358	3.801894e+06	2.132481e+00,	3.537935e-02	
359	3.890451e+06	2.132531e+00,	3.620222e-02	
360	3.981072e+06	2.132583e+00,	3.704417e-02	
361	4.073803e+06	2.132638e+00,	3.790564e-02	
362	4.168694e+06	2.132695e+00,	3.878708e-02	
363	4.265795e+06	2.132755e+00,	3.968894e-02	
364	4.365158e+06	2.132818e+00,	4.061169e-02	
365	4.466836e+06	2.132884e+00,	4.155581e-02	
366	4.570882e+06	2.132953e+00,	4.252179e-02	
367	4.677351e+06	2.133025e+00,	4.351013e-02	
368	4.786301e+06	2.133101e+00,	4.452134e-02	
369	4.897788e+06	2.133180e+00,	4.555594e-02	
370	5.011872e+06	2.133263e+00,	4.661447e-02	
371	5.128614e+06	2.133350e+00,	4.769747e-02	
372	5.248075e+06	2.133441e+00,	4.880549e-02	
373	5.370318e+06	2.133536e+00,	4.993911e-02	
374	5.495409e+06	2.133635e+00,	5.109891e-02	
375	5.623413e+06	2.133740e+00,	5.228547e-02	
376	5.754399e+06	2.133849e+00,	5.349941e-02	
377	5.888437e+06	2.133963e+00,	5.474135e-02	
378	6.025596e+06	2.134083e+00,	5.601191e-02	
379	6.165950e+06	2.134208e+00,	5.731174e-02	
380	6.309573e+06	2.134340e+00,	5.864151e-02	
381	6.456542e+06	2.134477e+00,	6.000187e-02	
382	6.606934e+06	2.134621e+00,	6.139353e-02	
383	6.760830e+06	2.134771e+00,	6.281718e-02	
384	6.918310e+06	2.134929e+00,	6.427353e-02	
385	7.079458e+06	2.135094e+00,	6.576331e-02	
386	7.244360e+06	2.135267e+00,	6.728727e-02	
387	7.413102e+06	2.135448e+00,	6.884617e-02	
388	7.585776e+06	2.135638e+00,	7.044078e-02	
389	7.762471e+06	2.135836e+00,	7.207188e-02	
390	7.943282e+06	2.136044e+00,	7.374029e-02	
391	8.128305e+06	2.136261e+00,	7.544683e-02	
392	8.317638e+06	2.136489e+00,	7.719232e-02	
393	8.511380e+06	2.136727e+00,	7.897762e-02	
394	8.709636e+06	2.136976e+00,	8.080360e-02	
395	8.912509e+06	2.137237e+00,	8.267113e-02	
396	9.120108e+06	2.137511e+00,	8.458113e-02	
397	9.332543e+06	2.137797e+00,	8.653449e-02	
398	9.549926e+06	2.138096e+00,	8.853216e-02	
399	9.772372e+06	2.138410e+00,	9.057508e-02	
400	1.000000e+07	2.138738e+00,	9.266421e-02	
401	1.023293e+07	2.139082e+00,	9.480053e-02	
402	1.047129e+07	2.139442e+00,	9.698504e-02	

Index   frequency       vop                             
--------------------------------------------------------------------------------
403	1.071519e+07	2.139818e+00,	9.921874e-02	
404	1.096478e+07	2.140212e+00,	1.015027e-01	
405	1.122018e+07	2.140625e+00,	1.038379e-01	
406	1.148154e+07	2.141056e+00,	1.062254e-01	
407	1.174898e+07	2.141508e+00,	1.086663e-01	
408	1.202264e+07	2.141981e+00,	1.111617e-01	
409	1.230269e+07	2.142476e+00,	1.137126e-01	
410	1.258925e+07	2.142995e+00,	1.163203e-01	
411	1.288250e+07	2.143537e+00,	1.189858e-01	
412	1.318257e+07	2.144104e+00,	1.217102e-01	
413	1.348963e+07	2.144698e+00,	1.244948e-01	
414	1.380384e+07	2.145320e+00,	1.273406e-01	
415	1.412538e+07	2.145970e+00,	1.302489e-01	
416	1.445440e+07	2.146651e+00,	1.332208e-01	
