** sch_path: /home/andylithia/openmpw/project-reisen-chip1/xschem/ota_wideband.sch
AC Analysis  Sun Oct 30 17:11:03  2022
--------------------------------------------------------------------------------
Index   frequency       vop                             
--------------------------------------------------------------------------------
0	1.000000e+03	3.176441e+00,	-4.79768e-07	
1	1.023293e+03	3.176441e+00,	-4.90943e-07	
2	1.047129e+03	3.176441e+00,	-5.02379e-07	
3	1.071519e+03	3.176441e+00,	-5.14081e-07	
4	1.096478e+03	3.176441e+00,	-5.26055e-07	
5	1.122018e+03	3.176441e+00,	-5.38309e-07	
6	1.148154e+03	3.176441e+00,	-5.50847e-07	
7	1.174898e+03	3.176441e+00,	-5.63678e-07	
8	1.202264e+03	3.176441e+00,	-5.76808e-07	
9	1.230269e+03	3.176441e+00,	-5.90244e-07	
10	1.258925e+03	3.176441e+00,	-6.03992e-07	
11	1.288250e+03	3.176441e+00,	-6.18061e-07	
12	1.318257e+03	3.176441e+00,	-6.32457e-07	
13	1.348963e+03	3.176441e+00,	-6.47189e-07	
14	1.380384e+03	3.176441e+00,	-6.62264e-07	
15	1.412538e+03	3.176441e+00,	-6.77690e-07	
16	1.445440e+03	3.176441e+00,	-6.93476e-07	
17	1.479108e+03	3.176441e+00,	-7.09629e-07	
18	1.513561e+03	3.176441e+00,	-7.26158e-07	
19	1.548817e+03	3.176441e+00,	-7.43073e-07	
20	1.584893e+03	3.176441e+00,	-7.60381e-07	
21	1.621810e+03	3.176441e+00,	-7.78093e-07	
22	1.659587e+03	3.176441e+00,	-7.96217e-07	
23	1.698244e+03	3.176441e+00,	-8.14763e-07	
24	1.737801e+03	3.176441e+00,	-8.33741e-07	
25	1.778279e+03	3.176441e+00,	-8.53162e-07	
26	1.819701e+03	3.176441e+00,	-8.73034e-07	
27	1.862087e+03	3.176441e+00,	-8.93370e-07	
28	1.905461e+03	3.176441e+00,	-9.14179e-07	
29	1.949845e+03	3.176441e+00,	-9.35473e-07	
30	1.995262e+03	3.176441e+00,	-9.57263e-07	
31	2.041738e+03	3.176441e+00,	-9.79561e-07	
32	2.089296e+03	3.176441e+00,	-1.00238e-06	
33	2.137962e+03	3.176441e+00,	-1.02573e-06	
34	2.187762e+03	3.176441e+00,	-1.04962e-06	
35	2.238721e+03	3.176441e+00,	-1.07407e-06	
36	2.290868e+03	3.176441e+00,	-1.09909e-06	
37	2.344229e+03	3.176441e+00,	-1.12469e-06	
38	2.398833e+03	3.176441e+00,	-1.15088e-06	
39	2.454709e+03	3.176441e+00,	-1.17769e-06	
40	2.511886e+03	3.176441e+00,	-1.20512e-06	
41	2.570396e+03	3.176441e+00,	-1.23319e-06	
42	2.630268e+03	3.176441e+00,	-1.26192e-06	
43	2.691535e+03	3.176441e+00,	-1.29131e-06	
44	2.754229e+03	3.176441e+00,	-1.32139e-06	
45	2.818383e+03	3.176441e+00,	-1.35217e-06	
46	2.884032e+03	3.176441e+00,	-1.38367e-06	
47	2.951209e+03	3.176441e+00,	-1.41590e-06	
48	3.019952e+03	3.176441e+00,	-1.44888e-06	
49	3.090295e+03	3.176441e+00,	-1.48262e-06	
50	3.162278e+03	3.176441e+00,	-1.51716e-06	
51	3.235937e+03	3.176441e+00,	-1.55250e-06	
52	3.311311e+03	3.176441e+00,	-1.58866e-06	
53	3.388442e+03	3.176441e+00,	-1.62567e-06	
54	3.467369e+03	3.176441e+00,	-1.66353e-06	

Index   frequency       vop                             
--------------------------------------------------------------------------------
55	3.548134e+03	3.176441e+00,	-1.70228e-06	
56	3.630781e+03	3.176441e+00,	-1.74193e-06	
57	3.715352e+03	3.176441e+00,	-1.78251e-06	
58	3.801894e+03	3.176441e+00,	-1.82403e-06	
59	3.890451e+03	3.176441e+00,	-1.86651e-06	
60	3.981072e+03	3.176441e+00,	-1.90999e-06	
61	4.073803e+03	3.176441e+00,	-1.95448e-06	
62	4.168694e+03	3.176441e+00,	-2.00001e-06	
63	4.265795e+03	3.176441e+00,	-2.04659e-06	
64	4.365158e+03	3.176441e+00,	-2.09426e-06	
65	4.466836e+03	3.176441e+00,	-2.14305e-06	
66	4.570882e+03	3.176441e+00,	-2.19296e-06	
67	4.677351e+03	3.176441e+00,	-2.24404e-06	
68	4.786301e+03	3.176441e+00,	-2.29631e-06	
69	4.897788e+03	3.176441e+00,	-2.34980e-06	
70	5.011872e+03	3.176441e+00,	-2.40454e-06	
71	5.128614e+03	3.176441e+00,	-2.46054e-06	
72	5.248075e+03	3.176441e+00,	-2.51786e-06	
73	5.370318e+03	3.176441e+00,	-2.57651e-06	
74	5.495409e+03	3.176441e+00,	-2.63652e-06	
75	5.623413e+03	3.176441e+00,	-2.69793e-06	
76	5.754399e+03	3.176441e+00,	-2.76078e-06	
77	5.888437e+03	3.176441e+00,	-2.82508e-06	
78	6.025596e+03	3.176441e+00,	-2.89089e-06	
79	6.165950e+03	3.176441e+00,	-2.95823e-06	
80	6.309573e+03	3.176441e+00,	-3.02713e-06	
81	6.456542e+03	3.176441e+00,	-3.09764e-06	
82	6.606934e+03	3.176441e+00,	-3.16980e-06	
83	6.760830e+03	3.176441e+00,	-3.24363e-06	
84	6.918310e+03	3.176441e+00,	-3.31918e-06	
85	7.079458e+03	3.176441e+00,	-3.39650e-06	
86	7.244360e+03	3.176441e+00,	-3.47561e-06	
87	7.413102e+03	3.176441e+00,	-3.55657e-06	
88	7.585776e+03	3.176441e+00,	-3.63941e-06	
89	7.762471e+03	3.176441e+00,	-3.72419e-06	
90	7.943282e+03	3.176441e+00,	-3.81093e-06	
91	8.128305e+03	3.176441e+00,	-3.89970e-06	
92	8.317638e+03	3.176441e+00,	-3.99054e-06	
93	8.511380e+03	3.176441e+00,	-4.08349e-06	
94	8.709636e+03	3.176441e+00,	-4.17860e-06	
95	8.912509e+03	3.176441e+00,	-4.27594e-06	
96	9.120108e+03	3.176441e+00,	-4.37554e-06	
97	9.332543e+03	3.176441e+00,	-4.47746e-06	
98	9.549926e+03	3.176441e+00,	-4.58175e-06	
99	9.772372e+03	3.176441e+00,	-4.68847e-06	
100	1.000000e+04	3.176441e+00,	-4.79768e-06	
101	1.023293e+04	3.176441e+00,	-4.90943e-06	
102	1.047129e+04	3.176441e+00,	-5.02379e-06	
103	1.071519e+04	3.176441e+00,	-5.14081e-06	
104	1.096478e+04	3.176441e+00,	-5.26055e-06	
105	1.122018e+04	3.176441e+00,	-5.38309e-06	
106	1.148154e+04	3.176441e+00,	-5.50847e-06	
107	1.174898e+04	3.176441e+00,	-5.63678e-06	
108	1.202264e+04	3.176441e+00,	-5.76808e-06	
109	1.230269e+04	3.176441e+00,	-5.90244e-06	
110	1.258925e+04	3.176441e+00,	-6.03992e-06	
111	1.288250e+04	3.176441e+00,	-6.18061e-06	
112	1.318257e+04	3.176441e+00,	-6.32457e-06	

Index   frequency       vop                             
--------------------------------------------------------------------------------
113	1.348963e+04	3.176441e+00,	-6.47189e-06	
114	1.380384e+04	3.176441e+00,	-6.62264e-06	
115	1.412538e+04	3.176441e+00,	-6.77690e-06	
116	1.445440e+04	3.176441e+00,	-6.93476e-06	
117	1.479108e+04	3.176441e+00,	-7.09629e-06	
118	1.513561e+04	3.176441e+00,	-7.26158e-06	
119	1.548817e+04	3.176441e+00,	-7.43073e-06	
120	1.584893e+04	3.176441e+00,	-7.60381e-06	
121	1.621810e+04	3.176441e+00,	-7.78093e-06	
122	1.659587e+04	3.176441e+00,	-7.96217e-06	
123	1.698244e+04	3.176441e+00,	-8.14763e-06	
124	1.737801e+04	3.176441e+00,	-8.33741e-06	
125	1.778279e+04	3.176441e+00,	-8.53162e-06	
126	1.819701e+04	3.176441e+00,	-8.73034e-06	
127	1.862087e+04	3.176441e+00,	-8.93370e-06	
128	1.905461e+04	3.176441e+00,	-9.14179e-06	
129	1.949845e+04	3.176441e+00,	-9.35473e-06	
130	1.995262e+04	3.176441e+00,	-9.57263e-06	
131	2.041738e+04	3.176441e+00,	-9.79561e-06	
132	2.089296e+04	3.176441e+00,	-1.00238e-05	
133	2.137962e+04	3.176441e+00,	-1.02573e-05	
134	2.187762e+04	3.176441e+00,	-1.04962e-05	
135	2.238721e+04	3.176441e+00,	-1.07407e-05	
136	2.290868e+04	3.176441e+00,	-1.09909e-05	
137	2.344229e+04	3.176441e+00,	-1.12469e-05	
138	2.398833e+04	3.176441e+00,	-1.15088e-05	
139	2.454709e+04	3.176441e+00,	-1.17769e-05	
140	2.511886e+04	3.176441e+00,	-1.20512e-05	
141	2.570396e+04	3.176441e+00,	-1.23319e-05	
142	2.630268e+04	3.176441e+00,	-1.26192e-05	
143	2.691535e+04	3.176441e+00,	-1.29131e-05	
144	2.754229e+04	3.176441e+00,	-1.32139e-05	
145	2.818383e+04	3.176441e+00,	-1.35217e-05	
146	2.884032e+04	3.176441e+00,	-1.38367e-05	
147	2.951209e+04	3.176441e+00,	-1.41590e-05	
148	3.019952e+04	3.176441e+00,	-1.44888e-05	
149	3.090295e+04	3.176441e+00,	-1.48262e-05	
150	3.162278e+04	3.176441e+00,	-1.51716e-05	
151	3.235937e+04	3.176441e+00,	-1.55250e-05	
152	3.311311e+04	3.176441e+00,	-1.58866e-05	
153	3.388442e+04	3.176441e+00,	-1.62567e-05	
154	3.467369e+04	3.176441e+00,	-1.66353e-05	
155	3.548134e+04	3.176441e+00,	-1.70228e-05	
156	3.630781e+04	3.176441e+00,	-1.74193e-05	
157	3.715352e+04	3.176441e+00,	-1.78251e-05	
158	3.801894e+04	3.176441e+00,	-1.82403e-05	
159	3.890451e+04	3.176441e+00,	-1.86651e-05	
160	3.981072e+04	3.176441e+00,	-1.90999e-05	
161	4.073803e+04	3.176441e+00,	-1.95448e-05	
162	4.168694e+04	3.176441e+00,	-2.00001e-05	
163	4.265795e+04	3.176441e+00,	-2.04659e-05	
164	4.365158e+04	3.176441e+00,	-2.09426e-05	
165	4.466836e+04	3.176441e+00,	-2.14305e-05	
166	4.570882e+04	3.176441e+00,	-2.19296e-05	
167	4.677351e+04	3.176441e+00,	-2.24404e-05	
168	4.786301e+04	3.176441e+00,	-2.29631e-05	
169	4.897788e+04	3.176441e+00,	-2.34980e-05	
170	5.011872e+04	3.176441e+00,	-2.40454e-05	

Index   frequency       vop                             
--------------------------------------------------------------------------------
171	5.128614e+04	3.176441e+00,	-2.46054e-05	
172	5.248075e+04	3.176441e+00,	-2.51786e-05	
173	5.370318e+04	3.176441e+00,	-2.57651e-05	
174	5.495409e+04	3.176441e+00,	-2.63652e-05	
175	5.623413e+04	3.176441e+00,	-2.69793e-05	
176	5.754399e+04	3.176441e+00,	-2.76078e-05	
177	5.888437e+04	3.176441e+00,	-2.82508e-05	
178	6.025596e+04	3.176441e+00,	-2.89089e-05	
179	6.165950e+04	3.176441e+00,	-2.95823e-05	
180	6.309573e+04	3.176441e+00,	-3.02713e-05	
181	6.456542e+04	3.176441e+00,	-3.09764e-05	
182	6.606934e+04	3.176441e+00,	-3.16980e-05	
183	6.760830e+04	3.176441e+00,	-3.24363e-05	
184	6.918310e+04	3.176441e+00,	-3.31918e-05	
185	7.079458e+04	3.176441e+00,	-3.39650e-05	
186	7.244360e+04	3.176441e+00,	-3.47561e-05	
187	7.413102e+04	3.176441e+00,	-3.55657e-05	
188	7.585776e+04	3.176441e+00,	-3.63941e-05	
189	7.762471e+04	3.176441e+00,	-3.72419e-05	
190	7.943282e+04	3.176441e+00,	-3.81093e-05	
191	8.128305e+04	3.176441e+00,	-3.89970e-05	
192	8.317638e+04	3.176441e+00,	-3.99054e-05	
193	8.511380e+04	3.176441e+00,	-4.08349e-05	
194	8.709636e+04	3.176441e+00,	-4.17860e-05	
195	8.912509e+04	3.176441e+00,	-4.27594e-05	
196	9.120108e+04	3.176441e+00,	-4.37554e-05	
197	9.332543e+04	3.176441e+00,	-4.47746e-05	
198	9.549926e+04	3.176441e+00,	-4.58175e-05	
199	9.772372e+04	3.176441e+00,	-4.68847e-05	
200	1.000000e+05	3.176441e+00,	-4.79768e-05	
201	1.023293e+05	3.176441e+00,	-4.90943e-05	
202	1.047129e+05	3.176441e+00,	-5.02379e-05	
203	1.071519e+05	3.176441e+00,	-5.14081e-05	
204	1.096478e+05	3.176441e+00,	-5.26055e-05	
205	1.122018e+05	3.176441e+00,	-5.38309e-05	
206	1.148154e+05	3.176441e+00,	-5.50847e-05	
207	1.174898e+05	3.176441e+00,	-5.63678e-05	
208	1.202264e+05	3.176441e+00,	-5.76808e-05	
209	1.230269e+05	3.176441e+00,	-5.90244e-05	
210	1.258925e+05	3.176441e+00,	-6.03992e-05	
211	1.288250e+05	3.176441e+00,	-6.18061e-05	
212	1.318257e+05	3.176441e+00,	-6.32457e-05	
213	1.348963e+05	3.176441e+00,	-6.47189e-05	
214	1.380384e+05	3.176441e+00,	-6.62264e-05	
215	1.412538e+05	3.176441e+00,	-6.77690e-05	
216	1.445440e+05	3.176441e+00,	-6.93476e-05	
217	1.479108e+05	3.176441e+00,	-7.09629e-05	
218	1.513561e+05	3.176441e+00,	-7.26158e-05	
219	1.548817e+05	3.176441e+00,	-7.43073e-05	
220	1.584893e+05	3.176441e+00,	-7.60381e-05	
221	1.621810e+05	3.176441e+00,	-7.78093e-05	
222	1.659587e+05	3.176441e+00,	-7.96217e-05	
223	1.698244e+05	3.176441e+00,	-8.14763e-05	
224	1.737801e+05	3.176441e+00,	-8.33741e-05	
225	1.778279e+05	3.176441e+00,	-8.53162e-05	
226	1.819701e+05	3.176441e+00,	-8.73034e-05	
227	1.862087e+05	3.176441e+00,	-8.93370e-05	
228	1.905461e+05	3.176441e+00,	-9.14179e-05	

Index   frequency       vop                             
--------------------------------------------------------------------------------
229	1.949845e+05	3.176441e+00,	-9.35473e-05	
230	1.995262e+05	3.176441e+00,	-9.57263e-05	
231	2.041738e+05	3.176441e+00,	-9.79561e-05	
232	2.089296e+05	3.176441e+00,	-1.00238e-04	
233	2.137962e+05	3.176441e+00,	-1.02573e-04	
234	2.187762e+05	3.176441e+00,	-1.04962e-04	
235	2.238721e+05	3.176441e+00,	-1.07407e-04	
236	2.290868e+05	3.176441e+00,	-1.09909e-04	
237	2.344229e+05	3.176441e+00,	-1.12469e-04	
238	2.398833e+05	3.176441e+00,	-1.15088e-04	
239	2.454709e+05	3.176441e+00,	-1.17769e-04	
240	2.511886e+05	3.176441e+00,	-1.20512e-04	
241	2.570396e+05	3.176441e+00,	-1.23319e-04	
242	2.630268e+05	3.176441e+00,	-1.26192e-04	
243	2.691535e+05	3.176441e+00,	-1.29131e-04	
244	2.754229e+05	3.176441e+00,	-1.32139e-04	
245	2.818383e+05	3.176441e+00,	-1.35217e-04	
246	2.884032e+05	3.176441e+00,	-1.38367e-04	
247	2.951209e+05	3.176441e+00,	-1.41590e-04	
248	3.019952e+05	3.176441e+00,	-1.44888e-04	
249	3.090295e+05	3.176441e+00,	-1.48263e-04	
250	3.162278e+05	3.176441e+00,	-1.51716e-04	
251	3.235937e+05	3.176441e+00,	-1.55250e-04	
252	3.311311e+05	3.176441e+00,	-1.58866e-04	
253	3.388442e+05	3.176441e+00,	-1.62567e-04	
254	3.467369e+05	3.176441e+00,	-1.66353e-04	
255	3.548134e+05	3.176441e+00,	-1.70228e-04	
256	3.630781e+05	3.176441e+00,	-1.74193e-04	
257	3.715352e+05	3.176441e+00,	-1.78251e-04	
258	3.801894e+05	3.176441e+00,	-1.82403e-04	
259	3.890451e+05	3.176441e+00,	-1.86651e-04	
260	3.981072e+05	3.176441e+00,	-1.90999e-04	
261	4.073803e+05	3.176441e+00,	-1.95448e-04	
262	4.168694e+05	3.176441e+00,	-2.00001e-04	
263	4.265795e+05	3.176442e+00,	-2.04659e-04	
264	4.365158e+05	3.176442e+00,	-2.09426e-04	
265	4.466836e+05	3.176442e+00,	-2.14305e-04	
266	4.570882e+05	3.176442e+00,	-2.19296e-04	
267	4.677351e+05	3.176442e+00,	-2.24404e-04	
268	4.786301e+05	3.176442e+00,	-2.29632e-04	
269	4.897788e+05	3.176442e+00,	-2.34980e-04	
270	5.011872e+05	3.176442e+00,	-2.40454e-04	
271	5.128614e+05	3.176442e+00,	-2.46055e-04	
272	5.248075e+05	3.176442e+00,	-2.51786e-04	
273	5.370318e+05	3.176442e+00,	-2.57651e-04	
274	5.495409e+05	3.176442e+00,	-2.63652e-04	
275	5.623413e+05	3.176442e+00,	-2.69794e-04	
276	5.754399e+05	3.176442e+00,	-2.76078e-04	
277	5.888437e+05	3.176442e+00,	-2.82509e-04	
278	6.025596e+05	3.176442e+00,	-2.89089e-04	
279	6.165950e+05	3.176442e+00,	-2.95823e-04	
280	6.309573e+05	3.176442e+00,	-3.02713e-04	
281	6.456542e+05	3.176442e+00,	-3.09765e-04	
282	6.606934e+05	3.176442e+00,	-3.16980e-04	
283	6.760830e+05	3.176442e+00,	-3.24363e-04	
284	6.918310e+05	3.176442e+00,	-3.31919e-04	
285	7.079458e+05	3.176442e+00,	-3.39650e-04	
286	7.244360e+05	3.176443e+00,	-3.47562e-04	

Index   frequency       vop                             
--------------------------------------------------------------------------------
287	7.413102e+05	3.176443e+00,	-3.55657e-04	
288	7.585776e+05	3.176443e+00,	-3.63942e-04	
289	7.762471e+05	3.176443e+00,	-3.72419e-04	
290	7.943282e+05	3.176443e+00,	-3.81094e-04	
291	8.128305e+05	3.176443e+00,	-3.89971e-04	
292	8.317638e+05	3.176443e+00,	-3.99054e-04	
293	8.511380e+05	3.176443e+00,	-4.08349e-04	
294	8.709636e+05	3.176443e+00,	-4.17861e-04	
295	8.912509e+05	3.176443e+00,	-4.27594e-04	
296	9.120108e+05	3.176443e+00,	-4.37554e-04	
297	9.332543e+05	3.176444e+00,	-4.47746e-04	
298	9.549926e+05	3.176444e+00,	-4.58176e-04	
299	9.772372e+05	3.176444e+00,	-4.68848e-04	
300	1.000000e+06	3.176444e+00,	-4.79769e-04	
301	1.023293e+06	3.176444e+00,	-4.90944e-04	
302	1.047129e+06	3.176444e+00,	-5.02380e-04	
303	1.071519e+06	3.176444e+00,	-5.14082e-04	
304	1.096478e+06	3.176445e+00,	-5.26056e-04	
305	1.122018e+06	3.176445e+00,	-5.38310e-04	
306	1.148154e+06	3.176445e+00,	-5.50849e-04	
307	1.174898e+06	3.176445e+00,	-5.63680e-04	
308	1.202264e+06	3.176445e+00,	-5.76810e-04	
309	1.230269e+06	3.176445e+00,	-5.90245e-04	
310	1.258925e+06	3.176446e+00,	-6.03994e-04	
311	1.288250e+06	3.176446e+00,	-6.18063e-04	
312	1.318257e+06	3.176446e+00,	-6.32460e-04	
313	1.348963e+06	3.176446e+00,	-6.47191e-04	
314	1.380384e+06	3.176447e+00,	-6.62267e-04	
315	1.412538e+06	3.176447e+00,	-6.77693e-04	
316	1.445440e+06	3.176447e+00,	-6.93479e-04	
317	1.479108e+06	3.176447e+00,	-7.09632e-04	
318	1.513561e+06	3.176448e+00,	-7.26161e-04	
319	1.548817e+06	3.176448e+00,	-7.43076e-04	
320	1.584893e+06	3.176448e+00,	-7.60385e-04	
321	1.621810e+06	3.176449e+00,	-7.78097e-04	
322	1.659587e+06	3.176449e+00,	-7.96221e-04	
323	1.698244e+06	3.176450e+00,	-8.14767e-04	
324	1.737801e+06	3.176450e+00,	-8.33746e-04	
325	1.778279e+06	3.176450e+00,	-8.53167e-04	
326	1.819701e+06	3.176451e+00,	-8.73040e-04	
327	1.862087e+06	3.176451e+00,	-8.93376e-04	
328	1.905461e+06	3.176452e+00,	-9.14185e-04	
329	1.949845e+06	3.176452e+00,	-9.35480e-04	
330	1.995262e+06	3.176453e+00,	-9.57270e-04	
331	2.041738e+06	3.176453e+00,	-9.79568e-04	
332	2.089296e+06	3.176454e+00,	-1.00239e-03	
333	2.137962e+06	3.176455e+00,	-1.02573e-03	
334	2.187762e+06	3.176455e+00,	-1.04963e-03	
335	2.238721e+06	3.176456e+00,	-1.07408e-03	
336	2.290868e+06	3.176457e+00,	-1.09910e-03	
337	2.344229e+06	3.176457e+00,	-1.12470e-03	
338	2.398833e+06	3.176458e+00,	-1.15090e-03	
339	2.454709e+06	3.176459e+00,	-1.17770e-03	
340	2.511886e+06	3.176460e+00,	-1.20514e-03	
341	2.570396e+06	3.176461e+00,	-1.23321e-03	
342	2.630268e+06	3.176461e+00,	-1.26194e-03	
343	2.691535e+06	3.176462e+00,	-1.29133e-03	
344	2.754229e+06	3.176463e+00,	-1.32141e-03	

Index   frequency       vop                             
--------------------------------------------------------------------------------
345	2.818383e+06	3.176465e+00,	-1.35219e-03	
346	2.884032e+06	3.176466e+00,	-1.38369e-03	
347	2.951209e+06	3.176467e+00,	-1.41592e-03	
348	3.019952e+06	3.176468e+00,	-1.44890e-03	
349	3.090295e+06	3.176469e+00,	-1.48265e-03	
350	3.162278e+06	3.176471e+00,	-1.51719e-03	
351	3.235937e+06	3.176472e+00,	-1.55253e-03	
352	3.311311e+06	3.176473e+00,	-1.58869e-03	
353	3.388442e+06	3.176475e+00,	-1.62570e-03	
354	3.467369e+06	3.176477e+00,	-1.66357e-03	
355	3.548134e+06	3.176478e+00,	-1.70232e-03	
356	3.630781e+06	3.176480e+00,	-1.74198e-03	
357	3.715352e+06	3.176482e+00,	-1.78256e-03	
358	3.801894e+06	3.176484e+00,	-1.82408e-03	
359	3.890451e+06	3.176486e+00,	-1.86657e-03	
360	3.981072e+06	3.176488e+00,	-1.91005e-03	
361	4.073803e+06	3.176490e+00,	-1.95454e-03	
362	4.168694e+06	3.176493e+00,	-2.00007e-03	
363	4.265795e+06	3.176495e+00,	-2.04667e-03	
364	4.365158e+06	3.176498e+00,	-2.09434e-03	
365	4.466836e+06	3.176500e+00,	-2.14313e-03	
366	4.570882e+06	3.176503e+00,	-2.19305e-03	
367	4.677351e+06	3.176506e+00,	-2.24414e-03	
368	4.786301e+06	3.176509e+00,	-2.29642e-03	
369	4.897788e+06	3.176512e+00,	-2.34991e-03	
370	5.011872e+06	3.176516e+00,	-2.40466e-03	
371	5.128614e+06	3.176519e+00,	-2.46067e-03	
372	5.248075e+06	3.176523e+00,	-2.51800e-03	
373	5.370318e+06	3.176527e+00,	-2.57666e-03	
374	5.495409e+06	3.176531e+00,	-2.63668e-03	
375	5.623413e+06	3.176535e+00,	-2.69811e-03	
376	5.754399e+06	3.176539e+00,	-2.76096e-03	
377	5.888437e+06	3.176544e+00,	-2.82528e-03	
378	6.025596e+06	3.176549e+00,	-2.89110e-03	
379	6.165950e+06	3.176554e+00,	-2.95846e-03	
380	6.309573e+06	3.176559e+00,	-3.02738e-03	
381	6.456542e+06	3.176565e+00,	-3.09791e-03	
382	6.606934e+06	3.176571e+00,	-3.17009e-03	
383	6.760830e+06	3.176577e+00,	-3.24394e-03	
384	6.918310e+06	3.176583e+00,	-3.31952e-03	
385	7.079458e+06	3.176590e+00,	-3.39686e-03	
386	7.244360e+06	3.176597e+00,	-3.47600e-03	
387	7.413102e+06	3.176604e+00,	-3.55699e-03	
388	7.585776e+06	3.176612e+00,	-3.63986e-03	
389	7.762471e+06	3.176620e+00,	-3.72467e-03	
390	7.943282e+06	3.176629e+00,	-3.81146e-03	
391	8.128305e+06	3.176637e+00,	-3.90027e-03	
392	8.317638e+06	3.176647e+00,	-3.99115e-03	
393	8.511380e+06	3.176656e+00,	-4.08415e-03	
394	8.709636e+06	3.176667e+00,	-4.17932e-03	
395	8.912509e+06	3.176677e+00,	-4.27671e-03	
396	9.120108e+06	3.176688e+00,	-4.37637e-03	
397	9.332543e+06	3.176700e+00,	-4.47835e-03	
398	9.549926e+06	3.176712e+00,	-4.58272e-03	
399	9.772372e+06	3.176725e+00,	-4.68952e-03	
400	1.000000e+07	3.176739e+00,	-4.79881e-03	
401	1.023293e+07	3.176753e+00,	-4.91066e-03	
402	1.047129e+07	3.176768e+00,	-5.02512e-03	

Index   frequency       vop                             
--------------------------------------------------------------------------------
403	1.071519e+07	3.176783e+00,	-5.14224e-03	
404	1.096478e+07	3.176799e+00,	-5.26211e-03	
405	1.122018e+07	3.176816e+00,	-5.38477e-03	
406	1.148154e+07	3.176834e+00,	-5.51030e-03	
407	1.174898e+07	3.176853e+00,	-5.63876e-03	
408	1.202264e+07	3.176872e+00,	-5.77023e-03	
409	1.230269e+07	3.176893e+00,	-5.90476e-03	
410	1.258925e+07	3.176914e+00,	-6.04245e-03	
411	1.288250e+07	3.176937e+00,	-6.18335e-03	
412	1.318257e+07	3.176960e+00,	-6.32755e-03	
413	1.348963e+07	3.176985e+00,	-6.47513e-03	
414	1.380384e+07	3.177010e+00,	-6.62616e-03	
415	1.412538e+07	3.177038e+00,	-6.78073e-03	
416	1.445440e+07	3.177066e+00,	-6.93891e-03	
