** sch_path: /home/andylithia/openmpw/project-reisen-chip1/xschem/ota_wideband.sch
AC Analysis  Sun Oct 30 17:11:03  2022
--------------------------------------------------------------------------------
Index   frequency       vop                             
--------------------------------------------------------------------------------
0	1.000000e+03	2.911717e+00,	1.210290e-06	
1	1.023293e+03	2.911717e+00,	1.238481e-06	
2	1.047129e+03	2.911717e+00,	1.267329e-06	
3	1.071519e+03	2.911717e+00,	1.296849e-06	
4	1.096478e+03	2.911717e+00,	1.327056e-06	
5	1.122018e+03	2.911717e+00,	1.357967e-06	
6	1.148154e+03	2.911717e+00,	1.389599e-06	
7	1.174898e+03	2.911717e+00,	1.421966e-06	
8	1.202264e+03	2.911717e+00,	1.455088e-06	
9	1.230269e+03	2.911717e+00,	1.488982e-06	
10	1.258925e+03	2.911717e+00,	1.523665e-06	
11	1.288250e+03	2.911717e+00,	1.559155e-06	
12	1.318257e+03	2.911717e+00,	1.595473e-06	
13	1.348963e+03	2.911717e+00,	1.632636e-06	
14	1.380384e+03	2.911717e+00,	1.670665e-06	
15	1.412538e+03	2.911717e+00,	1.709580e-06	
16	1.445440e+03	2.911717e+00,	1.749401e-06	
17	1.479108e+03	2.911717e+00,	1.790150e-06	
18	1.513561e+03	2.911717e+00,	1.831848e-06	
19	1.548817e+03	2.911717e+00,	1.874517e-06	
20	1.584893e+03	2.911717e+00,	1.918180e-06	
21	1.621810e+03	2.911717e+00,	1.962860e-06	
22	1.659587e+03	2.911717e+00,	2.008581e-06	
23	1.698244e+03	2.911717e+00,	2.055367e-06	
24	1.737801e+03	2.911717e+00,	2.103243e-06	
25	1.778279e+03	2.911717e+00,	2.152233e-06	
26	1.819701e+03	2.911717e+00,	2.202365e-06	
27	1.862087e+03	2.911717e+00,	2.253665e-06	
28	1.905461e+03	2.911717e+00,	2.306160e-06	
29	1.949845e+03	2.911717e+00,	2.359877e-06	
30	1.995262e+03	2.911717e+00,	2.414846e-06	
31	2.041738e+03	2.911717e+00,	2.471095e-06	
32	2.089296e+03	2.911717e+00,	2.528654e-06	
33	2.137962e+03	2.911717e+00,	2.587554e-06	
34	2.187762e+03	2.911717e+00,	2.647826e-06	
35	2.238721e+03	2.911717e+00,	2.709501e-06	
36	2.290868e+03	2.911717e+00,	2.772614e-06	
37	2.344229e+03	2.911717e+00,	2.837196e-06	
38	2.398833e+03	2.911717e+00,	2.903283e-06	
39	2.454709e+03	2.911717e+00,	2.970909e-06	
40	2.511886e+03	2.911717e+00,	3.040110e-06	
41	2.570396e+03	2.911717e+00,	3.110924e-06	
42	2.630268e+03	2.911717e+00,	3.183386e-06	
43	2.691535e+03	2.911717e+00,	3.257537e-06	
44	2.754229e+03	2.911717e+00,	3.333415e-06	
45	2.818383e+03	2.911717e+00,	3.411060e-06	
46	2.884032e+03	2.911717e+00,	3.490514e-06	
47	2.951209e+03	2.911717e+00,	3.571818e-06	
48	3.019952e+03	2.911717e+00,	3.655017e-06	
49	3.090295e+03	2.911717e+00,	3.740153e-06	
50	3.162278e+03	2.911717e+00,	3.827272e-06	
51	3.235937e+03	2.911717e+00,	3.916421e-06	
52	3.311311e+03	2.911717e+00,	4.007646e-06	
53	3.388442e+03	2.911717e+00,	4.100996e-06	
54	3.467369e+03	2.911717e+00,	4.196521e-06	

Index   frequency       vop                             
--------------------------------------------------------------------------------
55	3.548134e+03	2.911717e+00,	4.294270e-06	
56	3.630781e+03	2.911717e+00,	4.394297e-06	
57	3.715352e+03	2.911717e+00,	4.496653e-06	
58	3.801894e+03	2.911717e+00,	4.601393e-06	
59	3.890451e+03	2.911717e+00,	4.708574e-06	
60	3.981072e+03	2.911717e+00,	4.818250e-06	
61	4.073803e+03	2.911717e+00,	4.930482e-06	
62	4.168694e+03	2.911717e+00,	5.045328e-06	
63	4.265795e+03	2.911717e+00,	5.162848e-06	
64	4.365158e+03	2.911717e+00,	5.283106e-06	
65	4.466836e+03	2.911717e+00,	5.406166e-06	
66	4.570882e+03	2.911717e+00,	5.532092e-06	
67	4.677351e+03	2.911717e+00,	5.660951e-06	
68	4.786301e+03	2.911717e+00,	5.792811e-06	
69	4.897788e+03	2.911717e+00,	5.927743e-06	
70	5.011872e+03	2.911717e+00,	6.065818e-06	
71	5.128614e+03	2.911717e+00,	6.207109e-06	
72	5.248075e+03	2.911717e+00,	6.351691e-06	
73	5.370318e+03	2.911717e+00,	6.499641e-06	
74	5.495409e+03	2.911717e+00,	6.651037e-06	
75	5.623413e+03	2.911717e+00,	6.805960e-06	
76	5.754399e+03	2.911717e+00,	6.964491e-06	
77	5.888437e+03	2.911717e+00,	7.126715e-06	
78	6.025596e+03	2.911717e+00,	7.292717e-06	
79	6.165950e+03	2.911717e+00,	7.462586e-06	
80	6.309573e+03	2.911717e+00,	7.636412e-06	
81	6.456542e+03	2.911717e+00,	7.814287e-06	
82	6.606934e+03	2.911717e+00,	7.996305e-06	
83	6.760830e+03	2.911717e+00,	8.182563e-06	
84	6.918310e+03	2.911717e+00,	8.373159e-06	
85	7.079458e+03	2.911717e+00,	8.568195e-06	
86	7.244360e+03	2.911717e+00,	8.767774e-06	
87	7.413102e+03	2.911717e+00,	8.972002e-06	
88	7.585776e+03	2.911717e+00,	9.180987e-06	
89	7.762471e+03	2.911717e+00,	9.394839e-06	
90	7.943282e+03	2.911717e+00,	9.613673e-06	
91	8.128305e+03	2.911717e+00,	9.837605e-06	
92	8.317638e+03	2.911717e+00,	1.006675e-05	
93	8.511380e+03	2.911717e+00,	1.030124e-05	
94	8.709636e+03	2.911717e+00,	1.054118e-05	
95	8.912509e+03	2.911717e+00,	1.078672e-05	
96	9.120108e+03	2.911717e+00,	1.103797e-05	
97	9.332543e+03	2.911717e+00,	1.129508e-05	
98	9.549926e+03	2.911717e+00,	1.155818e-05	
99	9.772372e+03	2.911717e+00,	1.182740e-05	
100	1.000000e+04	2.911717e+00,	1.210290e-05	
101	1.023293e+04	2.911717e+00,	1.238481e-05	
102	1.047129e+04	2.911717e+00,	1.267329e-05	
103	1.071519e+04	2.911717e+00,	1.296849e-05	
104	1.096478e+04	2.911717e+00,	1.327056e-05	
105	1.122018e+04	2.911717e+00,	1.357967e-05	
106	1.148154e+04	2.911717e+00,	1.389599e-05	
107	1.174898e+04	2.911717e+00,	1.421966e-05	
108	1.202264e+04	2.911717e+00,	1.455088e-05	
109	1.230269e+04	2.911717e+00,	1.488982e-05	
110	1.258925e+04	2.911717e+00,	1.523665e-05	
111	1.288250e+04	2.911717e+00,	1.559155e-05	
112	1.318257e+04	2.911717e+00,	1.595473e-05	

Index   frequency       vop                             
--------------------------------------------------------------------------------
113	1.348963e+04	2.911717e+00,	1.632636e-05	
114	1.380384e+04	2.911717e+00,	1.670665e-05	
115	1.412538e+04	2.911717e+00,	1.709580e-05	
116	1.445440e+04	2.911717e+00,	1.749401e-05	
117	1.479108e+04	2.911717e+00,	1.790150e-05	
118	1.513561e+04	2.911717e+00,	1.831848e-05	
119	1.548817e+04	2.911717e+00,	1.874517e-05	
120	1.584893e+04	2.911717e+00,	1.918180e-05	
121	1.621810e+04	2.911717e+00,	1.962860e-05	
122	1.659587e+04	2.911717e+00,	2.008581e-05	
123	1.698244e+04	2.911717e+00,	2.055367e-05	
124	1.737801e+04	2.911717e+00,	2.103243e-05	
125	1.778279e+04	2.911717e+00,	2.152233e-05	
126	1.819701e+04	2.911717e+00,	2.202365e-05	
127	1.862087e+04	2.911717e+00,	2.253665e-05	
128	1.905461e+04	2.911717e+00,	2.306160e-05	
129	1.949845e+04	2.911717e+00,	2.359877e-05	
130	1.995262e+04	2.911717e+00,	2.414846e-05	
131	2.041738e+04	2.911717e+00,	2.471095e-05	
132	2.089296e+04	2.911717e+00,	2.528654e-05	
133	2.137962e+04	2.911717e+00,	2.587554e-05	
134	2.187762e+04	2.911717e+00,	2.647825e-05	
135	2.238721e+04	2.911717e+00,	2.709501e-05	
136	2.290868e+04	2.911717e+00,	2.772614e-05	
137	2.344229e+04	2.911717e+00,	2.837196e-05	
138	2.398833e+04	2.911717e+00,	2.903283e-05	
139	2.454709e+04	2.911717e+00,	2.970909e-05	
140	2.511886e+04	2.911717e+00,	3.040110e-05	
141	2.570396e+04	2.911717e+00,	3.110924e-05	
142	2.630268e+04	2.911717e+00,	3.183386e-05	
143	2.691535e+04	2.911717e+00,	3.257537e-05	
144	2.754229e+04	2.911717e+00,	3.333415e-05	
145	2.818383e+04	2.911717e+00,	3.411060e-05	
146	2.884032e+04	2.911717e+00,	3.490514e-05	
147	2.951209e+04	2.911717e+00,	3.571818e-05	
148	3.019952e+04	2.911717e+00,	3.655017e-05	
149	3.090295e+04	2.911717e+00,	3.740153e-05	
150	3.162278e+04	2.911717e+00,	3.827272e-05	
151	3.235937e+04	2.911717e+00,	3.916421e-05	
152	3.311311e+04	2.911717e+00,	4.007646e-05	
153	3.388442e+04	2.911717e+00,	4.100996e-05	
154	3.467369e+04	2.911717e+00,	4.196521e-05	
155	3.548134e+04	2.911717e+00,	4.294270e-05	
156	3.630781e+04	2.911717e+00,	4.394296e-05	
157	3.715352e+04	2.911717e+00,	4.496653e-05	
158	3.801894e+04	2.911717e+00,	4.601393e-05	
159	3.890451e+04	2.911717e+00,	4.708573e-05	
160	3.981072e+04	2.911717e+00,	4.818250e-05	
161	4.073803e+04	2.911717e+00,	4.930482e-05	
162	4.168694e+04	2.911717e+00,	5.045327e-05	
163	4.265795e+04	2.911717e+00,	5.162848e-05	
164	4.365158e+04	2.911717e+00,	5.283106e-05	
165	4.466836e+04	2.911717e+00,	5.406166e-05	
166	4.570882e+04	2.911717e+00,	5.532091e-05	
167	4.677351e+04	2.911717e+00,	5.660950e-05	
168	4.786301e+04	2.911717e+00,	5.792811e-05	
169	4.897788e+04	2.911717e+00,	5.927743e-05	
170	5.011872e+04	2.911717e+00,	6.065817e-05	

Index   frequency       vop                             
--------------------------------------------------------------------------------
171	5.128614e+04	2.911717e+00,	6.207108e-05	
172	5.248075e+04	2.911717e+00,	6.351691e-05	
173	5.370318e+04	2.911717e+00,	6.499640e-05	
174	5.495409e+04	2.911717e+00,	6.651037e-05	
175	5.623413e+04	2.911717e+00,	6.805959e-05	
176	5.754399e+04	2.911717e+00,	6.964490e-05	
177	5.888437e+04	2.911717e+00,	7.126714e-05	
178	6.025596e+04	2.911717e+00,	7.292716e-05	
179	6.165950e+04	2.911717e+00,	7.462586e-05	
180	6.309573e+04	2.911718e+00,	7.636412e-05	
181	6.456542e+04	2.911718e+00,	7.814286e-05	
182	6.606934e+04	2.911718e+00,	7.996304e-05	
183	6.760830e+04	2.911718e+00,	8.182562e-05	
184	6.918310e+04	2.911718e+00,	8.373159e-05	
185	7.079458e+04	2.911718e+00,	8.568194e-05	
186	7.244360e+04	2.911718e+00,	8.767773e-05	
187	7.413102e+04	2.911718e+00,	8.972001e-05	
188	7.585776e+04	2.911718e+00,	9.180986e-05	
189	7.762471e+04	2.911718e+00,	9.394838e-05	
190	7.943282e+04	2.911718e+00,	9.613672e-05	
191	8.128305e+04	2.911718e+00,	9.837603e-05	
192	8.317638e+04	2.911718e+00,	1.006675e-04	
193	8.511380e+04	2.911718e+00,	1.030123e-04	
194	8.709636e+04	2.911718e+00,	1.054118e-04	
195	8.912509e+04	2.911718e+00,	1.078672e-04	
196	9.120108e+04	2.911718e+00,	1.103797e-04	
197	9.332543e+04	2.911718e+00,	1.129508e-04	
198	9.549926e+04	2.911718e+00,	1.155818e-04	
199	9.772372e+04	2.911718e+00,	1.182740e-04	
200	1.000000e+05	2.911718e+00,	1.210289e-04	
201	1.023293e+05	2.911718e+00,	1.238481e-04	
202	1.047129e+05	2.911718e+00,	1.267329e-04	
203	1.071519e+05	2.911718e+00,	1.296849e-04	
204	1.096478e+05	2.911718e+00,	1.327056e-04	
205	1.122018e+05	2.911718e+00,	1.357967e-04	
206	1.148154e+05	2.911718e+00,	1.389598e-04	
207	1.174898e+05	2.911718e+00,	1.421966e-04	
208	1.202264e+05	2.911718e+00,	1.455088e-04	
209	1.230269e+05	2.911718e+00,	1.488981e-04	
210	1.258925e+05	2.911718e+00,	1.523664e-04	
211	1.288250e+05	2.911718e+00,	1.559155e-04	
212	1.318257e+05	2.911718e+00,	1.595472e-04	
213	1.348963e+05	2.911718e+00,	1.632635e-04	
214	1.380384e+05	2.911718e+00,	1.670664e-04	
215	1.412538e+05	2.911718e+00,	1.709579e-04	
216	1.445440e+05	2.911718e+00,	1.749400e-04	
217	1.479108e+05	2.911718e+00,	1.790149e-04	
218	1.513561e+05	2.911718e+00,	1.831847e-04	
219	1.548817e+05	2.911718e+00,	1.874516e-04	
220	1.584893e+05	2.911718e+00,	1.918179e-04	
221	1.621810e+05	2.911718e+00,	1.962859e-04	
222	1.659587e+05	2.911718e+00,	2.008580e-04	
223	1.698244e+05	2.911718e+00,	2.055366e-04	
224	1.737801e+05	2.911718e+00,	2.103241e-04	
225	1.778279e+05	2.911718e+00,	2.152232e-04	
226	1.819701e+05	2.911718e+00,	2.202364e-04	
227	1.862087e+05	2.911718e+00,	2.253663e-04	
228	1.905461e+05	2.911718e+00,	2.306158e-04	

Index   frequency       vop                             
--------------------------------------------------------------------------------
229	1.949845e+05	2.911718e+00,	2.359875e-04	
230	1.995262e+05	2.911718e+00,	2.414843e-04	
231	2.041738e+05	2.911718e+00,	2.471092e-04	
232	2.089296e+05	2.911718e+00,	2.528651e-04	
233	2.137962e+05	2.911718e+00,	2.587551e-04	
234	2.187762e+05	2.911718e+00,	2.647823e-04	
235	2.238721e+05	2.911718e+00,	2.709498e-04	
236	2.290868e+05	2.911718e+00,	2.772610e-04	
237	2.344229e+05	2.911718e+00,	2.837193e-04	
238	2.398833e+05	2.911718e+00,	2.903279e-04	
239	2.454709e+05	2.911718e+00,	2.970905e-04	
240	2.511886e+05	2.911718e+00,	3.040106e-04	
241	2.570396e+05	2.911718e+00,	3.110919e-04	
242	2.630268e+05	2.911718e+00,	3.183381e-04	
243	2.691535e+05	2.911718e+00,	3.257532e-04	
244	2.754229e+05	2.911718e+00,	3.333409e-04	
245	2.818383e+05	2.911718e+00,	3.411054e-04	
246	2.884032e+05	2.911718e+00,	3.490507e-04	
247	2.951209e+05	2.911718e+00,	3.571811e-04	
248	3.019952e+05	2.911718e+00,	3.655009e-04	
249	3.090295e+05	2.911718e+00,	3.740145e-04	
250	3.162278e+05	2.911719e+00,	3.827263e-04	
251	3.235937e+05	2.911719e+00,	3.916411e-04	
252	3.311311e+05	2.911719e+00,	4.007636e-04	
253	3.388442e+05	2.911719e+00,	4.100985e-04	
254	3.467369e+05	2.911719e+00,	4.196509e-04	
255	3.548134e+05	2.911719e+00,	4.294258e-04	
256	3.630781e+05	2.911719e+00,	4.394283e-04	
257	3.715352e+05	2.911719e+00,	4.496638e-04	
258	3.801894e+05	2.911719e+00,	4.601378e-04	
259	3.890451e+05	2.911719e+00,	4.708557e-04	
260	3.981072e+05	2.911719e+00,	4.818233e-04	
261	4.073803e+05	2.911719e+00,	4.930463e-04	
262	4.168694e+05	2.911719e+00,	5.045307e-04	
263	4.265795e+05	2.911719e+00,	5.162826e-04	
264	4.365158e+05	2.911719e+00,	5.283083e-04	
265	4.466836e+05	2.911720e+00,	5.406141e-04	
266	4.570882e+05	2.911720e+00,	5.532065e-04	
267	4.677351e+05	2.911720e+00,	5.660922e-04	
268	4.786301e+05	2.911720e+00,	5.792780e-04	
269	4.897788e+05	2.911720e+00,	5.927710e-04	
270	5.011872e+05	2.911720e+00,	6.065782e-04	
271	5.128614e+05	2.911720e+00,	6.207071e-04	
272	5.248075e+05	2.911720e+00,	6.351650e-04	
273	5.370318e+05	2.911721e+00,	6.499597e-04	
274	5.495409e+05	2.911721e+00,	6.650990e-04	
275	5.623413e+05	2.911721e+00,	6.805909e-04	
276	5.754399e+05	2.911721e+00,	6.964437e-04	
277	5.888437e+05	2.911721e+00,	7.126657e-04	
278	6.025596e+05	2.911721e+00,	7.292655e-04	
279	6.165950e+05	2.911721e+00,	7.462520e-04	
280	6.309573e+05	2.911722e+00,	7.636341e-04	
281	6.456542e+05	2.911722e+00,	7.814211e-04	
282	6.606934e+05	2.911722e+00,	7.996224e-04	
283	6.760830e+05	2.911722e+00,	8.182476e-04	
284	6.918310e+05	2.911723e+00,	8.373066e-04	
285	7.079458e+05	2.911723e+00,	8.568095e-04	
286	7.244360e+05	2.911723e+00,	8.767667e-04	

Index   frequency       vop                             
--------------------------------------------------------------------------------
287	7.413102e+05	2.911723e+00,	8.971887e-04	
288	7.585776e+05	2.911724e+00,	9.180864e-04	
289	7.762471e+05	2.911724e+00,	9.394708e-04	
290	7.943282e+05	2.911724e+00,	9.613532e-04	
291	8.128305e+05	2.911724e+00,	9.837453e-04	
292	8.317638e+05	2.911725e+00,	1.006659e-03	
293	8.511380e+05	2.911725e+00,	1.030106e-03	
294	8.709636e+05	2.911726e+00,	1.054100e-03	
295	8.912509e+05	2.911726e+00,	1.078652e-03	
296	9.120108e+05	2.911726e+00,	1.103776e-03	
297	9.332543e+05	2.911727e+00,	1.129485e-03	
298	9.549926e+05	2.911727e+00,	1.155793e-03	
299	9.772372e+05	2.911728e+00,	1.182714e-03	
300	1.000000e+06	2.911728e+00,	1.210262e-03	
301	1.023293e+06	2.911729e+00,	1.238451e-03	
302	1.047129e+06	2.911729e+00,	1.267297e-03	
303	1.071519e+06	2.911730e+00,	1.296814e-03	
304	1.096478e+06	2.911730e+00,	1.327019e-03	
305	1.122018e+06	2.911731e+00,	1.357928e-03	
306	1.148154e+06	2.911731e+00,	1.389556e-03	
307	1.174898e+06	2.911732e+00,	1.421921e-03	
308	1.202264e+06	2.911733e+00,	1.455039e-03	
309	1.230269e+06	2.911734e+00,	1.488929e-03	
310	1.258925e+06	2.911734e+00,	1.523608e-03	
311	1.288250e+06	2.911735e+00,	1.559095e-03	
312	1.318257e+06	2.911736e+00,	1.595408e-03	
313	1.348963e+06	2.911737e+00,	1.632567e-03	
314	1.380384e+06	2.911738e+00,	1.670591e-03	
315	1.412538e+06	2.911739e+00,	1.709500e-03	
316	1.445440e+06	2.911740e+00,	1.749316e-03	
317	1.479108e+06	2.911741e+00,	1.790058e-03	
318	1.513561e+06	2.911742e+00,	1.831750e-03	
319	1.548817e+06	2.911743e+00,	1.874412e-03	
320	1.584893e+06	2.911744e+00,	1.918068e-03	
321	1.621810e+06	2.911745e+00,	1.962740e-03	
322	1.659587e+06	2.911747e+00,	2.008452e-03	
323	1.698244e+06	2.911748e+00,	2.055229e-03	
324	1.737801e+06	2.911750e+00,	2.103095e-03	
325	1.778279e+06	2.911751e+00,	2.152075e-03	
326	1.819701e+06	2.911753e+00,	2.202195e-03	
327	1.862087e+06	2.911754e+00,	2.253483e-03	
328	1.905461e+06	2.911756e+00,	2.305964e-03	
329	1.949845e+06	2.911758e+00,	2.359668e-03	
330	1.995262e+06	2.911760e+00,	2.414621e-03	
331	2.041738e+06	2.911762e+00,	2.470854e-03	
332	2.089296e+06	2.911764e+00,	2.528396e-03	
333	2.137962e+06	2.911766e+00,	2.587278e-03	
334	2.187762e+06	2.911768e+00,	2.647530e-03	
335	2.238721e+06	2.911771e+00,	2.709185e-03	
336	2.290868e+06	2.911773e+00,	2.772274e-03	
337	2.344229e+06	2.911776e+00,	2.836833e-03	
338	2.398833e+06	2.911779e+00,	2.902893e-03	
339	2.454709e+06	2.911781e+00,	2.970492e-03	
340	2.511886e+06	2.911784e+00,	3.039663e-03	
341	2.570396e+06	2.911788e+00,	3.110445e-03	
342	2.630268e+06	2.911791e+00,	3.182873e-03	
343	2.691535e+06	2.911794e+00,	3.256987e-03	
344	2.754229e+06	2.911798e+00,	3.332825e-03	

Index   frequency       vop                             
--------------------------------------------------------------------------------
345	2.818383e+06	2.911802e+00,	3.410428e-03	
346	2.884032e+06	2.911806e+00,	3.489837e-03	
347	2.951209e+06	2.911810e+00,	3.571093e-03	
348	3.019952e+06	2.911814e+00,	3.654239e-03	
349	3.090295e+06	2.911819e+00,	3.739320e-03	
350	3.162278e+06	2.911824e+00,	3.826380e-03	
351	3.235937e+06	2.911829e+00,	3.915464e-03	
352	3.311311e+06	2.911834e+00,	4.006621e-03	
353	3.388442e+06	2.911839e+00,	4.099898e-03	
354	3.467369e+06	2.911845e+00,	4.195344e-03	
355	3.548134e+06	2.911851e+00,	4.293009e-03	
356	3.630781e+06	2.911857e+00,	4.392945e-03	
357	3.715352e+06	2.911864e+00,	4.495204e-03	
358	3.801894e+06	2.911871e+00,	4.599841e-03	
359	3.890451e+06	2.911878e+00,	4.706910e-03	
360	3.981072e+06	2.911886e+00,	4.816468e-03	
361	4.073803e+06	2.911894e+00,	4.928572e-03	
362	4.168694e+06	2.911902e+00,	5.043281e-03	
363	4.265795e+06	2.911911e+00,	5.160655e-03	
364	4.365158e+06	2.911920e+00,	5.280756e-03	
365	4.466836e+06	2.911929e+00,	5.403647e-03	
366	4.570882e+06	2.911939e+00,	5.529392e-03	
367	4.677351e+06	2.911950e+00,	5.658058e-03	
368	4.786301e+06	2.911961e+00,	5.789711e-03	
369	4.897788e+06	2.911972e+00,	5.924421e-03	
370	5.011872e+06	2.911984e+00,	6.062258e-03	
371	5.128614e+06	2.911997e+00,	6.203294e-03	
372	5.248075e+06	2.912010e+00,	6.347602e-03	
373	5.370318e+06	2.912024e+00,	6.495259e-03	
374	5.495409e+06	2.912038e+00,	6.646341e-03	
375	5.623413e+06	2.912053e+00,	6.800927e-03	
376	5.754399e+06	2.912069e+00,	6.959097e-03	
377	5.888437e+06	2.912086e+00,	7.120934e-03	
378	6.025596e+06	2.912103e+00,	7.286522e-03	
379	6.165950e+06	2.912121e+00,	7.455947e-03	
380	6.309573e+06	2.912140e+00,	7.629297e-03	
381	6.456542e+06	2.912160e+00,	7.806661e-03	
382	6.606934e+06	2.912181e+00,	7.988132e-03	
383	6.760830e+06	2.912203e+00,	8.173803e-03	
384	6.918310e+06	2.912226e+00,	8.363771e-03	
385	7.079458e+06	2.912250e+00,	8.558132e-03	
386	7.244360e+06	2.912275e+00,	8.756989e-03	
387	7.413102e+06	2.912301e+00,	8.960442e-03	
388	7.585776e+06	2.912329e+00,	9.168596e-03	
389	7.762471e+06	2.912358e+00,	9.381559e-03	
390	7.943282e+06	2.912388e+00,	9.599438e-03	
391	8.128305e+06	2.912420e+00,	9.822346e-03	
392	8.317638e+06	2.912453e+00,	1.005040e-02	
393	8.511380e+06	2.912487e+00,	1.028370e-02	
394	8.709636e+06	2.912524e+00,	1.052239e-02	
395	8.912509e+06	2.912562e+00,	1.076657e-02	
396	9.120108e+06	2.912602e+00,	1.101638e-02	
397	9.332543e+06	2.912643e+00,	1.127193e-02	
398	9.549926e+06	2.912687e+00,	1.153336e-02	
399	9.772372e+06	2.912733e+00,	1.180080e-02	
400	1.000000e+07	2.912780e+00,	1.207438e-02	
401	1.023293e+07	2.912831e+00,	1.235423e-02	
402	1.047129e+07	2.912883e+00,	1.264051e-02	

Index   frequency       vop                             
--------------------------------------------------------------------------------
403	1.071519e+07	2.912938e+00,	1.293334e-02	
404	1.096478e+07	2.912996e+00,	1.323288e-02	
405	1.122018e+07	2.913056e+00,	1.353927e-02	
406	1.148154e+07	2.913119e+00,	1.385267e-02	
407	1.174898e+07	2.913185e+00,	1.417322e-02	
408	1.202264e+07	2.913255e+00,	1.450108e-02	
409	1.230269e+07	2.913327e+00,	1.483641e-02	
410	1.258925e+07	2.913403e+00,	1.517938e-02	
411	1.288250e+07	2.913483e+00,	1.553014e-02	
412	1.318257e+07	2.913566e+00,	1.588887e-02	
413	1.348963e+07	2.913653e+00,	1.625573e-02	
414	1.380384e+07	2.913744e+00,	1.663090e-02	
415	1.412538e+07	2.913840e+00,	1.701455e-02	
416	1.445440e+07	2.913940e+00,	1.740687e-02	
