** sch_path: /home/andylithia/openmpw/project-reisen-chip1/xschem/ota_wideband.sch
AC Analysis  Sun Oct 30 17:11:03  2022
--------------------------------------------------------------------------------
Index   frequency       vop                             
--------------------------------------------------------------------------------
0	1.000000e+03	3.519630e+00,	-1.83474e-06	
1	1.023293e+03	3.519630e+00,	-1.87748e-06	
2	1.047129e+03	3.519630e+00,	-1.92121e-06	
3	1.071519e+03	3.519630e+00,	-1.96596e-06	
4	1.096478e+03	3.519630e+00,	-2.01175e-06	
5	1.122018e+03	3.519630e+00,	-2.05861e-06	
6	1.148154e+03	3.519630e+00,	-2.10656e-06	
7	1.174898e+03	3.519630e+00,	-2.15563e-06	
8	1.202264e+03	3.519630e+00,	-2.20584e-06	
9	1.230269e+03	3.519630e+00,	-2.25722e-06	
10	1.258925e+03	3.519630e+00,	-2.30980e-06	
11	1.288250e+03	3.519630e+00,	-2.36360e-06	
12	1.318257e+03	3.519630e+00,	-2.41866e-06	
13	1.348963e+03	3.519630e+00,	-2.47499e-06	
14	1.380384e+03	3.519630e+00,	-2.53264e-06	
15	1.412538e+03	3.519630e+00,	-2.59164e-06	
16	1.445440e+03	3.519630e+00,	-2.65200e-06	
17	1.479108e+03	3.519630e+00,	-2.71378e-06	
18	1.513561e+03	3.519630e+00,	-2.77699e-06	
19	1.548817e+03	3.519630e+00,	-2.84167e-06	
20	1.584893e+03	3.519630e+00,	-2.90786e-06	
21	1.621810e+03	3.519630e+00,	-2.97560e-06	
22	1.659587e+03	3.519630e+00,	-3.04491e-06	
23	1.698244e+03	3.519630e+00,	-3.11583e-06	
24	1.737801e+03	3.519630e+00,	-3.18841e-06	
25	1.778279e+03	3.519630e+00,	-3.26268e-06	
26	1.819701e+03	3.519630e+00,	-3.33868e-06	
27	1.862087e+03	3.519630e+00,	-3.41644e-06	
28	1.905461e+03	3.519630e+00,	-3.49602e-06	
29	1.949845e+03	3.519630e+00,	-3.57745e-06	
30	1.995262e+03	3.519630e+00,	-3.66078e-06	
31	2.041738e+03	3.519630e+00,	-3.74606e-06	
32	2.089296e+03	3.519630e+00,	-3.83331e-06	
33	2.137962e+03	3.519630e+00,	-3.92260e-06	
34	2.187762e+03	3.519630e+00,	-4.01397e-06	
35	2.238721e+03	3.519630e+00,	-4.10747e-06	
36	2.290868e+03	3.519630e+00,	-4.20314e-06	
37	2.344229e+03	3.519630e+00,	-4.30105e-06	
38	2.398833e+03	3.519630e+00,	-4.40123e-06	
39	2.454709e+03	3.519630e+00,	-4.50375e-06	
40	2.511886e+03	3.519630e+00,	-4.60865e-06	
41	2.570396e+03	3.519630e+00,	-4.71600e-06	
42	2.630268e+03	3.519630e+00,	-4.82585e-06	
43	2.691535e+03	3.519630e+00,	-4.93826e-06	
44	2.754229e+03	3.519630e+00,	-5.05329e-06	
45	2.818383e+03	3.519630e+00,	-5.17100e-06	
46	2.884032e+03	3.519630e+00,	-5.29144e-06	
47	2.951209e+03	3.519630e+00,	-5.41470e-06	
48	3.019952e+03	3.519630e+00,	-5.54082e-06	
49	3.090295e+03	3.519630e+00,	-5.66988e-06	
50	3.162278e+03	3.519630e+00,	-5.80195e-06	
51	3.235937e+03	3.519630e+00,	-5.93710e-06	
52	3.311311e+03	3.519630e+00,	-6.07539e-06	
53	3.388442e+03	3.519630e+00,	-6.21690e-06	
54	3.467369e+03	3.519630e+00,	-6.36171e-06	

Index   frequency       vop                             
--------------------------------------------------------------------------------
55	3.548134e+03	3.519630e+00,	-6.50990e-06	
56	3.630781e+03	3.519630e+00,	-6.66153e-06	
57	3.715352e+03	3.519630e+00,	-6.81670e-06	
58	3.801894e+03	3.519630e+00,	-6.97548e-06	
59	3.890451e+03	3.519630e+00,	-7.13796e-06	
60	3.981072e+03	3.519630e+00,	-7.30423e-06	
61	4.073803e+03	3.519630e+00,	-7.47436e-06	
62	4.168694e+03	3.519630e+00,	-7.64846e-06	
63	4.265795e+03	3.519630e+00,	-7.82662e-06	
64	4.365158e+03	3.519630e+00,	-8.00892e-06	
65	4.466836e+03	3.519630e+00,	-8.19548e-06	
66	4.570882e+03	3.519630e+00,	-8.38637e-06	
67	4.677351e+03	3.519630e+00,	-8.58172e-06	
68	4.786301e+03	3.519630e+00,	-8.78161e-06	
69	4.897788e+03	3.519630e+00,	-8.98616e-06	
70	5.011872e+03	3.519630e+00,	-9.19548e-06	
71	5.128614e+03	3.519630e+00,	-9.40967e-06	
72	5.248075e+03	3.519630e+00,	-9.62884e-06	
73	5.370318e+03	3.519630e+00,	-9.85313e-06	
74	5.495409e+03	3.519630e+00,	-1.00826e-05	
75	5.623413e+03	3.519630e+00,	-1.03175e-05	
76	5.754399e+03	3.519630e+00,	-1.05578e-05	
77	5.888437e+03	3.519630e+00,	-1.08037e-05	
78	6.025596e+03	3.519630e+00,	-1.10554e-05	
79	6.165950e+03	3.519630e+00,	-1.13129e-05	
80	6.309573e+03	3.519630e+00,	-1.15764e-05	
81	6.456542e+03	3.519630e+00,	-1.18461e-05	
82	6.606934e+03	3.519630e+00,	-1.21220e-05	
83	6.760830e+03	3.519630e+00,	-1.24044e-05	
84	6.918310e+03	3.519630e+00,	-1.26933e-05	
85	7.079458e+03	3.519630e+00,	-1.29890e-05	
86	7.244360e+03	3.519630e+00,	-1.32915e-05	
87	7.413102e+03	3.519630e+00,	-1.36011e-05	
88	7.585776e+03	3.519630e+00,	-1.39179e-05	
89	7.762471e+03	3.519630e+00,	-1.42421e-05	
90	7.943282e+03	3.519630e+00,	-1.45738e-05	
91	8.128305e+03	3.519630e+00,	-1.49133e-05	
92	8.317638e+03	3.519630e+00,	-1.52607e-05	
93	8.511380e+03	3.519630e+00,	-1.56162e-05	
94	8.709636e+03	3.519630e+00,	-1.59799e-05	
95	8.912509e+03	3.519630e+00,	-1.63521e-05	
96	9.120108e+03	3.519630e+00,	-1.67330e-05	
97	9.332543e+03	3.519630e+00,	-1.71228e-05	
98	9.549926e+03	3.519630e+00,	-1.75216e-05	
99	9.772372e+03	3.519630e+00,	-1.79297e-05	
100	1.000000e+04	3.519630e+00,	-1.83474e-05	
101	1.023293e+04	3.519630e+00,	-1.87748e-05	
102	1.047129e+04	3.519630e+00,	-1.92121e-05	
103	1.071519e+04	3.519630e+00,	-1.96596e-05	
104	1.096478e+04	3.519630e+00,	-2.01175e-05	
105	1.122018e+04	3.519630e+00,	-2.05861e-05	
106	1.148154e+04	3.519630e+00,	-2.10656e-05	
107	1.174898e+04	3.519630e+00,	-2.15563e-05	
108	1.202264e+04	3.519630e+00,	-2.20584e-05	
109	1.230269e+04	3.519630e+00,	-2.25722e-05	
110	1.258925e+04	3.519630e+00,	-2.30980e-05	
111	1.288250e+04	3.519630e+00,	-2.36360e-05	
112	1.318257e+04	3.519630e+00,	-2.41866e-05	

Index   frequency       vop                             
--------------------------------------------------------------------------------
113	1.348963e+04	3.519630e+00,	-2.47499e-05	
114	1.380384e+04	3.519630e+00,	-2.53264e-05	
115	1.412538e+04	3.519630e+00,	-2.59164e-05	
116	1.445440e+04	3.519630e+00,	-2.65200e-05	
117	1.479108e+04	3.519630e+00,	-2.71378e-05	
118	1.513561e+04	3.519630e+00,	-2.77699e-05	
119	1.548817e+04	3.519630e+00,	-2.84167e-05	
120	1.584893e+04	3.519630e+00,	-2.90786e-05	
121	1.621810e+04	3.519630e+00,	-2.97560e-05	
122	1.659587e+04	3.519630e+00,	-3.04491e-05	
123	1.698244e+04	3.519630e+00,	-3.11583e-05	
124	1.737801e+04	3.519630e+00,	-3.18841e-05	
125	1.778279e+04	3.519630e+00,	-3.26268e-05	
126	1.819701e+04	3.519630e+00,	-3.33868e-05	
127	1.862087e+04	3.519630e+00,	-3.41644e-05	
128	1.905461e+04	3.519630e+00,	-3.49602e-05	
129	1.949845e+04	3.519630e+00,	-3.57745e-05	
130	1.995262e+04	3.519630e+00,	-3.66078e-05	
131	2.041738e+04	3.519630e+00,	-3.74606e-05	
132	2.089296e+04	3.519630e+00,	-3.83331e-05	
133	2.137962e+04	3.519630e+00,	-3.92260e-05	
134	2.187762e+04	3.519630e+00,	-4.01397e-05	
135	2.238721e+04	3.519630e+00,	-4.10747e-05	
136	2.290868e+04	3.519630e+00,	-4.20314e-05	
137	2.344229e+04	3.519630e+00,	-4.30105e-05	
138	2.398833e+04	3.519630e+00,	-4.40123e-05	
139	2.454709e+04	3.519630e+00,	-4.50375e-05	
140	2.511886e+04	3.519630e+00,	-4.60865e-05	
141	2.570396e+04	3.519630e+00,	-4.71600e-05	
142	2.630268e+04	3.519630e+00,	-4.82585e-05	
143	2.691535e+04	3.519630e+00,	-4.93826e-05	
144	2.754229e+04	3.519630e+00,	-5.05329e-05	
145	2.818383e+04	3.519630e+00,	-5.17100e-05	
146	2.884032e+04	3.519630e+00,	-5.29144e-05	
147	2.951209e+04	3.519630e+00,	-5.41470e-05	
148	3.019952e+04	3.519630e+00,	-5.54082e-05	
149	3.090295e+04	3.519630e+00,	-5.66988e-05	
150	3.162278e+04	3.519630e+00,	-5.80195e-05	
151	3.235937e+04	3.519630e+00,	-5.93710e-05	
152	3.311311e+04	3.519630e+00,	-6.07539e-05	
153	3.388442e+04	3.519630e+00,	-6.21690e-05	
154	3.467369e+04	3.519630e+00,	-6.36171e-05	
155	3.548134e+04	3.519630e+00,	-6.50990e-05	
156	3.630781e+04	3.519630e+00,	-6.66153e-05	
157	3.715352e+04	3.519630e+00,	-6.81670e-05	
158	3.801894e+04	3.519630e+00,	-6.97548e-05	
159	3.890451e+04	3.519630e+00,	-7.13796e-05	
160	3.981072e+04	3.519630e+00,	-7.30423e-05	
161	4.073803e+04	3.519630e+00,	-7.47436e-05	
162	4.168694e+04	3.519630e+00,	-7.64846e-05	
163	4.265795e+04	3.519630e+00,	-7.82662e-05	
164	4.365158e+04	3.519630e+00,	-8.00892e-05	
165	4.466836e+04	3.519630e+00,	-8.19548e-05	
166	4.570882e+04	3.519630e+00,	-8.38637e-05	
167	4.677351e+04	3.519630e+00,	-8.58172e-05	
168	4.786301e+04	3.519630e+00,	-8.78161e-05	
169	4.897788e+04	3.519630e+00,	-8.98616e-05	
170	5.011872e+04	3.519630e+00,	-9.19548e-05	

Index   frequency       vop                             
--------------------------------------------------------------------------------
171	5.128614e+04	3.519630e+00,	-9.40967e-05	
172	5.248075e+04	3.519630e+00,	-9.62884e-05	
173	5.370318e+04	3.519630e+00,	-9.85313e-05	
174	5.495409e+04	3.519630e+00,	-1.00826e-04	
175	5.623413e+04	3.519630e+00,	-1.03175e-04	
176	5.754399e+04	3.519630e+00,	-1.05578e-04	
177	5.888437e+04	3.519630e+00,	-1.08037e-04	
178	6.025596e+04	3.519630e+00,	-1.10554e-04	
179	6.165950e+04	3.519630e+00,	-1.13129e-04	
180	6.309573e+04	3.519630e+00,	-1.15764e-04	
181	6.456542e+04	3.519630e+00,	-1.18461e-04	
182	6.606934e+04	3.519630e+00,	-1.21220e-04	
183	6.760830e+04	3.519630e+00,	-1.24044e-04	
184	6.918310e+04	3.519630e+00,	-1.26933e-04	
185	7.079458e+04	3.519630e+00,	-1.29890e-04	
186	7.244360e+04	3.519630e+00,	-1.32915e-04	
187	7.413102e+04	3.519630e+00,	-1.36011e-04	
188	7.585776e+04	3.519630e+00,	-1.39179e-04	
189	7.762471e+04	3.519630e+00,	-1.42421e-04	
190	7.943282e+04	3.519630e+00,	-1.45738e-04	
191	8.128305e+04	3.519630e+00,	-1.49133e-04	
192	8.317638e+04	3.519630e+00,	-1.52607e-04	
193	8.511380e+04	3.519630e+00,	-1.56162e-04	
194	8.709636e+04	3.519630e+00,	-1.59799e-04	
195	8.912509e+04	3.519630e+00,	-1.63521e-04	
196	9.120108e+04	3.519630e+00,	-1.67330e-04	
197	9.332543e+04	3.519630e+00,	-1.71228e-04	
198	9.549926e+04	3.519630e+00,	-1.75216e-04	
199	9.772372e+04	3.519630e+00,	-1.79297e-04	
200	1.000000e+05	3.519630e+00,	-1.83474e-04	
201	1.023293e+05	3.519630e+00,	-1.87748e-04	
202	1.047129e+05	3.519630e+00,	-1.92121e-04	
203	1.071519e+05	3.519630e+00,	-1.96596e-04	
204	1.096478e+05	3.519630e+00,	-2.01175e-04	
205	1.122018e+05	3.519630e+00,	-2.05861e-04	
206	1.148154e+05	3.519630e+00,	-2.10656e-04	
207	1.174898e+05	3.519630e+00,	-2.15563e-04	
208	1.202264e+05	3.519630e+00,	-2.20584e-04	
209	1.230269e+05	3.519630e+00,	-2.25722e-04	
210	1.258925e+05	3.519630e+00,	-2.30980e-04	
211	1.288250e+05	3.519630e+00,	-2.36360e-04	
212	1.318257e+05	3.519630e+00,	-2.41866e-04	
213	1.348963e+05	3.519630e+00,	-2.47499e-04	
214	1.380384e+05	3.519630e+00,	-2.53264e-04	
215	1.412538e+05	3.519630e+00,	-2.59164e-04	
216	1.445440e+05	3.519630e+00,	-2.65200e-04	
217	1.479108e+05	3.519630e+00,	-2.71378e-04	
218	1.513561e+05	3.519630e+00,	-2.77699e-04	
219	1.548817e+05	3.519630e+00,	-2.84167e-04	
220	1.584893e+05	3.519630e+00,	-2.90786e-04	
221	1.621810e+05	3.519630e+00,	-2.97560e-04	
222	1.659587e+05	3.519630e+00,	-3.04491e-04	
223	1.698244e+05	3.519630e+00,	-3.11583e-04	
224	1.737801e+05	3.519630e+00,	-3.18841e-04	
225	1.778279e+05	3.519630e+00,	-3.26268e-04	
226	1.819701e+05	3.519630e+00,	-3.33868e-04	
227	1.862087e+05	3.519630e+00,	-3.41644e-04	
228	1.905461e+05	3.519630e+00,	-3.49602e-04	

Index   frequency       vop                             
--------------------------------------------------------------------------------
229	1.949845e+05	3.519630e+00,	-3.57746e-04	
230	1.995262e+05	3.519630e+00,	-3.66078e-04	
231	2.041738e+05	3.519630e+00,	-3.74606e-04	
232	2.089296e+05	3.519630e+00,	-3.83331e-04	
233	2.137962e+05	3.519630e+00,	-3.92260e-04	
234	2.187762e+05	3.519630e+00,	-4.01397e-04	
235	2.238721e+05	3.519630e+00,	-4.10747e-04	
236	2.290868e+05	3.519630e+00,	-4.20314e-04	
237	2.344229e+05	3.519630e+00,	-4.30105e-04	
238	2.398833e+05	3.519630e+00,	-4.40123e-04	
239	2.454709e+05	3.519630e+00,	-4.50375e-04	
240	2.511886e+05	3.519630e+00,	-4.60866e-04	
241	2.570396e+05	3.519630e+00,	-4.71600e-04	
242	2.630268e+05	3.519630e+00,	-4.82585e-04	
243	2.691535e+05	3.519630e+00,	-4.93826e-04	
244	2.754229e+05	3.519630e+00,	-5.05329e-04	
245	2.818383e+05	3.519630e+00,	-5.17100e-04	
246	2.884032e+05	3.519630e+00,	-5.29144e-04	
247	2.951209e+05	3.519630e+00,	-5.41470e-04	
248	3.019952e+05	3.519630e+00,	-5.54082e-04	
249	3.090295e+05	3.519630e+00,	-5.66989e-04	
250	3.162278e+05	3.519630e+00,	-5.80195e-04	
251	3.235937e+05	3.519630e+00,	-5.93710e-04	
252	3.311311e+05	3.519630e+00,	-6.07539e-04	
253	3.388442e+05	3.519630e+00,	-6.21691e-04	
254	3.467369e+05	3.519630e+00,	-6.36172e-04	
255	3.548134e+05	3.519630e+00,	-6.50990e-04	
256	3.630781e+05	3.519630e+00,	-6.66154e-04	
257	3.715352e+05	3.519630e+00,	-6.81670e-04	
258	3.801894e+05	3.519630e+00,	-6.97548e-04	
259	3.890451e+05	3.519630e+00,	-7.13796e-04	
260	3.981072e+05	3.519630e+00,	-7.30423e-04	
261	4.073803e+05	3.519630e+00,	-7.47437e-04	
262	4.168694e+05	3.519630e+00,	-7.64847e-04	
263	4.265795e+05	3.519630e+00,	-7.82662e-04	
264	4.365158e+05	3.519630e+00,	-8.00893e-04	
265	4.466836e+05	3.519630e+00,	-8.19548e-04	
266	4.570882e+05	3.519630e+00,	-8.38638e-04	
267	4.677351e+05	3.519630e+00,	-8.58172e-04	
268	4.786301e+05	3.519630e+00,	-8.78162e-04	
269	4.897788e+05	3.519630e+00,	-8.98617e-04	
270	5.011872e+05	3.519630e+00,	-9.19548e-04	
271	5.128614e+05	3.519630e+00,	-9.40967e-04	
272	5.248075e+05	3.519630e+00,	-9.62885e-04	
273	5.370318e+05	3.519630e+00,	-9.85314e-04	
274	5.495409e+05	3.519630e+00,	-1.00826e-03	
275	5.623413e+05	3.519630e+00,	-1.03175e-03	
276	5.754399e+05	3.519630e+00,	-1.05578e-03	
277	5.888437e+05	3.519630e+00,	-1.08038e-03	
278	6.025596e+05	3.519630e+00,	-1.10554e-03	
279	6.165950e+05	3.519630e+00,	-1.13129e-03	
280	6.309573e+05	3.519630e+00,	-1.15764e-03	
281	6.456542e+05	3.519630e+00,	-1.18461e-03	
282	6.606934e+05	3.519630e+00,	-1.21220e-03	
283	6.760830e+05	3.519630e+00,	-1.24044e-03	
284	6.918310e+05	3.519630e+00,	-1.26933e-03	
285	7.079458e+05	3.519630e+00,	-1.29890e-03	
286	7.244360e+05	3.519630e+00,	-1.32915e-03	

Index   frequency       vop                             
--------------------------------------------------------------------------------
287	7.413102e+05	3.519630e+00,	-1.36011e-03	
288	7.585776e+05	3.519630e+00,	-1.39179e-03	
289	7.762471e+05	3.519630e+00,	-1.42421e-03	
290	7.943282e+05	3.519630e+00,	-1.45739e-03	
291	8.128305e+05	3.519630e+00,	-1.49133e-03	
292	8.317638e+05	3.519630e+00,	-1.52607e-03	
293	8.511380e+05	3.519630e+00,	-1.56162e-03	
294	8.709636e+05	3.519630e+00,	-1.59799e-03	
295	8.912509e+05	3.519630e+00,	-1.63522e-03	
296	9.120108e+05	3.519630e+00,	-1.67330e-03	
297	9.332543e+05	3.519630e+00,	-1.71228e-03	
298	9.549926e+05	3.519630e+00,	-1.75217e-03	
299	9.772372e+05	3.519630e+00,	-1.79298e-03	
300	1.000000e+06	3.519630e+00,	-1.83474e-03	
301	1.023293e+06	3.519630e+00,	-1.87748e-03	
302	1.047129e+06	3.519630e+00,	-1.92121e-03	
303	1.071519e+06	3.519630e+00,	-1.96596e-03	
304	1.096478e+06	3.519630e+00,	-2.01176e-03	
305	1.122018e+06	3.519630e+00,	-2.05862e-03	
306	1.148154e+06	3.519629e+00,	-2.10657e-03	
307	1.174898e+06	3.519629e+00,	-2.15564e-03	
308	1.202264e+06	3.519629e+00,	-2.20585e-03	
309	1.230269e+06	3.519629e+00,	-2.25723e-03	
310	1.258925e+06	3.519629e+00,	-2.30981e-03	
311	1.288250e+06	3.519629e+00,	-2.36361e-03	
312	1.318257e+06	3.519629e+00,	-2.41867e-03	
313	1.348963e+06	3.519629e+00,	-2.47501e-03	
314	1.380384e+06	3.519629e+00,	-2.53266e-03	
315	1.412538e+06	3.519629e+00,	-2.59165e-03	
316	1.445440e+06	3.519629e+00,	-2.65202e-03	
317	1.479108e+06	3.519629e+00,	-2.71379e-03	
318	1.513561e+06	3.519629e+00,	-2.77701e-03	
319	1.548817e+06	3.519629e+00,	-2.84169e-03	
320	1.584893e+06	3.519629e+00,	-2.90788e-03	
321	1.621810e+06	3.519629e+00,	-2.97562e-03	
322	1.659587e+06	3.519629e+00,	-3.04493e-03	
323	1.698244e+06	3.519629e+00,	-3.11586e-03	
324	1.737801e+06	3.519629e+00,	-3.18843e-03	
325	1.778279e+06	3.519629e+00,	-3.26270e-03	
326	1.819701e+06	3.519629e+00,	-3.33870e-03	
327	1.862087e+06	3.519629e+00,	-3.41647e-03	
328	1.905461e+06	3.519629e+00,	-3.49605e-03	
329	1.949845e+06	3.519629e+00,	-3.57749e-03	
330	1.995262e+06	3.519629e+00,	-3.66082e-03	
331	2.041738e+06	3.519629e+00,	-3.74610e-03	
332	2.089296e+06	3.519629e+00,	-3.83335e-03	
333	2.137962e+06	3.519628e+00,	-3.92265e-03	
334	2.187762e+06	3.519628e+00,	-4.01402e-03	
335	2.238721e+06	3.519628e+00,	-4.10752e-03	
336	2.290868e+06	3.519628e+00,	-4.20320e-03	
337	2.344229e+06	3.519628e+00,	-4.30111e-03	
338	2.398833e+06	3.519628e+00,	-4.40130e-03	
339	2.454709e+06	3.519628e+00,	-4.50382e-03	
340	2.511886e+06	3.519628e+00,	-4.60873e-03	
341	2.570396e+06	3.519628e+00,	-4.71608e-03	
342	2.630268e+06	3.519628e+00,	-4.82594e-03	
343	2.691535e+06	3.519628e+00,	-4.93835e-03	
344	2.754229e+06	3.519628e+00,	-5.05339e-03	

Index   frequency       vop                             
--------------------------------------------------------------------------------
345	2.818383e+06	3.519627e+00,	-5.17110e-03	
346	2.884032e+06	3.519627e+00,	-5.29156e-03	
347	2.951209e+06	3.519627e+00,	-5.41482e-03	
348	3.019952e+06	3.519627e+00,	-5.54095e-03	
349	3.090295e+06	3.519627e+00,	-5.67002e-03	
350	3.162278e+06	3.519627e+00,	-5.80210e-03	
351	3.235937e+06	3.519627e+00,	-5.93726e-03	
352	3.311311e+06	3.519627e+00,	-6.07556e-03	
353	3.388442e+06	3.519626e+00,	-6.21709e-03	
354	3.467369e+06	3.519626e+00,	-6.36191e-03	
355	3.548134e+06	3.519626e+00,	-6.51011e-03	
356	3.630781e+06	3.519626e+00,	-6.66176e-03	
357	3.715352e+06	3.519626e+00,	-6.81694e-03	
358	3.801894e+06	3.519625e+00,	-6.97574e-03	
359	3.890451e+06	3.519625e+00,	-7.13824e-03	
360	3.981072e+06	3.519625e+00,	-7.30452e-03	
361	4.073803e+06	3.519625e+00,	-7.47468e-03	
362	4.168694e+06	3.519625e+00,	-7.64880e-03	
363	4.265795e+06	3.519624e+00,	-7.82698e-03	
364	4.365158e+06	3.519624e+00,	-8.00931e-03	
365	4.466836e+06	3.519624e+00,	-8.19589e-03	
366	4.570882e+06	3.519624e+00,	-8.38682e-03	
367	4.677351e+06	3.519623e+00,	-8.58219e-03	
368	4.786301e+06	3.519623e+00,	-8.78212e-03	
369	4.897788e+06	3.519623e+00,	-8.98671e-03	
370	5.011872e+06	3.519622e+00,	-9.19606e-03	
371	5.128614e+06	3.519622e+00,	-9.41029e-03	
372	5.248075e+06	3.519621e+00,	-9.62952e-03	
373	5.370318e+06	3.519621e+00,	-9.85385e-03	
374	5.495409e+06	3.519621e+00,	-1.00834e-02	
375	5.623413e+06	3.519620e+00,	-1.03183e-02	
376	5.754399e+06	3.519620e+00,	-1.05587e-02	
377	5.888437e+06	3.519619e+00,	-1.08047e-02	
378	6.025596e+06	3.519619e+00,	-1.10564e-02	
379	6.165950e+06	3.519618e+00,	-1.13140e-02	
380	6.309573e+06	3.519618e+00,	-1.15776e-02	
381	6.456542e+06	3.519617e+00,	-1.18473e-02	
382	6.606934e+06	3.519616e+00,	-1.21233e-02	
383	6.760830e+06	3.519616e+00,	-1.24058e-02	
384	6.918310e+06	3.519615e+00,	-1.26948e-02	
385	7.079458e+06	3.519614e+00,	-1.29906e-02	
386	7.244360e+06	3.519614e+00,	-1.32933e-02	
387	7.413102e+06	3.519613e+00,	-1.36030e-02	
388	7.585776e+06	3.519612e+00,	-1.39199e-02	
389	7.762471e+06	3.519611e+00,	-1.42443e-02	
390	7.943282e+06	3.519610e+00,	-1.45762e-02	
391	8.128305e+06	3.519610e+00,	-1.49158e-02	
392	8.317638e+06	3.519609e+00,	-1.52633e-02	
393	8.511380e+06	3.519608e+00,	-1.56190e-02	
394	8.709636e+06	3.519606e+00,	-1.59830e-02	
395	8.912509e+06	3.519605e+00,	-1.63554e-02	
396	9.120108e+06	3.519604e+00,	-1.67365e-02	
397	9.332543e+06	3.519603e+00,	-1.71265e-02	
398	9.549926e+06	3.519602e+00,	-1.75256e-02	
399	9.772372e+06	3.519600e+00,	-1.79340e-02	
400	1.000000e+07	3.519599e+00,	-1.83520e-02	
401	1.023293e+07	3.519597e+00,	-1.87797e-02	
402	1.047129e+07	3.519596e+00,	-1.92173e-02	

Index   frequency       vop                             
--------------------------------------------------------------------------------
403	1.071519e+07	3.519594e+00,	-1.96652e-02	
404	1.096478e+07	3.519592e+00,	-2.01235e-02	
405	1.122018e+07	3.519591e+00,	-2.05925e-02	
406	1.148154e+07	3.519589e+00,	-2.10725e-02	
407	1.174898e+07	3.519587e+00,	-2.15637e-02	
408	1.202264e+07	3.519585e+00,	-2.20663e-02	
409	1.230269e+07	3.519582e+00,	-2.25807e-02	
410	1.258925e+07	3.519580e+00,	-2.31070e-02	
411	1.288250e+07	3.519578e+00,	-2.36457e-02	
412	1.318257e+07	3.519575e+00,	-2.41969e-02	
413	1.348963e+07	3.519572e+00,	-2.47610e-02	
414	1.380384e+07	3.519570e+00,	-2.53383e-02	
415	1.412538e+07	3.519567e+00,	-2.59290e-02	
416	1.445440e+07	3.519563e+00,	-2.65336e-02	
