** sch_path: /home/andylithia/openmpw/project-reisen-chip1/xschem/ota_wideband.sch
AC Analysis  Sun Oct 30 17:11:03  2022
--------------------------------------------------------------------------------
Index   frequency       vop                             
--------------------------------------------------------------------------------
0	1.000000e+03	3.238991e+00,	-8.00670e-07	
1	1.023293e+03	3.238991e+00,	-8.19320e-07	
2	1.047129e+03	3.238991e+00,	-8.38404e-07	
3	1.071519e+03	3.238991e+00,	-8.57933e-07	
4	1.096478e+03	3.238991e+00,	-8.77917e-07	
5	1.122018e+03	3.238991e+00,	-8.98366e-07	
6	1.148154e+03	3.238991e+00,	-9.19292e-07	
7	1.174898e+03	3.238991e+00,	-9.40705e-07	
8	1.202264e+03	3.238991e+00,	-9.62617e-07	
9	1.230269e+03	3.238991e+00,	-9.85039e-07	
10	1.258925e+03	3.238991e+00,	-1.00798e-06	
11	1.288250e+03	3.238991e+00,	-1.03146e-06	
12	1.318257e+03	3.238991e+00,	-1.05549e-06	
13	1.348963e+03	3.238991e+00,	-1.08007e-06	
14	1.380384e+03	3.238991e+00,	-1.10523e-06	
15	1.412538e+03	3.238991e+00,	-1.13098e-06	
16	1.445440e+03	3.238991e+00,	-1.15732e-06	
17	1.479108e+03	3.238991e+00,	-1.18428e-06	
18	1.513561e+03	3.238991e+00,	-1.21186e-06	
19	1.548817e+03	3.238991e+00,	-1.24009e-06	
20	1.584893e+03	3.238991e+00,	-1.26898e-06	
21	1.621810e+03	3.238991e+00,	-1.29853e-06	
22	1.659587e+03	3.238991e+00,	-1.32878e-06	
23	1.698244e+03	3.238991e+00,	-1.35973e-06	
24	1.737801e+03	3.238991e+00,	-1.39140e-06	
25	1.778279e+03	3.238991e+00,	-1.42381e-06	
26	1.819701e+03	3.238991e+00,	-1.45698e-06	
27	1.862087e+03	3.238991e+00,	-1.49092e-06	
28	1.905461e+03	3.238991e+00,	-1.52564e-06	
29	1.949845e+03	3.238991e+00,	-1.56118e-06	
30	1.995262e+03	3.238991e+00,	-1.59755e-06	
31	2.041738e+03	3.238991e+00,	-1.63476e-06	
32	2.089296e+03	3.238991e+00,	-1.67284e-06	
33	2.137962e+03	3.238991e+00,	-1.71180e-06	
34	2.187762e+03	3.238991e+00,	-1.75167e-06	
35	2.238721e+03	3.238991e+00,	-1.79248e-06	
36	2.290868e+03	3.238991e+00,	-1.83423e-06	
37	2.344229e+03	3.238991e+00,	-1.87695e-06	
38	2.398833e+03	3.238991e+00,	-1.92067e-06	
39	2.454709e+03	3.238991e+00,	-1.96541e-06	
40	2.511886e+03	3.238991e+00,	-2.01119e-06	
41	2.570396e+03	3.238991e+00,	-2.05804e-06	
42	2.630268e+03	3.238991e+00,	-2.10598e-06	
43	2.691535e+03	3.238991e+00,	-2.15503e-06	
44	2.754229e+03	3.238991e+00,	-2.20523e-06	
45	2.818383e+03	3.238991e+00,	-2.25659e-06	
46	2.884032e+03	3.238991e+00,	-2.30916e-06	
47	2.951209e+03	3.238991e+00,	-2.36294e-06	
48	3.019952e+03	3.238991e+00,	-2.41798e-06	
49	3.090295e+03	3.238991e+00,	-2.47431e-06	
50	3.162278e+03	3.238991e+00,	-2.53194e-06	
51	3.235937e+03	3.238991e+00,	-2.59092e-06	
52	3.311311e+03	3.238991e+00,	-2.65127e-06	
53	3.388442e+03	3.238991e+00,	-2.71302e-06	
54	3.467369e+03	3.238991e+00,	-2.77622e-06	

Index   frequency       vop                             
--------------------------------------------------------------------------------
55	3.548134e+03	3.238991e+00,	-2.84088e-06	
56	3.630781e+03	3.238991e+00,	-2.90706e-06	
57	3.715352e+03	3.238991e+00,	-2.97477e-06	
58	3.801894e+03	3.238991e+00,	-3.04406e-06	
59	3.890451e+03	3.238991e+00,	-3.11497e-06	
60	3.981072e+03	3.238991e+00,	-3.18752e-06	
61	4.073803e+03	3.238991e+00,	-3.26177e-06	
62	4.168694e+03	3.238991e+00,	-3.33775e-06	
63	4.265795e+03	3.238991e+00,	-3.41549e-06	
64	4.365158e+03	3.238991e+00,	-3.49505e-06	
65	4.466836e+03	3.238991e+00,	-3.57646e-06	
66	4.570882e+03	3.238991e+00,	-3.65977e-06	
67	4.677351e+03	3.238991e+00,	-3.74501e-06	
68	4.786301e+03	3.238991e+00,	-3.83225e-06	
69	4.897788e+03	3.238991e+00,	-3.92151e-06	
70	5.011872e+03	3.238991e+00,	-4.01285e-06	
71	5.128614e+03	3.238991e+00,	-4.10633e-06	
72	5.248075e+03	3.238991e+00,	-4.20197e-06	
73	5.370318e+03	3.238991e+00,	-4.29985e-06	
74	5.495409e+03	3.238991e+00,	-4.40001e-06	
75	5.623413e+03	3.238991e+00,	-4.50250e-06	
76	5.754399e+03	3.238991e+00,	-4.60737e-06	
77	5.888437e+03	3.238991e+00,	-4.71469e-06	
78	6.025596e+03	3.238991e+00,	-4.82451e-06	
79	6.165950e+03	3.238991e+00,	-4.93689e-06	
80	6.309573e+03	3.238991e+00,	-5.05188e-06	
81	6.456542e+03	3.238991e+00,	-5.16956e-06	
82	6.606934e+03	3.238991e+00,	-5.28997e-06	
83	6.760830e+03	3.238991e+00,	-5.41319e-06	
84	6.918310e+03	3.238991e+00,	-5.53928e-06	
85	7.079458e+03	3.238991e+00,	-5.66831e-06	
86	7.244360e+03	3.238991e+00,	-5.80034e-06	
87	7.413102e+03	3.238991e+00,	-5.93545e-06	
88	7.585776e+03	3.238991e+00,	-6.07370e-06	
89	7.762471e+03	3.238991e+00,	-6.21517e-06	
90	7.943282e+03	3.238991e+00,	-6.35994e-06	
91	8.128305e+03	3.238991e+00,	-6.50809e-06	
92	8.317638e+03	3.238991e+00,	-6.65968e-06	
93	8.511380e+03	3.238991e+00,	-6.81480e-06	
94	8.709636e+03	3.238991e+00,	-6.97354e-06	
95	8.912509e+03	3.238991e+00,	-7.13598e-06	
96	9.120108e+03	3.238991e+00,	-7.30219e-06	
97	9.332543e+03	3.238991e+00,	-7.47228e-06	
98	9.549926e+03	3.238991e+00,	-7.64634e-06	
99	9.772372e+03	3.238991e+00,	-7.82444e-06	
100	1.000000e+04	3.238991e+00,	-8.00670e-06	
101	1.023293e+04	3.238991e+00,	-8.19320e-06	
102	1.047129e+04	3.238991e+00,	-8.38404e-06	
103	1.071519e+04	3.238991e+00,	-8.57933e-06	
104	1.096478e+04	3.238991e+00,	-8.77917e-06	
105	1.122018e+04	3.238991e+00,	-8.98366e-06	
106	1.148154e+04	3.238991e+00,	-9.19292e-06	
107	1.174898e+04	3.238991e+00,	-9.40705e-06	
108	1.202264e+04	3.238991e+00,	-9.62617e-06	
109	1.230269e+04	3.238991e+00,	-9.85039e-06	
110	1.258925e+04	3.238991e+00,	-1.00798e-05	
111	1.288250e+04	3.238991e+00,	-1.03146e-05	
112	1.318257e+04	3.238991e+00,	-1.05549e-05	

Index   frequency       vop                             
--------------------------------------------------------------------------------
113	1.348963e+04	3.238991e+00,	-1.08007e-05	
114	1.380384e+04	3.238991e+00,	-1.10523e-05	
115	1.412538e+04	3.238991e+00,	-1.13098e-05	
116	1.445440e+04	3.238991e+00,	-1.15732e-05	
117	1.479108e+04	3.238991e+00,	-1.18428e-05	
118	1.513561e+04	3.238991e+00,	-1.21186e-05	
119	1.548817e+04	3.238991e+00,	-1.24009e-05	
120	1.584893e+04	3.238991e+00,	-1.26898e-05	
121	1.621810e+04	3.238991e+00,	-1.29853e-05	
122	1.659587e+04	3.238991e+00,	-1.32878e-05	
123	1.698244e+04	3.238991e+00,	-1.35973e-05	
124	1.737801e+04	3.238991e+00,	-1.39140e-05	
125	1.778279e+04	3.238991e+00,	-1.42381e-05	
126	1.819701e+04	3.238991e+00,	-1.45698e-05	
127	1.862087e+04	3.238991e+00,	-1.49092e-05	
128	1.905461e+04	3.238991e+00,	-1.52564e-05	
129	1.949845e+04	3.238991e+00,	-1.56118e-05	
130	1.995262e+04	3.238991e+00,	-1.59755e-05	
131	2.041738e+04	3.238991e+00,	-1.63476e-05	
132	2.089296e+04	3.238991e+00,	-1.67284e-05	
133	2.137962e+04	3.238991e+00,	-1.71180e-05	
134	2.187762e+04	3.238991e+00,	-1.75167e-05	
135	2.238721e+04	3.238991e+00,	-1.79248e-05	
136	2.290868e+04	3.238991e+00,	-1.83423e-05	
137	2.344229e+04	3.238991e+00,	-1.87695e-05	
138	2.398833e+04	3.238991e+00,	-1.92067e-05	
139	2.454709e+04	3.238991e+00,	-1.96541e-05	
140	2.511886e+04	3.238991e+00,	-2.01119e-05	
141	2.570396e+04	3.238991e+00,	-2.05804e-05	
142	2.630268e+04	3.238991e+00,	-2.10598e-05	
143	2.691535e+04	3.238991e+00,	-2.15503e-05	
144	2.754229e+04	3.238991e+00,	-2.20523e-05	
145	2.818383e+04	3.238991e+00,	-2.25659e-05	
146	2.884032e+04	3.238991e+00,	-2.30916e-05	
147	2.951209e+04	3.238991e+00,	-2.36294e-05	
148	3.019952e+04	3.238991e+00,	-2.41798e-05	
149	3.090295e+04	3.238991e+00,	-2.47431e-05	
150	3.162278e+04	3.238991e+00,	-2.53194e-05	
151	3.235937e+04	3.238991e+00,	-2.59092e-05	
152	3.311311e+04	3.238991e+00,	-2.65127e-05	
153	3.388442e+04	3.238991e+00,	-2.71302e-05	
154	3.467369e+04	3.238991e+00,	-2.77622e-05	
155	3.548134e+04	3.238991e+00,	-2.84088e-05	
156	3.630781e+04	3.238991e+00,	-2.90706e-05	
157	3.715352e+04	3.238991e+00,	-2.97477e-05	
158	3.801894e+04	3.238991e+00,	-3.04406e-05	
159	3.890451e+04	3.238991e+00,	-3.11497e-05	
160	3.981072e+04	3.238991e+00,	-3.18752e-05	
161	4.073803e+04	3.238991e+00,	-3.26177e-05	
162	4.168694e+04	3.238991e+00,	-3.33775e-05	
163	4.265795e+04	3.238991e+00,	-3.41549e-05	
164	4.365158e+04	3.238991e+00,	-3.49505e-05	
165	4.466836e+04	3.238991e+00,	-3.57646e-05	
166	4.570882e+04	3.238991e+00,	-3.65977e-05	
167	4.677351e+04	3.238991e+00,	-3.74501e-05	
168	4.786301e+04	3.238991e+00,	-3.83225e-05	
169	4.897788e+04	3.238991e+00,	-3.92151e-05	
170	5.011872e+04	3.238991e+00,	-4.01285e-05	

Index   frequency       vop                             
--------------------------------------------------------------------------------
171	5.128614e+04	3.238991e+00,	-4.10633e-05	
172	5.248075e+04	3.238991e+00,	-4.20197e-05	
173	5.370318e+04	3.238991e+00,	-4.29985e-05	
174	5.495409e+04	3.238991e+00,	-4.40001e-05	
175	5.623413e+04	3.238991e+00,	-4.50250e-05	
176	5.754399e+04	3.238991e+00,	-4.60737e-05	
177	5.888437e+04	3.238991e+00,	-4.71469e-05	
178	6.025596e+04	3.238991e+00,	-4.82451e-05	
179	6.165950e+04	3.238991e+00,	-4.93689e-05	
180	6.309573e+04	3.238991e+00,	-5.05188e-05	
181	6.456542e+04	3.238991e+00,	-5.16956e-05	
182	6.606934e+04	3.238991e+00,	-5.28997e-05	
183	6.760830e+04	3.238991e+00,	-5.41319e-05	
184	6.918310e+04	3.238991e+00,	-5.53928e-05	
185	7.079458e+04	3.238991e+00,	-5.66831e-05	
186	7.244360e+04	3.238991e+00,	-5.80034e-05	
187	7.413102e+04	3.238991e+00,	-5.93545e-05	
188	7.585776e+04	3.238991e+00,	-6.07370e-05	
189	7.762471e+04	3.238991e+00,	-6.21517e-05	
190	7.943282e+04	3.238991e+00,	-6.35994e-05	
191	8.128305e+04	3.238991e+00,	-6.50809e-05	
192	8.317638e+04	3.238991e+00,	-6.65968e-05	
193	8.511380e+04	3.238991e+00,	-6.81480e-05	
194	8.709636e+04	3.238991e+00,	-6.97354e-05	
195	8.912509e+04	3.238991e+00,	-7.13598e-05	
196	9.120108e+04	3.238991e+00,	-7.30219e-05	
197	9.332543e+04	3.238991e+00,	-7.47228e-05	
198	9.549926e+04	3.238991e+00,	-7.64633e-05	
199	9.772372e+04	3.238991e+00,	-7.82444e-05	
200	1.000000e+05	3.238991e+00,	-8.00670e-05	
201	1.023293e+05	3.238991e+00,	-8.19320e-05	
202	1.047129e+05	3.238991e+00,	-8.38404e-05	
203	1.071519e+05	3.238991e+00,	-8.57933e-05	
204	1.096478e+05	3.238991e+00,	-8.77917e-05	
205	1.122018e+05	3.238991e+00,	-8.98366e-05	
206	1.148154e+05	3.238991e+00,	-9.19292e-05	
207	1.174898e+05	3.238991e+00,	-9.40705e-05	
208	1.202264e+05	3.238991e+00,	-9.62617e-05	
209	1.230269e+05	3.238991e+00,	-9.85039e-05	
210	1.258925e+05	3.238991e+00,	-1.00798e-04	
211	1.288250e+05	3.238991e+00,	-1.03146e-04	
212	1.318257e+05	3.238991e+00,	-1.05549e-04	
213	1.348963e+05	3.238991e+00,	-1.08007e-04	
214	1.380384e+05	3.238991e+00,	-1.10523e-04	
215	1.412538e+05	3.238991e+00,	-1.13098e-04	
216	1.445440e+05	3.238991e+00,	-1.15732e-04	
217	1.479108e+05	3.238991e+00,	-1.18428e-04	
218	1.513561e+05	3.238991e+00,	-1.21186e-04	
219	1.548817e+05	3.238991e+00,	-1.24009e-04	
220	1.584893e+05	3.238991e+00,	-1.26898e-04	
221	1.621810e+05	3.238991e+00,	-1.29853e-04	
222	1.659587e+05	3.238991e+00,	-1.32878e-04	
223	1.698244e+05	3.238991e+00,	-1.35973e-04	
224	1.737801e+05	3.238991e+00,	-1.39140e-04	
225	1.778279e+05	3.238991e+00,	-1.42381e-04	
226	1.819701e+05	3.238991e+00,	-1.45698e-04	
227	1.862087e+05	3.238991e+00,	-1.49092e-04	
228	1.905461e+05	3.238991e+00,	-1.52564e-04	

Index   frequency       vop                             
--------------------------------------------------------------------------------
229	1.949845e+05	3.238991e+00,	-1.56118e-04	
230	1.995262e+05	3.238991e+00,	-1.59755e-04	
231	2.041738e+05	3.238991e+00,	-1.63476e-04	
232	2.089296e+05	3.238991e+00,	-1.67284e-04	
233	2.137962e+05	3.238991e+00,	-1.71180e-04	
234	2.187762e+05	3.238991e+00,	-1.75167e-04	
235	2.238721e+05	3.238991e+00,	-1.79248e-04	
236	2.290868e+05	3.238992e+00,	-1.83423e-04	
237	2.344229e+05	3.238992e+00,	-1.87695e-04	
238	2.398833e+05	3.238992e+00,	-1.92067e-04	
239	2.454709e+05	3.238992e+00,	-1.96541e-04	
240	2.511886e+05	3.238992e+00,	-2.01119e-04	
241	2.570396e+05	3.238992e+00,	-2.05804e-04	
242	2.630268e+05	3.238992e+00,	-2.10598e-04	
243	2.691535e+05	3.238992e+00,	-2.15503e-04	
244	2.754229e+05	3.238992e+00,	-2.20523e-04	
245	2.818383e+05	3.238992e+00,	-2.25659e-04	
246	2.884032e+05	3.238992e+00,	-2.30916e-04	
247	2.951209e+05	3.238992e+00,	-2.36294e-04	
248	3.019952e+05	3.238992e+00,	-2.41798e-04	
249	3.090295e+05	3.238992e+00,	-2.47431e-04	
250	3.162278e+05	3.238992e+00,	-2.53194e-04	
251	3.235937e+05	3.238992e+00,	-2.59092e-04	
252	3.311311e+05	3.238992e+00,	-2.65127e-04	
253	3.388442e+05	3.238992e+00,	-2.71302e-04	
254	3.467369e+05	3.238992e+00,	-2.77622e-04	
255	3.548134e+05	3.238992e+00,	-2.84088e-04	
256	3.630781e+05	3.238992e+00,	-2.90705e-04	
257	3.715352e+05	3.238992e+00,	-2.97477e-04	
258	3.801894e+05	3.238992e+00,	-3.04406e-04	
259	3.890451e+05	3.238992e+00,	-3.11497e-04	
260	3.981072e+05	3.238992e+00,	-3.18752e-04	
261	4.073803e+05	3.238992e+00,	-3.26177e-04	
262	4.168694e+05	3.238992e+00,	-3.33775e-04	
263	4.265795e+05	3.238992e+00,	-3.41549e-04	
264	4.365158e+05	3.238992e+00,	-3.49505e-04	
265	4.466836e+05	3.238992e+00,	-3.57646e-04	
266	4.570882e+05	3.238992e+00,	-3.65976e-04	
267	4.677351e+05	3.238992e+00,	-3.74501e-04	
268	4.786301e+05	3.238992e+00,	-3.83224e-04	
269	4.897788e+05	3.238992e+00,	-3.92151e-04	
270	5.011872e+05	3.238992e+00,	-4.01285e-04	
271	5.128614e+05	3.238992e+00,	-4.10632e-04	
272	5.248075e+05	3.238992e+00,	-4.20197e-04	
273	5.370318e+05	3.238992e+00,	-4.29985e-04	
274	5.495409e+05	3.238992e+00,	-4.40000e-04	
275	5.623413e+05	3.238992e+00,	-4.50249e-04	
276	5.754399e+05	3.238992e+00,	-4.60737e-04	
277	5.888437e+05	3.238992e+00,	-4.71469e-04	
278	6.025596e+05	3.238992e+00,	-4.82451e-04	
279	6.165950e+05	3.238992e+00,	-4.93688e-04	
280	6.309573e+05	3.238992e+00,	-5.05188e-04	
281	6.456542e+05	3.238992e+00,	-5.16955e-04	
282	6.606934e+05	3.238992e+00,	-5.28997e-04	
283	6.760830e+05	3.238992e+00,	-5.41319e-04	
284	6.918310e+05	3.238992e+00,	-5.53927e-04	
285	7.079458e+05	3.238992e+00,	-5.66830e-04	
286	7.244360e+05	3.238992e+00,	-5.80033e-04	

Index   frequency       vop                             
--------------------------------------------------------------------------------
287	7.413102e+05	3.238992e+00,	-5.93544e-04	
288	7.585776e+05	3.238992e+00,	-6.07369e-04	
289	7.762471e+05	3.238993e+00,	-6.21517e-04	
290	7.943282e+05	3.238993e+00,	-6.35994e-04	
291	8.128305e+05	3.238993e+00,	-6.50808e-04	
292	8.317638e+05	3.238993e+00,	-6.65967e-04	
293	8.511380e+05	3.238993e+00,	-6.81479e-04	
294	8.709636e+05	3.238993e+00,	-6.97353e-04	
295	8.912509e+05	3.238993e+00,	-7.13596e-04	
296	9.120108e+05	3.238993e+00,	-7.30218e-04	
297	9.332543e+05	3.238993e+00,	-7.47227e-04	
298	9.549926e+05	3.238993e+00,	-7.64632e-04	
299	9.772372e+05	3.238993e+00,	-7.82442e-04	
300	1.000000e+06	3.238993e+00,	-8.00668e-04	
301	1.023293e+06	3.238993e+00,	-8.19318e-04	
302	1.047129e+06	3.238993e+00,	-8.38402e-04	
303	1.071519e+06	3.238994e+00,	-8.57931e-04	
304	1.096478e+06	3.238994e+00,	-8.77914e-04	
305	1.122018e+06	3.238994e+00,	-8.98364e-04	
306	1.148154e+06	3.238994e+00,	-9.19289e-04	
307	1.174898e+06	3.238994e+00,	-9.40702e-04	
308	1.202264e+06	3.238994e+00,	-9.62614e-04	
309	1.230269e+06	3.238994e+00,	-9.85036e-04	
310	1.258925e+06	3.238994e+00,	-1.00798e-03	
311	1.288250e+06	3.238994e+00,	-1.03146e-03	
312	1.318257e+06	3.238995e+00,	-1.05548e-03	
313	1.348963e+06	3.238995e+00,	-1.08007e-03	
314	1.380384e+06	3.238995e+00,	-1.10523e-03	
315	1.412538e+06	3.238995e+00,	-1.13097e-03	
316	1.445440e+06	3.238995e+00,	-1.15731e-03	
317	1.479108e+06	3.238995e+00,	-1.18427e-03	
318	1.513561e+06	3.238996e+00,	-1.21186e-03	
319	1.548817e+06	3.238996e+00,	-1.24008e-03	
320	1.584893e+06	3.238996e+00,	-1.26897e-03	
321	1.621810e+06	3.238996e+00,	-1.29853e-03	
322	1.659587e+06	3.238996e+00,	-1.32877e-03	
323	1.698244e+06	3.238997e+00,	-1.35972e-03	
324	1.737801e+06	3.238997e+00,	-1.39140e-03	
325	1.778279e+06	3.238997e+00,	-1.42380e-03	
326	1.819701e+06	3.238997e+00,	-1.45697e-03	
327	1.862087e+06	3.238998e+00,	-1.49091e-03	
328	1.905461e+06	3.238998e+00,	-1.52563e-03	
329	1.949845e+06	3.238998e+00,	-1.56117e-03	
330	1.995262e+06	3.238999e+00,	-1.59753e-03	
331	2.041738e+06	3.238999e+00,	-1.63474e-03	
332	2.089296e+06	3.238999e+00,	-1.67282e-03	
333	2.137962e+06	3.239000e+00,	-1.71178e-03	
334	2.187762e+06	3.239000e+00,	-1.75166e-03	
335	2.238721e+06	3.239001e+00,	-1.79246e-03	
336	2.290868e+06	3.239001e+00,	-1.83421e-03	
337	2.344229e+06	3.239001e+00,	-1.87693e-03	
338	2.398833e+06	3.239002e+00,	-1.92065e-03	
339	2.454709e+06	3.239002e+00,	-1.96538e-03	
340	2.511886e+06	3.239003e+00,	-2.01116e-03	
341	2.570396e+06	3.239004e+00,	-2.05801e-03	
342	2.630268e+06	3.239004e+00,	-2.10594e-03	
343	2.691535e+06	3.239005e+00,	-2.15500e-03	
344	2.754229e+06	3.239005e+00,	-2.20519e-03	

Index   frequency       vop                             
--------------------------------------------------------------------------------
345	2.818383e+06	3.239006e+00,	-2.25655e-03	
346	2.884032e+06	3.239007e+00,	-2.30911e-03	
347	2.951209e+06	3.239007e+00,	-2.36290e-03	
348	3.019952e+06	3.239008e+00,	-2.41794e-03	
349	3.090295e+06	3.239009e+00,	-2.47425e-03	
350	3.162278e+06	3.239010e+00,	-2.53188e-03	
351	3.235937e+06	3.239011e+00,	-2.59086e-03	
352	3.311311e+06	3.239012e+00,	-2.65120e-03	
353	3.388442e+06	3.239012e+00,	-2.71295e-03	
354	3.467369e+06	3.239013e+00,	-2.77614e-03	
355	3.548134e+06	3.239015e+00,	-2.84081e-03	
356	3.630781e+06	3.239016e+00,	-2.90697e-03	
357	3.715352e+06	3.239017e+00,	-2.97468e-03	
358	3.801894e+06	3.239018e+00,	-3.04397e-03	
359	3.890451e+06	3.239019e+00,	-3.11486e-03	
360	3.981072e+06	3.239021e+00,	-3.18741e-03	
361	4.073803e+06	3.239022e+00,	-3.26165e-03	
362	4.168694e+06	3.239023e+00,	-3.33762e-03	
363	4.265795e+06	3.239025e+00,	-3.41536e-03	
364	4.365158e+06	3.239026e+00,	-3.49491e-03	
365	4.466836e+06	3.239028e+00,	-3.57631e-03	
366	4.570882e+06	3.239030e+00,	-3.65960e-03	
367	4.677351e+06	3.239032e+00,	-3.74484e-03	
368	4.786301e+06	3.239033e+00,	-3.83206e-03	
369	4.897788e+06	3.239035e+00,	-3.92131e-03	
370	5.011872e+06	3.239038e+00,	-4.01264e-03	
371	5.128614e+06	3.239040e+00,	-4.10610e-03	
372	5.248075e+06	3.239042e+00,	-4.20173e-03	
373	5.370318e+06	3.239044e+00,	-4.29959e-03	
374	5.495409e+06	3.239047e+00,	-4.39973e-03	
375	5.623413e+06	3.239050e+00,	-4.50220e-03	
376	5.754399e+06	3.239052e+00,	-4.60705e-03	
377	5.888437e+06	3.239055e+00,	-4.71435e-03	
378	6.025596e+06	3.239058e+00,	-4.82414e-03	
379	6.165950e+06	3.239061e+00,	-4.93650e-03	
380	6.309573e+06	3.239065e+00,	-5.05146e-03	
381	6.456542e+06	3.239068e+00,	-5.16911e-03	
382	6.606934e+06	3.239072e+00,	-5.28949e-03	
383	6.760830e+06	3.239076e+00,	-5.41268e-03	
384	6.918310e+06	3.239079e+00,	-5.53873e-03	
385	7.079458e+06	3.239084e+00,	-5.66772e-03	
386	7.244360e+06	3.239088e+00,	-5.79971e-03	
387	7.413102e+06	3.239093e+00,	-5.93478e-03	
388	7.585776e+06	3.239097e+00,	-6.07299e-03	
389	7.762471e+06	3.239102e+00,	-6.21441e-03	
390	7.943282e+06	3.239108e+00,	-6.35913e-03	
391	8.128305e+06	3.239113e+00,	-6.50722e-03	
392	8.317638e+06	3.239119e+00,	-6.65875e-03	
393	8.511380e+06	3.239125e+00,	-6.81381e-03	
394	8.709636e+06	3.239131e+00,	-6.97248e-03	
395	8.912509e+06	3.239138e+00,	-7.13485e-03	
396	9.120108e+06	3.239145e+00,	-7.30099e-03	
397	9.332543e+06	3.239152e+00,	-7.47100e-03	
398	9.549926e+06	3.239160e+00,	-7.64497e-03	
399	9.772372e+06	3.239168e+00,	-7.82299e-03	
400	1.000000e+07	3.239176e+00,	-8.00515e-03	
401	1.023293e+07	3.239185e+00,	-8.19155e-03	
402	1.047129e+07	3.239194e+00,	-8.38228e-03	

Index   frequency       vop                             
--------------------------------------------------------------------------------
403	1.071519e+07	3.239204e+00,	-8.57746e-03	
404	1.096478e+07	3.239214e+00,	-8.77718e-03	
405	1.122018e+07	3.239224e+00,	-8.98155e-03	
406	1.148154e+07	3.239235e+00,	-9.19067e-03	
407	1.174898e+07	3.239247e+00,	-9.40466e-03	
408	1.202264e+07	3.239259e+00,	-9.62363e-03	
409	1.230269e+07	3.239272e+00,	-9.84769e-03	
410	1.258925e+07	3.239285e+00,	-1.00770e-02	
411	1.288250e+07	3.239299e+00,	-1.03116e-02	
412	1.318257e+07	3.239314e+00,	-1.05517e-02	
413	1.348963e+07	3.239329e+00,	-1.07973e-02	
414	1.380384e+07	3.239345e+00,	-1.10487e-02	
415	1.412538e+07	3.239362e+00,	-1.13059e-02	
416	1.445440e+07	3.239380e+00,	-1.15692e-02	
