  ** sch_path: /home/andylithia/openmpw/project-reisen-chip1/xschem/ctle_3.sch
  AC Analysis  Sun Oct 30 23:22:42  2022
--------------------------------------------------------------------------------
Index   frequency       vop                             
--------------------------------------------------------------------------------
0	1.000000e+03	1.075958e-01,	7.712298e-07	
1	1.023293e+03	1.075958e-01,	7.891941e-07	
2	1.047129e+03	1.075958e-01,	8.075768e-07	
3	1.071519e+03	1.075958e-01,	8.263877e-07	
4	1.096478e+03	1.075958e-01,	8.456367e-07	
5	1.122018e+03	1.075958e-01,	8.653341e-07	
6	1.148154e+03	1.075958e-01,	8.854903e-07	
7	1.174898e+03	1.075958e-01,	9.061161e-07	
8	1.202264e+03	1.075958e-01,	9.272222e-07	
9	1.230269e+03	1.075958e-01,	9.488200e-07	
10	1.258925e+03	1.075958e-01,	9.709208e-07	
11	1.288250e+03	1.075958e-01,	9.935365e-07	
12	1.318257e+03	1.075958e-01,	1.016679e-06	
13	1.348963e+03	1.075958e-01,	1.040360e-06	
14	1.380384e+03	1.075958e-01,	1.064594e-06	
15	1.412538e+03	1.075958e-01,	1.089391e-06	
16	1.445440e+03	1.075958e-01,	1.114766e-06	
17	1.479108e+03	1.075958e-01,	1.140733e-06	
18	1.513561e+03	1.075958e-01,	1.167304e-06	
19	1.548817e+03	1.075958e-01,	1.194494e-06	
20	1.584893e+03	1.075958e-01,	1.222317e-06	
21	1.621810e+03	1.075958e-01,	1.250788e-06	
22	1.659587e+03	1.075958e-01,	1.279923e-06	
23	1.698244e+03	1.075958e-01,	1.309736e-06	
24	1.737801e+03	1.075958e-01,	1.340244e-06	
25	1.778279e+03	1.075958e-01,	1.371462e-06	
26	1.819701e+03	1.075958e-01,	1.403408e-06	
27	1.862087e+03	1.075958e-01,	1.436097e-06	
28	1.905461e+03	1.075958e-01,	1.469548e-06	
29	1.949845e+03	1.075958e-01,	1.503778e-06	
30	1.995262e+03	1.075958e-01,	1.538806e-06	
31	2.041738e+03	1.075958e-01,	1.574649e-06	
32	2.089296e+03	1.075958e-01,	1.611328e-06	
33	2.137962e+03	1.075958e-01,	1.648860e-06	
34	2.187762e+03	1.075958e-01,	1.687267e-06	
35	2.238721e+03	1.075958e-01,	1.726569e-06	
36	2.290868e+03	1.075958e-01,	1.766786e-06	
37	2.344229e+03	1.075958e-01,	1.807939e-06	
38	2.398833e+03	1.075958e-01,	1.850052e-06	
39	2.454709e+03	1.075958e-01,	1.893145e-06	
40	2.511886e+03	1.075958e-01,	1.937242e-06	
41	2.570396e+03	1.075958e-01,	1.982366e-06	
42	2.630268e+03	1.075958e-01,	2.028541e-06	
43	2.691535e+03	1.075958e-01,	2.075792e-06	
44	2.754229e+03	1.075958e-01,	2.124143e-06	
45	2.818383e+03	1.075958e-01,	2.173621e-06	
46	2.884032e+03	1.075958e-01,	2.224251e-06	
47	2.951209e+03	1.075958e-01,	2.276061e-06	
48	3.019952e+03	1.075958e-01,	2.329077e-06	
49	3.090295e+03	1.075958e-01,	2.383328e-06	
50	3.162278e+03	1.075958e-01,	2.438843e-06	
51	3.235937e+03	1.075958e-01,	2.495651e-06	
52	3.311311e+03	1.075958e-01,	2.553782e-06	
53	3.388442e+03	1.075958e-01,	2.613267e-06	
54	3.467369e+03	1.075958e-01,	2.674138e-06	

Index   frequency       vop                             
--------------------------------------------------------------------------------
55	3.548134e+03	1.075958e-01,	2.736427e-06	
56	3.630781e+03	1.075958e-01,	2.800166e-06	
57	3.715352e+03	1.075958e-01,	2.865391e-06	
58	3.801894e+03	1.075958e-01,	2.932134e-06	
59	3.890451e+03	1.075958e-01,	3.000432e-06	
60	3.981072e+03	1.075958e-01,	3.070321e-06	
61	4.073803e+03	1.075958e-01,	3.141838e-06	
62	4.168694e+03	1.075958e-01,	3.215021e-06	
63	4.265795e+03	1.075958e-01,	3.289909e-06	
64	4.365158e+03	1.075958e-01,	3.366540e-06	
65	4.466836e+03	1.075958e-01,	3.444957e-06	
66	4.570882e+03	1.075958e-01,	3.525201e-06	
67	4.677351e+03	1.075958e-01,	3.607313e-06	
68	4.786301e+03	1.075958e-01,	3.691338e-06	
69	4.897788e+03	1.075958e-01,	3.777320e-06	
70	5.011872e+03	1.075958e-01,	3.865306e-06	
71	5.128614e+03	1.075958e-01,	3.955340e-06	
72	5.248075e+03	1.075958e-01,	4.047472e-06	
73	5.370318e+03	1.075958e-01,	4.141749e-06	
74	5.495409e+03	1.075958e-01,	4.238223e-06	
75	5.623413e+03	1.075958e-01,	4.336944e-06	
76	5.754399e+03	1.075958e-01,	4.437965e-06	
77	5.888437e+03	1.075958e-01,	4.541338e-06	
78	6.025596e+03	1.075958e-01,	4.647119e-06	
79	6.165950e+03	1.075958e-01,	4.755365e-06	
80	6.309573e+03	1.075958e-01,	4.866131e-06	
81	6.456542e+03	1.075958e-01,	4.979478e-06	
82	6.606934e+03	1.075958e-01,	5.095465e-06	
83	6.760830e+03	1.075958e-01,	5.214154e-06	
84	6.918310e+03	1.075958e-01,	5.335607e-06	
85	7.079458e+03	1.075958e-01,	5.459889e-06	
86	7.244360e+03	1.075958e-01,	5.587066e-06	
87	7.413102e+03	1.075958e-01,	5.717206e-06	
88	7.585776e+03	1.075958e-01,	5.850377e-06	
89	7.762471e+03	1.075958e-01,	5.986649e-06	
90	7.943282e+03	1.075958e-01,	6.126096e-06	
91	8.128305e+03	1.075958e-01,	6.268792e-06	
92	8.317638e+03	1.075958e-01,	6.414810e-06	
93	8.511380e+03	1.075958e-01,	6.564231e-06	
94	8.709636e+03	1.075958e-01,	6.717131e-06	
95	8.912509e+03	1.075958e-01,	6.873593e-06	
96	9.120108e+03	1.075958e-01,	7.033700e-06	
97	9.332543e+03	1.075958e-01,	7.197536e-06	
98	9.549926e+03	1.075958e-01,	7.365188e-06	
99	9.772372e+03	1.075958e-01,	7.536745e-06	
100	1.000000e+04	1.075958e-01,	7.712298e-06	
101	1.023293e+04	1.075958e-01,	7.891941e-06	
102	1.047129e+04	1.075958e-01,	8.075768e-06	
103	1.071519e+04	1.075958e-01,	8.263877e-06	
104	1.096478e+04	1.075958e-01,	8.456367e-06	
105	1.122018e+04	1.075958e-01,	8.653341e-06	
106	1.148154e+04	1.075958e-01,	8.854903e-06	
107	1.174898e+04	1.075958e-01,	9.061161e-06	
108	1.202264e+04	1.075958e-01,	9.272222e-06	
109	1.230269e+04	1.075958e-01,	9.488200e-06	
110	1.258925e+04	1.075958e-01,	9.709208e-06	
111	1.288250e+04	1.075958e-01,	9.935365e-06	
112	1.318257e+04	1.075958e-01,	1.016679e-05	

Index   frequency       vop                             
--------------------------------------------------------------------------------
113	1.348963e+04	1.075958e-01,	1.040360e-05	
114	1.380384e+04	1.075958e-01,	1.064594e-05	
115	1.412538e+04	1.075958e-01,	1.089391e-05	
116	1.445440e+04	1.075958e-01,	1.114766e-05	
117	1.479108e+04	1.075958e-01,	1.140733e-05	
118	1.513561e+04	1.075958e-01,	1.167304e-05	
119	1.548817e+04	1.075958e-01,	1.194494e-05	
120	1.584893e+04	1.075958e-01,	1.222317e-05	
121	1.621810e+04	1.075958e-01,	1.250788e-05	
122	1.659587e+04	1.075958e-01,	1.279923e-05	
123	1.698244e+04	1.075958e-01,	1.309736e-05	
124	1.737801e+04	1.075958e-01,	1.340244e-05	
125	1.778279e+04	1.075958e-01,	1.371462e-05	
126	1.819701e+04	1.075958e-01,	1.403408e-05	
127	1.862087e+04	1.075958e-01,	1.436097e-05	
128	1.905461e+04	1.075958e-01,	1.469548e-05	
129	1.949845e+04	1.075958e-01,	1.503778e-05	
130	1.995262e+04	1.075958e-01,	1.538806e-05	
131	2.041738e+04	1.075958e-01,	1.574649e-05	
132	2.089296e+04	1.075958e-01,	1.611328e-05	
133	2.137962e+04	1.075958e-01,	1.648860e-05	
134	2.187762e+04	1.075958e-01,	1.687267e-05	
135	2.238721e+04	1.075958e-01,	1.726569e-05	
136	2.290868e+04	1.075958e-01,	1.766786e-05	
137	2.344229e+04	1.075958e-01,	1.807939e-05	
138	2.398833e+04	1.075958e-01,	1.850052e-05	
139	2.454709e+04	1.075958e-01,	1.893145e-05	
140	2.511886e+04	1.075958e-01,	1.937242e-05	
141	2.570396e+04	1.075958e-01,	1.982366e-05	
142	2.630268e+04	1.075958e-01,	2.028541e-05	
143	2.691535e+04	1.075958e-01,	2.075792e-05	
144	2.754229e+04	1.075958e-01,	2.124143e-05	
145	2.818383e+04	1.075958e-01,	2.173621e-05	
146	2.884032e+04	1.075958e-01,	2.224251e-05	
147	2.951209e+04	1.075958e-01,	2.276061e-05	
148	3.019952e+04	1.075958e-01,	2.329077e-05	
149	3.090295e+04	1.075958e-01,	2.383328e-05	
150	3.162278e+04	1.075958e-01,	2.438843e-05	
151	3.235937e+04	1.075958e-01,	2.495651e-05	
152	3.311311e+04	1.075958e-01,	2.553782e-05	
153	3.388442e+04	1.075958e-01,	2.613267e-05	
154	3.467369e+04	1.075958e-01,	2.674138e-05	
155	3.548134e+04	1.075958e-01,	2.736427e-05	
156	3.630781e+04	1.075958e-01,	2.800166e-05	
157	3.715352e+04	1.075958e-01,	2.865391e-05	
158	3.801894e+04	1.075958e-01,	2.932134e-05	
159	3.890451e+04	1.075958e-01,	3.000432e-05	
160	3.981072e+04	1.075958e-01,	3.070321e-05	
161	4.073803e+04	1.075958e-01,	3.141838e-05	
162	4.168694e+04	1.075958e-01,	3.215021e-05	
163	4.265795e+04	1.075958e-01,	3.289909e-05	
164	4.365158e+04	1.075958e-01,	3.366540e-05	
165	4.466836e+04	1.075958e-01,	3.444957e-05	
166	4.570882e+04	1.075958e-01,	3.525201e-05	
167	4.677351e+04	1.075958e-01,	3.607313e-05	
168	4.786301e+04	1.075958e-01,	3.691338e-05	
169	4.897788e+04	1.075958e-01,	3.777320e-05	
170	5.011872e+04	1.075958e-01,	3.865306e-05	

Index   frequency       vop                             
--------------------------------------------------------------------------------
171	5.128614e+04	1.075958e-01,	3.955340e-05	
172	5.248075e+04	1.075958e-01,	4.047472e-05	
173	5.370318e+04	1.075958e-01,	4.141750e-05	
174	5.495409e+04	1.075958e-01,	4.238223e-05	
175	5.623413e+04	1.075958e-01,	4.336944e-05	
176	5.754399e+04	1.075958e-01,	4.437965e-05	
177	5.888437e+04	1.075958e-01,	4.541338e-05	
178	6.025596e+04	1.075958e-01,	4.647119e-05	
179	6.165950e+04	1.075958e-01,	4.755365e-05	
180	6.309573e+04	1.075958e-01,	4.866131e-05	
181	6.456542e+04	1.075958e-01,	4.979478e-05	
182	6.606934e+04	1.075958e-01,	5.095465e-05	
183	6.760830e+04	1.075958e-01,	5.214154e-05	
184	6.918310e+04	1.075958e-01,	5.335607e-05	
185	7.079458e+04	1.075958e-01,	5.459889e-05	
186	7.244360e+04	1.075958e-01,	5.587066e-05	
187	7.413102e+04	1.075958e-01,	5.717206e-05	
188	7.585776e+04	1.075958e-01,	5.850377e-05	
189	7.762471e+04	1.075958e-01,	5.986650e-05	
190	7.943282e+04	1.075958e-01,	6.126096e-05	
191	8.128305e+04	1.075958e-01,	6.268792e-05	
192	8.317638e+04	1.075958e-01,	6.414811e-05	
193	8.511380e+04	1.075958e-01,	6.564231e-05	
194	8.709636e+04	1.075958e-01,	6.717131e-05	
195	8.912509e+04	1.075958e-01,	6.873593e-05	
196	9.120108e+04	1.075958e-01,	7.033700e-05	
197	9.332543e+04	1.075958e-01,	7.197536e-05	
198	9.549926e+04	1.075958e-01,	7.365188e-05	
199	9.772372e+04	1.075958e-01,	7.536745e-05	
200	1.000000e+05	1.075958e-01,	7.712299e-05	
201	1.023293e+05	1.075958e-01,	7.891941e-05	
202	1.047129e+05	1.075958e-01,	8.075768e-05	
203	1.071519e+05	1.075958e-01,	8.263877e-05	
204	1.096478e+05	1.075958e-01,	8.456367e-05	
205	1.122018e+05	1.075958e-01,	8.653341e-05	
206	1.148154e+05	1.075958e-01,	8.854904e-05	
207	1.174898e+05	1.075958e-01,	9.061161e-05	
208	1.202264e+05	1.075958e-01,	9.272222e-05	
209	1.230269e+05	1.075958e-01,	9.488200e-05	
210	1.258925e+05	1.075958e-01,	9.709209e-05	
211	1.288250e+05	1.075958e-01,	9.935365e-05	
212	1.318257e+05	1.075958e-01,	1.016679e-04	
213	1.348963e+05	1.075958e-01,	1.040360e-04	
214	1.380384e+05	1.075958e-01,	1.064594e-04	
215	1.412538e+05	1.075958e-01,	1.089391e-04	
216	1.445440e+05	1.075958e-01,	1.114766e-04	
217	1.479108e+05	1.075958e-01,	1.140733e-04	
218	1.513561e+05	1.075958e-01,	1.167304e-04	
219	1.548817e+05	1.075958e-01,	1.194494e-04	
220	1.584893e+05	1.075958e-01,	1.222317e-04	
221	1.621810e+05	1.075958e-01,	1.250788e-04	
222	1.659587e+05	1.075958e-01,	1.279923e-04	
223	1.698244e+05	1.075958e-01,	1.309736e-04	
224	1.737801e+05	1.075958e-01,	1.340244e-04	
225	1.778279e+05	1.075958e-01,	1.371462e-04	
226	1.819701e+05	1.075958e-01,	1.403408e-04	
227	1.862087e+05	1.075958e-01,	1.436097e-04	
228	1.905461e+05	1.075958e-01,	1.469548e-04	

Index   frequency       vop                             
--------------------------------------------------------------------------------
229	1.949845e+05	1.075958e-01,	1.503778e-04	
230	1.995262e+05	1.075958e-01,	1.538806e-04	
231	2.041738e+05	1.075958e-01,	1.574649e-04	
232	2.089296e+05	1.075958e-01,	1.611328e-04	
233	2.137962e+05	1.075958e-01,	1.648860e-04	
234	2.187762e+05	1.075958e-01,	1.687267e-04	
235	2.238721e+05	1.075958e-01,	1.726569e-04	
236	2.290868e+05	1.075958e-01,	1.766786e-04	
237	2.344229e+05	1.075958e-01,	1.807939e-04	
238	2.398833e+05	1.075958e-01,	1.850052e-04	
239	2.454709e+05	1.075959e-01,	1.893145e-04	
240	2.511886e+05	1.075959e-01,	1.937242e-04	
241	2.570396e+05	1.075959e-01,	1.982366e-04	
242	2.630268e+05	1.075959e-01,	2.028541e-04	
243	2.691535e+05	1.075959e-01,	2.075792e-04	
244	2.754229e+05	1.075959e-01,	2.124144e-04	
245	2.818383e+05	1.075959e-01,	2.173621e-04	
246	2.884032e+05	1.075959e-01,	2.224252e-04	
247	2.951209e+05	1.075959e-01,	2.276061e-04	
248	3.019952e+05	1.075959e-01,	2.329077e-04	
249	3.090295e+05	1.075959e-01,	2.383329e-04	
250	3.162278e+05	1.075959e-01,	2.438843e-04	
251	3.235937e+05	1.075959e-01,	2.495651e-04	
252	3.311311e+05	1.075959e-01,	2.553783e-04	
253	3.388442e+05	1.075959e-01,	2.613268e-04	
254	3.467369e+05	1.075959e-01,	2.674139e-04	
255	3.548134e+05	1.075959e-01,	2.736428e-04	
256	3.630781e+05	1.075959e-01,	2.800167e-04	
257	3.715352e+05	1.075959e-01,	2.865391e-04	
258	3.801894e+05	1.075959e-01,	2.932135e-04	
259	3.890451e+05	1.075959e-01,	3.000433e-04	
260	3.981072e+05	1.075959e-01,	3.070322e-04	
261	4.073803e+05	1.075959e-01,	3.141839e-04	
262	4.168694e+05	1.075959e-01,	3.215022e-04	
263	4.265795e+05	1.075959e-01,	3.289910e-04	
264	4.365158e+05	1.075959e-01,	3.366542e-04	
265	4.466836e+05	1.075959e-01,	3.444959e-04	
266	4.570882e+05	1.075959e-01,	3.525202e-04	
267	4.677351e+05	1.075959e-01,	3.607315e-04	
268	4.786301e+05	1.075959e-01,	3.691340e-04	
269	4.897788e+05	1.075959e-01,	3.777322e-04	
270	5.011872e+05	1.075959e-01,	3.865308e-04	
271	5.128614e+05	1.075959e-01,	3.955342e-04	
272	5.248075e+05	1.075960e-01,	4.047474e-04	
273	5.370318e+05	1.075960e-01,	4.141752e-04	
274	5.495409e+05	1.075960e-01,	4.238226e-04	
275	5.623413e+05	1.075960e-01,	4.336947e-04	
276	5.754399e+05	1.075960e-01,	4.437968e-04	
277	5.888437e+05	1.075960e-01,	4.541342e-04	
278	6.025596e+05	1.075960e-01,	4.647123e-04	
279	6.165950e+05	1.075960e-01,	4.755369e-04	
280	6.309573e+05	1.075960e-01,	4.866136e-04	
281	6.456542e+05	1.075960e-01,	4.979483e-04	
282	6.606934e+05	1.075960e-01,	5.095470e-04	
283	6.760830e+05	1.075960e-01,	5.214159e-04	
284	6.918310e+05	1.075960e-01,	5.335613e-04	
285	7.079458e+05	1.075961e-01,	5.459895e-04	
286	7.244360e+05	1.075961e-01,	5.587073e-04	

Index   frequency       vop                             
--------------------------------------------------------------------------------
287	7.413102e+05	1.075961e-01,	5.717213e-04	
288	7.585776e+05	1.075961e-01,	5.850384e-04	
289	7.762471e+05	1.075961e-01,	5.986657e-04	
290	7.943282e+05	1.075961e-01,	6.126105e-04	
291	8.128305e+05	1.075961e-01,	6.268801e-04	
292	8.317638e+05	1.075961e-01,	6.414820e-04	
293	8.511380e+05	1.075962e-01,	6.564241e-04	
294	8.709636e+05	1.075962e-01,	6.717142e-04	
295	8.912509e+05	1.075962e-01,	6.873605e-04	
296	9.120108e+05	1.075962e-01,	7.033712e-04	
297	9.332543e+05	1.075962e-01,	7.197549e-04	
298	9.549926e+05	1.075962e-01,	7.365202e-04	
299	9.772372e+05	1.075963e-01,	7.536761e-04	
300	1.000000e+06	1.075963e-01,	7.712315e-04	
301	1.023293e+06	1.075963e-01,	7.891959e-04	
302	1.047129e+06	1.075963e-01,	8.075787e-04	
303	1.071519e+06	1.075964e-01,	8.263897e-04	
304	1.096478e+06	1.075964e-01,	8.456389e-04	
305	1.122018e+06	1.075964e-01,	8.653364e-04	
306	1.148154e+06	1.075964e-01,	8.854928e-04	
307	1.174898e+06	1.075965e-01,	9.061187e-04	
308	1.202264e+06	1.075965e-01,	9.272250e-04	
309	1.230269e+06	1.075965e-01,	9.488230e-04	
310	1.258925e+06	1.075966e-01,	9.709240e-04	
311	1.288250e+06	1.075966e-01,	9.935399e-04	
312	1.318257e+06	1.075966e-01,	1.016683e-03	
313	1.348963e+06	1.075967e-01,	1.040364e-03	
314	1.380384e+06	1.075967e-01,	1.064598e-03	
315	1.412538e+06	1.075968e-01,	1.089395e-03	
316	1.445440e+06	1.075968e-01,	1.114771e-03	
317	1.479108e+06	1.075968e-01,	1.140738e-03	
318	1.513561e+06	1.075969e-01,	1.167309e-03	
319	1.548817e+06	1.075969e-01,	1.194499e-03	
320	1.584893e+06	1.075970e-01,	1.222323e-03	
321	1.621810e+06	1.075971e-01,	1.250795e-03	
322	1.659587e+06	1.075971e-01,	1.279930e-03	
323	1.698244e+06	1.075972e-01,	1.309743e-03	
324	1.737801e+06	1.075972e-01,	1.340252e-03	
325	1.778279e+06	1.075973e-01,	1.371470e-03	
326	1.819701e+06	1.075974e-01,	1.403416e-03	
327	1.862087e+06	1.075974e-01,	1.436106e-03	
328	1.905461e+06	1.075975e-01,	1.469558e-03	
329	1.949845e+06	1.075976e-01,	1.503789e-03	
330	1.995262e+06	1.075977e-01,	1.538817e-03	
331	2.041738e+06	1.075978e-01,	1.574661e-03	
332	2.089296e+06	1.075979e-01,	1.611340e-03	
333	2.137962e+06	1.075980e-01,	1.648873e-03	
334	2.187762e+06	1.075981e-01,	1.687280e-03	
335	2.238721e+06	1.075982e-01,	1.726583e-03	
336	2.290868e+06	1.075983e-01,	1.766800e-03	
337	2.344229e+06	1.075984e-01,	1.807955e-03	
338	2.398833e+06	1.075985e-01,	1.850068e-03	
339	2.454709e+06	1.075987e-01,	1.893162e-03	
340	2.511886e+06	1.075988e-01,	1.937260e-03	
341	2.570396e+06	1.075989e-01,	1.982385e-03	
342	2.630268e+06	1.075991e-01,	2.028561e-03	
343	2.691535e+06	1.075992e-01,	2.075812e-03	
344	2.754229e+06	1.075994e-01,	2.124165e-03	

Index   frequency       vop                             
--------------------------------------------------------------------------------
345	2.818383e+06	1.075996e-01,	2.173643e-03	
346	2.884032e+06	1.075997e-01,	2.224274e-03	
347	2.951209e+06	1.075999e-01,	2.276084e-03	
348	3.019952e+06	1.076001e-01,	2.329101e-03	
349	3.090295e+06	1.076003e-01,	2.383353e-03	
350	3.162278e+06	1.076005e-01,	2.438868e-03	
351	3.235937e+06	1.076008e-01,	2.495676e-03	
352	3.311311e+06	1.076010e-01,	2.553808e-03	
353	3.388442e+06	1.076012e-01,	2.613293e-03	
354	3.467369e+06	1.076015e-01,	2.674164e-03	
355	3.548134e+06	1.076018e-01,	2.736452e-03	
356	3.630781e+06	1.076020e-01,	2.800191e-03	
357	3.715352e+06	1.076023e-01,	2.865415e-03	
358	3.801894e+06	1.076027e-01,	2.932158e-03	
359	3.890451e+06	1.076030e-01,	3.000454e-03	
360	3.981072e+06	1.076033e-01,	3.070342e-03	
361	4.073803e+06	1.076037e-01,	3.141857e-03	
362	4.168694e+06	1.076040e-01,	3.215037e-03	
363	4.265795e+06	1.076044e-01,	3.289922e-03	
364	4.365158e+06	1.076048e-01,	3.366550e-03	
365	4.466836e+06	1.076053e-01,	3.444963e-03	
366	4.570882e+06	1.076057e-01,	3.525202e-03	
367	4.677351e+06	1.076062e-01,	3.607309e-03	
368	4.786301e+06	1.076067e-01,	3.691328e-03	
369	4.897788e+06	1.076072e-01,	3.777304e-03	
370	5.011872e+06	1.076077e-01,	3.865281e-03	
371	5.128614e+06	1.076083e-01,	3.955307e-03	
372	5.248075e+06	1.076089e-01,	4.047430e-03	
373	5.370318e+06	1.076095e-01,	4.141698e-03	
374	5.495409e+06	1.076101e-01,	4.238160e-03	
375	5.623413e+06	1.076108e-01,	4.336869e-03	
376	5.754399e+06	1.076115e-01,	4.437877e-03	
377	5.888437e+06	1.076123e-01,	4.541236e-03	
378	6.025596e+06	1.076130e-01,	4.647003e-03	
379	6.165950e+06	1.076138e-01,	4.755232e-03	
380	6.309573e+06	1.076147e-01,	4.865982e-03	
381	6.456542e+06	1.076156e-01,	4.979310e-03	
382	6.606934e+06	1.076165e-01,	5.095278e-03	
383	6.760830e+06	1.076175e-01,	5.213946e-03	
384	6.918310e+06	1.076185e-01,	5.335378e-03	
385	7.079458e+06	1.076195e-01,	5.459637e-03	
386	7.244360e+06	1.076206e-01,	5.586790e-03	
387	7.413102e+06	1.076218e-01,	5.716905e-03	
388	7.585776e+06	1.076230e-01,	5.850049e-03	
389	7.762471e+06	1.076243e-01,	5.986295e-03	
390	7.943282e+06	1.076256e-01,	6.125713e-03	
391	8.128305e+06	1.076270e-01,	6.268378e-03	
392	8.317638e+06	1.076285e-01,	6.414365e-03	
393	8.511380e+06	1.076300e-01,	6.563753e-03	
394	8.709636e+06	1.076316e-01,	6.716619e-03	
395	8.912509e+06	1.076333e-01,	6.873046e-03	
396	9.120108e+06	1.076350e-01,	7.033115e-03	
397	9.332543e+06	1.076368e-01,	7.196913e-03	
398	9.549926e+06	1.076388e-01,	7.364525e-03	
399	9.772372e+06	1.076408e-01,	7.536040e-03	
400	1.000000e+07	1.076429e-01,	7.711550e-03	
401	1.023293e+07	1.076451e-01,	7.891147e-03	
402	1.047129e+07	1.076474e-01,	8.074926e-03	

Index   frequency       vop                             
--------------------------------------------------------------------------------
403	1.071519e+07	1.076498e-01,	8.262985e-03	
404	1.096478e+07	1.076523e-01,	8.455424e-03	
405	1.122018e+07	1.076549e-01,	8.652344e-03	
406	1.148154e+07	1.076577e-01,	8.853849e-03	
407	1.174898e+07	1.076606e-01,	9.060047e-03	
408	1.202264e+07	1.076636e-01,	9.271046e-03	
409	1.230269e+07	1.076668e-01,	9.486959e-03	
410	1.258925e+07	1.076701e-01,	9.707900e-03	
411	1.288250e+07	1.076736e-01,	9.933984e-03	
412	1.318257e+07	1.076772e-01,	1.016533e-02	
413	1.348963e+07	1.076810e-01,	1.040207e-02	
414	1.380384e+07	1.076850e-01,	1.064432e-02	
415	1.412538e+07	1.076892e-01,	1.089221e-02	
416	1.445440e+07	1.076936e-01,	1.114587e-02	
