** sch_path: /home/andylithia/openmpw/project-reisen-chip1/xschem/ota_wideband.sch
AC Analysis  Sun Oct 30 17:11:03  2022
--------------------------------------------------------------------------------
Index   frequency       vop                             
--------------------------------------------------------------------------------
0	1.000000e+03	2.081921e+00,	9.982322e-06	
1	1.023293e+03	2.081921e+00,	1.021484e-05	
2	1.047129e+03	2.081921e+00,	1.045277e-05	
3	1.071519e+03	2.081921e+00,	1.069625e-05	
4	1.096478e+03	2.081921e+00,	1.094540e-05	
5	1.122018e+03	2.081921e+00,	1.120035e-05	
6	1.148154e+03	2.081921e+00,	1.146124e-05	
7	1.174898e+03	2.081921e+00,	1.172821e-05	
8	1.202264e+03	2.081921e+00,	1.200139e-05	
9	1.230269e+03	2.081921e+00,	1.228094e-05	
10	1.258925e+03	2.081921e+00,	1.256700e-05	
11	1.288250e+03	2.081921e+00,	1.285972e-05	
12	1.318257e+03	2.081921e+00,	1.315926e-05	
13	1.348963e+03	2.081921e+00,	1.346578e-05	
14	1.380384e+03	2.081921e+00,	1.377944e-05	
15	1.412538e+03	2.081921e+00,	1.410040e-05	
16	1.445440e+03	2.081921e+00,	1.442885e-05	
17	1.479108e+03	2.081921e+00,	1.476494e-05	
18	1.513561e+03	2.081921e+00,	1.510886e-05	
19	1.548817e+03	2.081921e+00,	1.546079e-05	
20	1.584893e+03	2.081921e+00,	1.582091e-05	
21	1.621810e+03	2.081921e+00,	1.618943e-05	
22	1.659587e+03	2.081921e+00,	1.656653e-05	
23	1.698244e+03	2.081921e+00,	1.695242e-05	
24	1.737801e+03	2.081921e+00,	1.734729e-05	
25	1.778279e+03	2.081921e+00,	1.775136e-05	
26	1.819701e+03	2.081921e+00,	1.816484e-05	
27	1.862087e+03	2.081921e+00,	1.858795e-05	
28	1.905461e+03	2.081921e+00,	1.902092e-05	
29	1.949845e+03	2.081921e+00,	1.946398e-05	
30	1.995262e+03	2.081921e+00,	1.991735e-05	
31	2.041738e+03	2.081921e+00,	2.038129e-05	
32	2.089296e+03	2.081921e+00,	2.085603e-05	
33	2.137962e+03	2.081921e+00,	2.134183e-05	
34	2.187762e+03	2.081921e+00,	2.183894e-05	
35	2.238721e+03	2.081921e+00,	2.234764e-05	
36	2.290868e+03	2.081921e+00,	2.286818e-05	
37	2.344229e+03	2.081921e+00,	2.340085e-05	
38	2.398833e+03	2.081921e+00,	2.394592e-05	
39	2.454709e+03	2.081921e+00,	2.450370e-05	
40	2.511886e+03	2.081921e+00,	2.507446e-05	
41	2.570396e+03	2.081921e+00,	2.565852e-05	
42	2.630268e+03	2.081921e+00,	2.625618e-05	
43	2.691535e+03	2.081921e+00,	2.686777e-05	
44	2.754229e+03	2.081921e+00,	2.749360e-05	
45	2.818383e+03	2.081921e+00,	2.813401e-05	
46	2.884032e+03	2.081921e+00,	2.878933e-05	
47	2.951209e+03	2.081921e+00,	2.945992e-05	
48	3.019952e+03	2.081921e+00,	3.014613e-05	
49	3.090295e+03	2.081921e+00,	3.084832e-05	
50	3.162278e+03	2.081921e+00,	3.156687e-05	
51	3.235937e+03	2.081921e+00,	3.230216e-05	
52	3.311311e+03	2.081921e+00,	3.305458e-05	
53	3.388442e+03	2.081921e+00,	3.382452e-05	
54	3.467369e+03	2.081921e+00,	3.461239e-05	

Index   frequency       vop                             
--------------------------------------------------------------------------------
55	3.548134e+03	2.081921e+00,	3.541862e-05	
56	3.630781e+03	2.081921e+00,	3.624362e-05	
57	3.715352e+03	2.081921e+00,	3.708784e-05	
58	3.801894e+03	2.081921e+00,	3.795173e-05	
59	3.890451e+03	2.081921e+00,	3.883574e-05	
60	3.981072e+03	2.081921e+00,	3.974034e-05	
61	4.073803e+03	2.081921e+00,	4.066601e-05	
62	4.168694e+03	2.081921e+00,	4.161324e-05	
63	4.265795e+03	2.081921e+00,	4.258254e-05	
64	4.365158e+03	2.081921e+00,	4.357442e-05	
65	4.466836e+03	2.081921e+00,	4.458940e-05	
66	4.570882e+03	2.081921e+00,	4.562802e-05	
67	4.677351e+03	2.081921e+00,	4.669083e-05	
68	4.786301e+03	2.081921e+00,	4.777840e-05	
69	4.897788e+03	2.081921e+00,	4.889130e-05	
70	5.011872e+03	2.081921e+00,	5.003012e-05	
71	5.128614e+03	2.081921e+00,	5.119548e-05	
72	5.248075e+03	2.081921e+00,	5.238797e-05	
73	5.370318e+03	2.081921e+00,	5.360824e-05	
74	5.495409e+03	2.081921e+00,	5.485694e-05	
75	5.623413e+03	2.081921e+00,	5.613472e-05	
76	5.754399e+03	2.081921e+00,	5.744227e-05	
77	5.888437e+03	2.081921e+00,	5.878027e-05	
78	6.025596e+03	2.081921e+00,	6.014944e-05	
79	6.165950e+03	2.081921e+00,	6.155050e-05	
80	6.309573e+03	2.081921e+00,	6.298419e-05	
81	6.456542e+03	2.081921e+00,	6.445129e-05	
82	6.606934e+03	2.081921e+00,	6.595255e-05	
83	6.760830e+03	2.081921e+00,	6.748878e-05	
84	6.918310e+03	2.081921e+00,	6.906080e-05	
85	7.079458e+03	2.081921e+00,	7.066943e-05	
86	7.244360e+03	2.081921e+00,	7.231553e-05	
87	7.413102e+03	2.081921e+00,	7.399998e-05	
88	7.585776e+03	2.081921e+00,	7.572366e-05	
89	7.762471e+03	2.081921e+00,	7.748749e-05	
90	7.943282e+03	2.081921e+00,	7.929240e-05	
91	8.128305e+03	2.081921e+00,	8.113936e-05	
92	8.317638e+03	2.081921e+00,	8.302934e-05	
93	8.511380e+03	2.081921e+00,	8.496334e-05	
94	8.709636e+03	2.081921e+00,	8.694239e-05	
95	8.912509e+03	2.081921e+00,	8.896754e-05	
96	9.120108e+03	2.081921e+00,	9.103986e-05	
97	9.332543e+03	2.081921e+00,	9.316045e-05	
98	9.549926e+03	2.081921e+00,	9.533044e-05	
99	9.772372e+03	2.081921e+00,	9.755097e-05	
100	1.000000e+04	2.081921e+00,	9.982322e-05	
101	1.023293e+04	2.081921e+00,	1.021484e-04	
102	1.047129e+04	2.081921e+00,	1.045277e-04	
103	1.071519e+04	2.081921e+00,	1.069625e-04	
104	1.096478e+04	2.081921e+00,	1.094540e-04	
105	1.122018e+04	2.081921e+00,	1.120035e-04	
106	1.148154e+04	2.081921e+00,	1.146124e-04	
107	1.174898e+04	2.081921e+00,	1.172821e-04	
108	1.202264e+04	2.081921e+00,	1.200139e-04	
109	1.230269e+04	2.081921e+00,	1.228094e-04	
110	1.258925e+04	2.081921e+00,	1.256700e-04	
111	1.288250e+04	2.081921e+00,	1.285972e-04	
112	1.318257e+04	2.081921e+00,	1.315926e-04	

Index   frequency       vop                             
--------------------------------------------------------------------------------
113	1.348963e+04	2.081921e+00,	1.346578e-04	
114	1.380384e+04	2.081921e+00,	1.377944e-04	
115	1.412538e+04	2.081921e+00,	1.410040e-04	
116	1.445440e+04	2.081921e+00,	1.442885e-04	
117	1.479108e+04	2.081921e+00,	1.476494e-04	
118	1.513561e+04	2.081921e+00,	1.510886e-04	
119	1.548817e+04	2.081921e+00,	1.546079e-04	
120	1.584893e+04	2.081921e+00,	1.582091e-04	
121	1.621810e+04	2.081921e+00,	1.618943e-04	
122	1.659587e+04	2.081921e+00,	1.656653e-04	
123	1.698244e+04	2.081921e+00,	1.695241e-04	
124	1.737801e+04	2.081921e+00,	1.734729e-04	
125	1.778279e+04	2.081921e+00,	1.775136e-04	
126	1.819701e+04	2.081921e+00,	1.816484e-04	
127	1.862087e+04	2.081921e+00,	1.858795e-04	
128	1.905461e+04	2.081921e+00,	1.902092e-04	
129	1.949845e+04	2.081921e+00,	1.946398e-04	
130	1.995262e+04	2.081921e+00,	1.991735e-04	
131	2.041738e+04	2.081921e+00,	2.038129e-04	
132	2.089296e+04	2.081921e+00,	2.085603e-04	
133	2.137962e+04	2.081921e+00,	2.134183e-04	
134	2.187762e+04	2.081921e+00,	2.183894e-04	
135	2.238721e+04	2.081921e+00,	2.234764e-04	
136	2.290868e+04	2.081921e+00,	2.286818e-04	
137	2.344229e+04	2.081921e+00,	2.340085e-04	
138	2.398833e+04	2.081921e+00,	2.394592e-04	
139	2.454709e+04	2.081921e+00,	2.450369e-04	
140	2.511886e+04	2.081921e+00,	2.507446e-04	
141	2.570396e+04	2.081921e+00,	2.565852e-04	
142	2.630268e+04	2.081921e+00,	2.625618e-04	
143	2.691535e+04	2.081921e+00,	2.686777e-04	
144	2.754229e+04	2.081921e+00,	2.749360e-04	
145	2.818383e+04	2.081921e+00,	2.813401e-04	
146	2.884032e+04	2.081921e+00,	2.878933e-04	
147	2.951209e+04	2.081921e+00,	2.945992e-04	
148	3.019952e+04	2.081921e+00,	3.014613e-04	
149	3.090295e+04	2.081921e+00,	3.084832e-04	
150	3.162278e+04	2.081921e+00,	3.156687e-04	
151	3.235937e+04	2.081921e+00,	3.230216e-04	
152	3.311311e+04	2.081921e+00,	3.305457e-04	
153	3.388442e+04	2.081921e+00,	3.382451e-04	
154	3.467369e+04	2.081921e+00,	3.461239e-04	
155	3.548134e+04	2.081921e+00,	3.541861e-04	
156	3.630781e+04	2.081921e+00,	3.624362e-04	
157	3.715352e+04	2.081921e+00,	3.708784e-04	
158	3.801894e+04	2.081921e+00,	3.795173e-04	
159	3.890451e+04	2.081921e+00,	3.883574e-04	
160	3.981072e+04	2.081921e+00,	3.974034e-04	
161	4.073803e+04	2.081921e+00,	4.066601e-04	
162	4.168694e+04	2.081921e+00,	4.161324e-04	
163	4.265795e+04	2.081921e+00,	4.258254e-04	
164	4.365158e+04	2.081921e+00,	4.357441e-04	
165	4.466836e+04	2.081921e+00,	4.458939e-04	
166	4.570882e+04	2.081921e+00,	4.562801e-04	
167	4.677351e+04	2.081921e+00,	4.669082e-04	
168	4.786301e+04	2.081921e+00,	4.777839e-04	
169	4.897788e+04	2.081921e+00,	4.889129e-04	
170	5.011872e+04	2.081921e+00,	5.003012e-04	

Index   frequency       vop                             
--------------------------------------------------------------------------------
171	5.128614e+04	2.081921e+00,	5.119547e-04	
172	5.248075e+04	2.081921e+00,	5.238796e-04	
173	5.370318e+04	2.081921e+00,	5.360824e-04	
174	5.495409e+04	2.081921e+00,	5.485693e-04	
175	5.623413e+04	2.081921e+00,	5.613471e-04	
176	5.754399e+04	2.081921e+00,	5.744226e-04	
177	5.888437e+04	2.081921e+00,	5.878026e-04	
178	6.025596e+04	2.081921e+00,	6.014943e-04	
179	6.165950e+04	2.081921e+00,	6.155049e-04	
180	6.309573e+04	2.081921e+00,	6.298418e-04	
181	6.456542e+04	2.081921e+00,	6.445127e-04	
182	6.606934e+04	2.081921e+00,	6.595253e-04	
183	6.760830e+04	2.081921e+00,	6.748876e-04	
184	6.918310e+04	2.081921e+00,	6.906078e-04	
185	7.079458e+04	2.081921e+00,	7.066941e-04	
186	7.244360e+04	2.081921e+00,	7.231551e-04	
187	7.413102e+04	2.081921e+00,	7.399996e-04	
188	7.585776e+04	2.081921e+00,	7.572363e-04	
189	7.762471e+04	2.081921e+00,	7.748746e-04	
190	7.943282e+04	2.081921e+00,	7.929238e-04	
191	8.128305e+04	2.081921e+00,	8.113933e-04	
192	8.317638e+04	2.081921e+00,	8.302931e-04	
193	8.511380e+04	2.081921e+00,	8.496331e-04	
194	8.709636e+04	2.081921e+00,	8.694236e-04	
195	8.912509e+04	2.081921e+00,	8.896750e-04	
196	9.120108e+04	2.081921e+00,	9.103982e-04	
197	9.332543e+04	2.081921e+00,	9.316041e-04	
198	9.549926e+04	2.081921e+00,	9.533039e-04	
199	9.772372e+04	2.081921e+00,	9.755092e-04	
200	1.000000e+05	2.081921e+00,	9.982317e-04	
201	1.023293e+05	2.081921e+00,	1.021483e-03	
202	1.047129e+05	2.081921e+00,	1.045277e-03	
203	1.071519e+05	2.081921e+00,	1.069624e-03	
204	1.096478e+05	2.081922e+00,	1.094539e-03	
205	1.122018e+05	2.081922e+00,	1.120034e-03	
206	1.148154e+05	2.081922e+00,	1.146123e-03	
207	1.174898e+05	2.081922e+00,	1.172820e-03	
208	1.202264e+05	2.081922e+00,	1.200138e-03	
209	1.230269e+05	2.081922e+00,	1.228093e-03	
210	1.258925e+05	2.081922e+00,	1.256699e-03	
211	1.288250e+05	2.081922e+00,	1.285971e-03	
212	1.318257e+05	2.081922e+00,	1.315925e-03	
213	1.348963e+05	2.081922e+00,	1.346577e-03	
214	1.380384e+05	2.081922e+00,	1.377943e-03	
215	1.412538e+05	2.081922e+00,	1.410039e-03	
216	1.445440e+05	2.081922e+00,	1.442883e-03	
217	1.479108e+05	2.081922e+00,	1.476492e-03	
218	1.513561e+05	2.081922e+00,	1.510884e-03	
219	1.548817e+05	2.081922e+00,	1.546077e-03	
220	1.584893e+05	2.081923e+00,	1.582089e-03	
221	1.621810e+05	2.081923e+00,	1.618941e-03	
222	1.659587e+05	2.081923e+00,	1.656651e-03	
223	1.698244e+05	2.081923e+00,	1.695239e-03	
224	1.737801e+05	2.081923e+00,	1.734726e-03	
225	1.778279e+05	2.081923e+00,	1.775133e-03	
226	1.819701e+05	2.081923e+00,	1.816481e-03	
227	1.862087e+05	2.081923e+00,	1.858792e-03	
228	1.905461e+05	2.081923e+00,	1.902089e-03	

Index   frequency       vop                             
--------------------------------------------------------------------------------
229	1.949845e+05	2.081924e+00,	1.946394e-03	
230	1.995262e+05	2.081924e+00,	1.991731e-03	
231	2.041738e+05	2.081924e+00,	2.038124e-03	
232	2.089296e+05	2.081924e+00,	2.085598e-03	
233	2.137962e+05	2.081924e+00,	2.134178e-03	
234	2.187762e+05	2.081924e+00,	2.183889e-03	
235	2.238721e+05	2.081925e+00,	2.234758e-03	
236	2.290868e+05	2.081925e+00,	2.286812e-03	
237	2.344229e+05	2.081925e+00,	2.340078e-03	
238	2.398833e+05	2.081925e+00,	2.394585e-03	
239	2.454709e+05	2.081925e+00,	2.450362e-03	
240	2.511886e+05	2.081926e+00,	2.507438e-03	
241	2.570396e+05	2.081926e+00,	2.565843e-03	
242	2.630268e+05	2.081926e+00,	2.625609e-03	
243	2.691535e+05	2.081926e+00,	2.686767e-03	
244	2.754229e+05	2.081927e+00,	2.749349e-03	
245	2.818383e+05	2.081927e+00,	2.813389e-03	
246	2.884032e+05	2.081927e+00,	2.878921e-03	
247	2.951209e+05	2.081928e+00,	2.945979e-03	
248	3.019952e+05	2.081928e+00,	3.014599e-03	
249	3.090295e+05	2.081928e+00,	3.084817e-03	
250	3.162278e+05	2.081929e+00,	3.156671e-03	
251	3.235937e+05	2.081929e+00,	3.230199e-03	
252	3.311311e+05	2.081929e+00,	3.305439e-03	
253	3.388442e+05	2.081930e+00,	3.382431e-03	
254	3.467369e+05	2.081930e+00,	3.461217e-03	
255	3.548134e+05	2.081931e+00,	3.541838e-03	
256	3.630781e+05	2.081931e+00,	3.624337e-03	
257	3.715352e+05	2.081932e+00,	3.708758e-03	
258	3.801894e+05	2.081932e+00,	3.795145e-03	
259	3.890451e+05	2.081933e+00,	3.883543e-03	
260	3.981072e+05	2.081933e+00,	3.974001e-03	
261	4.073803e+05	2.081934e+00,	4.066566e-03	
262	4.168694e+05	2.081934e+00,	4.161287e-03	
263	4.265795e+05	2.081935e+00,	4.258214e-03	
264	4.365158e+05	2.081936e+00,	4.357399e-03	
265	4.466836e+05	2.081937e+00,	4.458893e-03	
266	4.570882e+05	2.081937e+00,	4.562752e-03	
267	4.677351e+05	2.081938e+00,	4.669030e-03	
268	4.786301e+05	2.081939e+00,	4.777783e-03	
269	4.897788e+05	2.081940e+00,	4.889069e-03	
270	5.011872e+05	2.081941e+00,	5.002947e-03	
271	5.128614e+05	2.081942e+00,	5.119478e-03	
272	5.248075e+05	2.081943e+00,	5.238722e-03	
273	5.370318e+05	2.081944e+00,	5.360744e-03	
274	5.495409e+05	2.081945e+00,	5.485608e-03	
275	5.623413e+05	2.081946e+00,	5.613380e-03	
276	5.754399e+05	2.081947e+00,	5.744128e-03	
277	5.888437e+05	2.081948e+00,	5.877921e-03	
278	6.025596e+05	2.081950e+00,	6.014830e-03	
279	6.165950e+05	2.081951e+00,	6.154928e-03	
280	6.309573e+05	2.081952e+00,	6.298289e-03	
281	6.456542e+05	2.081954e+00,	6.444989e-03	
282	6.606934e+05	2.081956e+00,	6.595105e-03	
283	6.760830e+05	2.081957e+00,	6.748718e-03	
284	6.918310e+05	2.081959e+00,	6.905908e-03	
285	7.079458e+05	2.081961e+00,	7.066759e-03	
286	7.244360e+05	2.081963e+00,	7.231356e-03	

Index   frequency       vop                             
--------------------------------------------------------------------------------
287	7.413102e+05	2.081965e+00,	7.399786e-03	
288	7.585776e+05	2.081967e+00,	7.572139e-03	
289	7.762471e+05	2.081969e+00,	7.748506e-03	
290	7.943282e+05	2.081971e+00,	7.928980e-03	
291	8.128305e+05	2.081973e+00,	8.113658e-03	
292	8.317638e+05	2.081976e+00,	8.302636e-03	
293	8.511380e+05	2.081979e+00,	8.496014e-03	
294	8.709636e+05	2.081981e+00,	8.693897e-03	
295	8.912509e+05	2.081984e+00,	8.896387e-03	
296	9.120108e+05	2.081987e+00,	9.103593e-03	
297	9.332543e+05	2.081990e+00,	9.315624e-03	
298	9.549926e+05	2.081994e+00,	9.532592e-03	
299	9.772372e+05	2.081997e+00,	9.754613e-03	
300	1.000000e+06	2.082001e+00,	9.981804e-03	
301	1.023293e+06	2.082004e+00,	1.021428e-02	
302	1.047129e+06	2.082008e+00,	1.045218e-02	
303	1.071519e+06	2.082013e+00,	1.069561e-02	
304	1.096478e+06	2.082017e+00,	1.094472e-02	
305	1.122018e+06	2.082021e+00,	1.119962e-02	
306	1.148154e+06	2.082026e+00,	1.146045e-02	
307	1.174898e+06	2.082031e+00,	1.172736e-02	
308	1.202264e+06	2.082036e+00,	1.200049e-02	
309	1.230269e+06	2.082042e+00,	1.227997e-02	
310	1.258925e+06	2.082048e+00,	1.256596e-02	
311	1.288250e+06	2.082053e+00,	1.285861e-02	
312	1.318257e+06	2.082060e+00,	1.315808e-02	
313	1.348963e+06	2.082066e+00,	1.346451e-02	
314	1.380384e+06	2.082073e+00,	1.377808e-02	
315	1.412538e+06	2.082080e+00,	1.409894e-02	
316	1.445440e+06	2.082088e+00,	1.442728e-02	
317	1.479108e+06	2.082096e+00,	1.476326e-02	
318	1.513561e+06	2.082104e+00,	1.510706e-02	
319	1.548817e+06	2.082113e+00,	1.545886e-02	
320	1.584893e+06	2.082122e+00,	1.581885e-02	
321	1.621810e+06	2.082131e+00,	1.618722e-02	
322	1.659587e+06	2.082141e+00,	1.656416e-02	
323	1.698244e+06	2.082152e+00,	1.694988e-02	
324	1.737801e+06	2.082162e+00,	1.734457e-02	
325	1.778279e+06	2.082174e+00,	1.774844e-02	
326	1.819701e+06	2.082186e+00,	1.816172e-02	
327	1.862087e+06	2.082198e+00,	1.858461e-02	
328	1.905461e+06	2.082211e+00,	1.901734e-02	
329	1.949845e+06	2.082225e+00,	1.946013e-02	
330	1.995262e+06	2.082239e+00,	1.991323e-02	
331	2.041738e+06	2.082254e+00,	2.037687e-02	
332	2.089296e+06	2.082270e+00,	2.085130e-02	
333	2.137962e+06	2.082287e+00,	2.133676e-02	
334	2.187762e+06	2.082304e+00,	2.183351e-02	
335	2.238721e+06	2.082322e+00,	2.234182e-02	
336	2.290868e+06	2.082341e+00,	2.286195e-02	
337	2.344229e+06	2.082361e+00,	2.339417e-02	
338	2.398833e+06	2.082381e+00,	2.393877e-02	
339	2.454709e+06	2.082403e+00,	2.449603e-02	
340	2.511886e+06	2.082426e+00,	2.506624e-02	
341	2.570396e+06	2.082450e+00,	2.564971e-02	
342	2.630268e+06	2.082475e+00,	2.624675e-02	
343	2.691535e+06	2.082501e+00,	2.685766e-02	
344	2.754229e+06	2.082528e+00,	2.748277e-02	

Index   frequency       vop                             
--------------------------------------------------------------------------------
345	2.818383e+06	2.082557e+00,	2.812240e-02	
346	2.884032e+06	2.082587e+00,	2.877690e-02	
347	2.951209e+06	2.082618e+00,	2.944660e-02	
348	3.019952e+06	2.082651e+00,	3.013185e-02	
349	3.090295e+06	2.082685e+00,	3.083303e-02	
350	3.162278e+06	2.082721e+00,	3.155048e-02	
351	3.235937e+06	2.082759e+00,	3.228460e-02	
352	3.311311e+06	2.082798e+00,	3.303575e-02	
353	3.388442e+06	2.082840e+00,	3.380435e-02	
354	3.467369e+06	2.082883e+00,	3.459078e-02	
355	3.548134e+06	2.082929e+00,	3.539546e-02	
356	3.630781e+06	2.082976e+00,	3.621881e-02	
357	3.715352e+06	2.083026e+00,	3.706126e-02	
358	3.801894e+06	2.083078e+00,	3.792325e-02	
359	3.890451e+06	2.083132e+00,	3.880522e-02	
360	3.981072e+06	2.083189e+00,	3.970764e-02	
361	4.073803e+06	2.083249e+00,	4.063097e-02	
362	4.168694e+06	2.083312e+00,	4.157570e-02	
363	4.265795e+06	2.083377e+00,	4.254231e-02	
364	4.365158e+06	2.083446e+00,	4.353131e-02	
365	4.466836e+06	2.083518e+00,	4.454321e-02	
366	4.570882e+06	2.083593e+00,	4.557852e-02	
367	4.677351e+06	2.083672e+00,	4.663780e-02	
368	4.786301e+06	2.083754e+00,	4.772158e-02	
369	4.897788e+06	2.083840e+00,	4.883042e-02	
370	5.011872e+06	2.083931e+00,	4.996489e-02	
371	5.128614e+06	2.084025e+00,	5.112558e-02	
372	5.248075e+06	2.084124e+00,	5.231308e-02	
373	5.370318e+06	2.084228e+00,	5.352799e-02	
374	5.495409e+06	2.084337e+00,	5.477095e-02	
375	5.623413e+06	2.084451e+00,	5.604259e-02	
376	5.754399e+06	2.084570e+00,	5.734355e-02	
377	5.888437e+06	2.084694e+00,	5.867450e-02	
378	6.025596e+06	2.084825e+00,	6.003611e-02	
379	6.165950e+06	2.084962e+00,	6.142907e-02	
380	6.309573e+06	2.085105e+00,	6.285409e-02	
381	6.456542e+06	2.085254e+00,	6.431188e-02	
382	6.606934e+06	2.085411e+00,	6.580318e-02	
383	6.760830e+06	2.085576e+00,	6.732874e-02	
384	6.918310e+06	2.085747e+00,	6.888932e-02	
385	7.079458e+06	2.085927e+00,	7.048570e-02	
386	7.244360e+06	2.086116e+00,	7.211867e-02	
387	7.413102e+06	2.086313e+00,	7.378905e-02	
388	7.585776e+06	2.086520e+00,	7.549767e-02	
389	7.762471e+06	2.086736e+00,	7.724535e-02	
390	7.943282e+06	2.086962e+00,	7.903297e-02	
391	8.128305e+06	2.087199e+00,	8.086140e-02	
392	8.317638e+06	2.087448e+00,	8.273152e-02	
393	8.511380e+06	2.087707e+00,	8.464425e-02	
394	8.709636e+06	2.087979e+00,	8.660051e-02	
395	8.912509e+06	2.088264e+00,	8.860125e-02	
396	9.120108e+06	2.088562e+00,	9.064741e-02	
397	9.332543e+06	2.088874e+00,	9.273998e-02	
398	9.549926e+06	2.089200e+00,	9.487995e-02	
399	9.772372e+06	2.089542e+00,	9.706832e-02	
400	1.000000e+07	2.089900e+00,	9.930612e-02	
401	1.023293e+07	2.090275e+00,	1.015944e-01	
402	1.047129e+07	2.090667e+00,	1.039342e-01	

Index   frequency       vop                             
--------------------------------------------------------------------------------
403	1.071519e+07	2.091077e+00,	1.063266e-01	
404	1.096478e+07	2.091507e+00,	1.087727e-01	
405	1.122018e+07	2.091956e+00,	1.112736e-01	
406	1.148154e+07	2.092427e+00,	1.138304e-01	
407	1.174898e+07	2.092919e+00,	1.164443e-01	
408	1.202264e+07	2.093435e+00,	1.191164e-01	
409	1.230269e+07	2.093974e+00,	1.218479e-01	
410	1.258925e+07	2.094539e+00,	1.246400e-01	
411	1.288250e+07	2.095130e+00,	1.274938e-01	
412	1.318257e+07	2.095748e+00,	1.304105e-01	
413	1.348963e+07	2.096395e+00,	1.333915e-01	
414	1.380384e+07	2.097072e+00,	1.364378e-01	
415	1.412538e+07	2.097781e+00,	1.395508e-01	
416	1.445440e+07	2.098522e+00,	1.427317e-01	
