** sch_path: /home/andylithia/openmpw/project-reisen-chip1/xschem/ota_wideband.sch
AC Analysis  Sun Oct 30 17:11:03  2022
--------------------------------------------------------------------------------
Index   frequency       vop                             
--------------------------------------------------------------------------------
0	1.000000e+03	1.901483e+00,	1.258153e-05	
1	1.023293e+03	1.901483e+00,	1.287459e-05	
2	1.047129e+03	1.901483e+00,	1.317448e-05	
3	1.071519e+03	1.901483e+00,	1.348135e-05	
4	1.096478e+03	1.901483e+00,	1.379537e-05	
5	1.122018e+03	1.901483e+00,	1.411671e-05	
6	1.148154e+03	1.901483e+00,	1.444553e-05	
7	1.174898e+03	1.901483e+00,	1.478201e-05	
8	1.202264e+03	1.901483e+00,	1.512632e-05	
9	1.230269e+03	1.901483e+00,	1.547866e-05	
10	1.258925e+03	1.901483e+00,	1.583920e-05	
11	1.288250e+03	1.901483e+00,	1.620815e-05	
12	1.318257e+03	1.901483e+00,	1.658568e-05	
13	1.348963e+03	1.901483e+00,	1.697201e-05	
14	1.380384e+03	1.901483e+00,	1.736734e-05	
15	1.412538e+03	1.901483e+00,	1.777188e-05	
16	1.445440e+03	1.901483e+00,	1.818584e-05	
17	1.479108e+03	1.901483e+00,	1.860944e-05	
18	1.513561e+03	1.901483e+00,	1.904291e-05	
19	1.548817e+03	1.901483e+00,	1.948648e-05	
20	1.584893e+03	1.901483e+00,	1.994038e-05	
21	1.621810e+03	1.901483e+00,	2.040485e-05	
22	1.659587e+03	1.901483e+00,	2.088014e-05	
23	1.698244e+03	1.901483e+00,	2.136650e-05	
24	1.737801e+03	1.901483e+00,	2.186419e-05	
25	1.778279e+03	1.901483e+00,	2.237347e-05	
26	1.819701e+03	1.901483e+00,	2.289462e-05	
27	1.862087e+03	1.901483e+00,	2.342790e-05	
28	1.905461e+03	1.901483e+00,	2.397361e-05	
29	1.949845e+03	1.901483e+00,	2.453202e-05	
30	1.995262e+03	1.901483e+00,	2.510345e-05	
31	2.041738e+03	1.901483e+00,	2.568818e-05	
32	2.089296e+03	1.901483e+00,	2.628654e-05	
33	2.137962e+03	1.901483e+00,	2.689883e-05	
34	2.187762e+03	1.901483e+00,	2.752538e-05	
35	2.238721e+03	1.901483e+00,	2.816653e-05	
36	2.290868e+03	1.901483e+00,	2.882261e-05	
37	2.344229e+03	1.901483e+00,	2.949398e-05	
38	2.398833e+03	1.901483e+00,	3.018098e-05	
39	2.454709e+03	1.901483e+00,	3.088399e-05	
40	2.511886e+03	1.901483e+00,	3.160337e-05	
41	2.570396e+03	1.901483e+00,	3.233950e-05	
42	2.630268e+03	1.901483e+00,	3.309279e-05	
43	2.691535e+03	1.901483e+00,	3.386362e-05	
44	2.754229e+03	1.901483e+00,	3.465240e-05	
45	2.818383e+03	1.901483e+00,	3.545956e-05	
46	2.884032e+03	1.901483e+00,	3.628552e-05	
47	2.951209e+03	1.901483e+00,	3.713072e-05	
48	3.019952e+03	1.901483e+00,	3.799561e-05	
49	3.090295e+03	1.901483e+00,	3.888064e-05	
50	3.162278e+03	1.901483e+00,	3.978628e-05	
51	3.235937e+03	1.901483e+00,	4.071302e-05	
52	3.311311e+03	1.901483e+00,	4.166135e-05	
53	3.388442e+03	1.901483e+00,	4.263177e-05	
54	3.467369e+03	1.901483e+00,	4.362479e-05	

Index   frequency       vop                             
--------------------------------------------------------------------------------
55	3.548134e+03	1.901483e+00,	4.464094e-05	
56	3.630781e+03	1.901483e+00,	4.568076e-05	
57	3.715352e+03	1.901483e+00,	4.674481e-05	
58	3.801894e+03	1.901483e+00,	4.783363e-05	
59	3.890451e+03	1.901483e+00,	4.894782e-05	
60	3.981072e+03	1.901483e+00,	5.008796e-05	
61	4.073803e+03	1.901483e+00,	5.125466e-05	
62	4.168694e+03	1.901483e+00,	5.244854e-05	
63	4.265795e+03	1.901483e+00,	5.367022e-05	
64	4.365158e+03	1.901483e+00,	5.492036e-05	
65	4.466836e+03	1.901483e+00,	5.619962e-05	
66	4.570882e+03	1.901483e+00,	5.750868e-05	
67	4.677351e+03	1.901483e+00,	5.884822e-05	
68	4.786301e+03	1.901483e+00,	6.021898e-05	
69	4.897788e+03	1.901483e+00,	6.162166e-05	
70	5.011872e+03	1.901483e+00,	6.305701e-05	
71	5.128614e+03	1.901483e+00,	6.452580e-05	
72	5.248075e+03	1.901483e+00,	6.602879e-05	
73	5.370318e+03	1.901483e+00,	6.756680e-05	
74	5.495409e+03	1.901483e+00,	6.914064e-05	
75	5.623413e+03	1.901483e+00,	7.075113e-05	
76	5.754399e+03	1.901483e+00,	7.239913e-05	
77	5.888437e+03	1.901483e+00,	7.408553e-05	
78	6.025596e+03	1.901483e+00,	7.581120e-05	
79	6.165950e+03	1.901483e+00,	7.757707e-05	
80	6.309573e+03	1.901483e+00,	7.938407e-05	
81	6.456542e+03	1.901483e+00,	8.123316e-05	
82	6.606934e+03	1.901483e+00,	8.312533e-05	
83	6.760830e+03	1.901483e+00,	8.506156e-05	
84	6.918310e+03	1.901483e+00,	8.704290e-05	
85	7.079458e+03	1.901483e+00,	8.907039e-05	
86	7.244360e+03	1.901483e+00,	9.114511e-05	
87	7.413102e+03	1.901483e+00,	9.326815e-05	
88	7.585776e+03	1.901483e+00,	9.544064e-05	
89	7.762471e+03	1.901483e+00,	9.766374e-05	
90	7.943282e+03	1.901483e+00,	9.993862e-05	
91	8.128305e+03	1.901483e+00,	1.022665e-04	
92	8.317638e+03	1.901483e+00,	1.046486e-04	
93	8.511380e+03	1.901483e+00,	1.070862e-04	
94	8.709636e+03	1.901483e+00,	1.095805e-04	
95	8.912509e+03	1.901483e+00,	1.121330e-04	
96	9.120108e+03	1.901483e+00,	1.147449e-04	
97	9.332543e+03	1.901483e+00,	1.174176e-04	
98	9.549926e+03	1.901483e+00,	1.201527e-04	
99	9.772372e+03	1.901483e+00,	1.229514e-04	
100	1.000000e+04	1.901483e+00,	1.258153e-04	
101	1.023293e+04	1.901483e+00,	1.287459e-04	
102	1.047129e+04	1.901483e+00,	1.317448e-04	
103	1.071519e+04	1.901483e+00,	1.348135e-04	
104	1.096478e+04	1.901483e+00,	1.379537e-04	
105	1.122018e+04	1.901483e+00,	1.411671e-04	
106	1.148154e+04	1.901483e+00,	1.444553e-04	
107	1.174898e+04	1.901483e+00,	1.478201e-04	
108	1.202264e+04	1.901483e+00,	1.512632e-04	
109	1.230269e+04	1.901483e+00,	1.547866e-04	
110	1.258925e+04	1.901483e+00,	1.583920e-04	
111	1.288250e+04	1.901483e+00,	1.620815e-04	
112	1.318257e+04	1.901483e+00,	1.658568e-04	

Index   frequency       vop                             
--------------------------------------------------------------------------------
113	1.348963e+04	1.901483e+00,	1.697201e-04	
114	1.380384e+04	1.901483e+00,	1.736734e-04	
115	1.412538e+04	1.901483e+00,	1.777188e-04	
116	1.445440e+04	1.901483e+00,	1.818584e-04	
117	1.479108e+04	1.901483e+00,	1.860944e-04	
118	1.513561e+04	1.901483e+00,	1.904291e-04	
119	1.548817e+04	1.901483e+00,	1.948648e-04	
120	1.584893e+04	1.901483e+00,	1.994038e-04	
121	1.621810e+04	1.901483e+00,	2.040485e-04	
122	1.659587e+04	1.901483e+00,	2.088014e-04	
123	1.698244e+04	1.901483e+00,	2.136650e-04	
124	1.737801e+04	1.901483e+00,	2.186419e-04	
125	1.778279e+04	1.901483e+00,	2.237347e-04	
126	1.819701e+04	1.901483e+00,	2.289462e-04	
127	1.862087e+04	1.901483e+00,	2.342790e-04	
128	1.905461e+04	1.901483e+00,	2.397361e-04	
129	1.949845e+04	1.901483e+00,	2.453202e-04	
130	1.995262e+04	1.901483e+00,	2.510345e-04	
131	2.041738e+04	1.901483e+00,	2.568818e-04	
132	2.089296e+04	1.901483e+00,	2.628654e-04	
133	2.137962e+04	1.901483e+00,	2.689883e-04	
134	2.187762e+04	1.901483e+00,	2.752538e-04	
135	2.238721e+04	1.901483e+00,	2.816653e-04	
136	2.290868e+04	1.901483e+00,	2.882261e-04	
137	2.344229e+04	1.901483e+00,	2.949398e-04	
138	2.398833e+04	1.901483e+00,	3.018098e-04	
139	2.454709e+04	1.901483e+00,	3.088399e-04	
140	2.511886e+04	1.901483e+00,	3.160337e-04	
141	2.570396e+04	1.901483e+00,	3.233950e-04	
142	2.630268e+04	1.901483e+00,	3.309279e-04	
143	2.691535e+04	1.901483e+00,	3.386362e-04	
144	2.754229e+04	1.901483e+00,	3.465240e-04	
145	2.818383e+04	1.901483e+00,	3.545956e-04	
146	2.884032e+04	1.901483e+00,	3.628552e-04	
147	2.951209e+04	1.901483e+00,	3.713072e-04	
148	3.019952e+04	1.901483e+00,	3.799560e-04	
149	3.090295e+04	1.901483e+00,	3.888063e-04	
150	3.162278e+04	1.901483e+00,	3.978628e-04	
151	3.235937e+04	1.901483e+00,	4.071302e-04	
152	3.311311e+04	1.901483e+00,	4.166135e-04	
153	3.388442e+04	1.901483e+00,	4.263177e-04	
154	3.467369e+04	1.901483e+00,	4.362479e-04	
155	3.548134e+04	1.901483e+00,	4.464094e-04	
156	3.630781e+04	1.901483e+00,	4.568076e-04	
157	3.715352e+04	1.901483e+00,	4.674480e-04	
158	3.801894e+04	1.901483e+00,	4.783363e-04	
159	3.890451e+04	1.901483e+00,	4.894782e-04	
160	3.981072e+04	1.901483e+00,	5.008796e-04	
161	4.073803e+04	1.901483e+00,	5.125466e-04	
162	4.168694e+04	1.901483e+00,	5.244853e-04	
163	4.265795e+04	1.901483e+00,	5.367021e-04	
164	4.365158e+04	1.901483e+00,	5.492035e-04	
165	4.466836e+04	1.901483e+00,	5.619961e-04	
166	4.570882e+04	1.901483e+00,	5.750867e-04	
167	4.677351e+04	1.901483e+00,	5.884822e-04	
168	4.786301e+04	1.901483e+00,	6.021897e-04	
169	4.897788e+04	1.901483e+00,	6.162165e-04	
170	5.011872e+04	1.901483e+00,	6.305700e-04	

Index   frequency       vop                             
--------------------------------------------------------------------------------
171	5.128614e+04	1.901483e+00,	6.452578e-04	
172	5.248075e+04	1.901483e+00,	6.602878e-04	
173	5.370318e+04	1.901483e+00,	6.756679e-04	
174	5.495409e+04	1.901483e+00,	6.914062e-04	
175	5.623413e+04	1.901483e+00,	7.075111e-04	
176	5.754399e+04	1.901483e+00,	7.239912e-04	
177	5.888437e+04	1.901483e+00,	7.408551e-04	
178	6.025596e+04	1.901484e+00,	7.581118e-04	
179	6.165950e+04	1.901484e+00,	7.757705e-04	
180	6.309573e+04	1.901484e+00,	7.938405e-04	
181	6.456542e+04	1.901484e+00,	8.123314e-04	
182	6.606934e+04	1.901484e+00,	8.312530e-04	
183	6.760830e+04	1.901484e+00,	8.506154e-04	
184	6.918310e+04	1.901484e+00,	8.704288e-04	
185	7.079458e+04	1.901484e+00,	8.907036e-04	
186	7.244360e+04	1.901484e+00,	9.114508e-04	
187	7.413102e+04	1.901484e+00,	9.326812e-04	
188	7.585776e+04	1.901484e+00,	9.544061e-04	
189	7.762471e+04	1.901484e+00,	9.766371e-04	
190	7.943282e+04	1.901484e+00,	9.993859e-04	
191	8.128305e+04	1.901484e+00,	1.022665e-03	
192	8.317638e+04	1.901484e+00,	1.046485e-03	
193	8.511380e+04	1.901484e+00,	1.070861e-03	
194	8.709636e+04	1.901484e+00,	1.095805e-03	
195	8.912509e+04	1.901484e+00,	1.121329e-03	
196	9.120108e+04	1.901484e+00,	1.147448e-03	
197	9.332543e+04	1.901484e+00,	1.174176e-03	
198	9.549926e+04	1.901484e+00,	1.201526e-03	
199	9.772372e+04	1.901484e+00,	1.229513e-03	
200	1.000000e+05	1.901484e+00,	1.258152e-03	
201	1.023293e+05	1.901484e+00,	1.287458e-03	
202	1.047129e+05	1.901484e+00,	1.317447e-03	
203	1.071519e+05	1.901484e+00,	1.348134e-03	
204	1.096478e+05	1.901484e+00,	1.379536e-03	
205	1.122018e+05	1.901484e+00,	1.411669e-03	
206	1.148154e+05	1.901485e+00,	1.444551e-03	
207	1.174898e+05	1.901485e+00,	1.478199e-03	
208	1.202264e+05	1.901485e+00,	1.512631e-03	
209	1.230269e+05	1.901485e+00,	1.547865e-03	
210	1.258925e+05	1.901485e+00,	1.583919e-03	
211	1.288250e+05	1.901485e+00,	1.620813e-03	
212	1.318257e+05	1.901485e+00,	1.658567e-03	
213	1.348963e+05	1.901485e+00,	1.697199e-03	
214	1.380384e+05	1.901485e+00,	1.736732e-03	
215	1.412538e+05	1.901485e+00,	1.777186e-03	
216	1.445440e+05	1.901485e+00,	1.818582e-03	
217	1.479108e+05	1.901485e+00,	1.860942e-03	
218	1.513561e+05	1.901486e+00,	1.904289e-03	
219	1.548817e+05	1.901486e+00,	1.948645e-03	
220	1.584893e+05	1.901486e+00,	1.994035e-03	
221	1.621810e+05	1.901486e+00,	2.040482e-03	
222	1.659587e+05	1.901486e+00,	2.088010e-03	
223	1.698244e+05	1.901486e+00,	2.136646e-03	
224	1.737801e+05	1.901486e+00,	2.186415e-03	
225	1.778279e+05	1.901487e+00,	2.237343e-03	
226	1.819701e+05	1.901487e+00,	2.289457e-03	
227	1.862087e+05	1.901487e+00,	2.342785e-03	
228	1.905461e+05	1.901487e+00,	2.397355e-03	

Index   frequency       vop                             
--------------------------------------------------------------------------------
229	1.949845e+05	1.901487e+00,	2.453197e-03	
230	1.995262e+05	1.901487e+00,	2.510339e-03	
231	2.041738e+05	1.901488e+00,	2.568812e-03	
232	2.089296e+05	1.901488e+00,	2.628647e-03	
233	2.137962e+05	1.901488e+00,	2.689875e-03	
234	2.187762e+05	1.901488e+00,	2.752530e-03	
235	2.238721e+05	1.901489e+00,	2.816644e-03	
236	2.290868e+05	1.901489e+00,	2.882252e-03	
237	2.344229e+05	1.901489e+00,	2.949388e-03	
238	2.398833e+05	1.901489e+00,	3.018088e-03	
239	2.454709e+05	1.901490e+00,	3.088387e-03	
240	2.511886e+05	1.901490e+00,	3.160325e-03	
241	2.570396e+05	1.901490e+00,	3.233937e-03	
242	2.630268e+05	1.901491e+00,	3.309265e-03	
243	2.691535e+05	1.901491e+00,	3.386347e-03	
244	2.754229e+05	1.901491e+00,	3.465224e-03	
245	2.818383e+05	1.901492e+00,	3.545939e-03	
246	2.884032e+05	1.901492e+00,	3.628534e-03	
247	2.951209e+05	1.901492e+00,	3.713052e-03	
248	3.019952e+05	1.901493e+00,	3.799539e-03	
249	3.090295e+05	1.901493e+00,	3.888041e-03	
250	3.162278e+05	1.901494e+00,	3.978604e-03	
251	3.235937e+05	1.901494e+00,	4.071276e-03	
252	3.311311e+05	1.901495e+00,	4.166107e-03	
253	3.388442e+05	1.901495e+00,	4.263147e-03	
254	3.467369e+05	1.901496e+00,	4.362447e-03	
255	3.548134e+05	1.901497e+00,	4.464060e-03	
256	3.630781e+05	1.901497e+00,	4.568039e-03	
257	3.715352e+05	1.901498e+00,	4.674441e-03	
258	3.801894e+05	1.901499e+00,	4.783321e-03	
259	3.890451e+05	1.901499e+00,	4.894737e-03	
260	3.981072e+05	1.901500e+00,	5.008747e-03	
261	4.073803e+05	1.901501e+00,	5.125414e-03	
262	4.168694e+05	1.901502e+00,	5.244797e-03	
263	4.265795e+05	1.901503e+00,	5.366962e-03	
264	4.365158e+05	1.901504e+00,	5.491971e-03	
265	4.466836e+05	1.901505e+00,	5.619893e-03	
266	4.570882e+05	1.901506e+00,	5.750794e-03	
267	4.677351e+05	1.901507e+00,	5.884743e-03	
268	4.786301e+05	1.901508e+00,	6.021813e-03	
269	4.897788e+05	1.901509e+00,	6.162075e-03	
270	5.011872e+05	1.901510e+00,	6.305603e-03	
271	5.128614e+05	1.901511e+00,	6.452475e-03	
272	5.248075e+05	1.901513e+00,	6.602767e-03	
273	5.370318e+05	1.901514e+00,	6.756560e-03	
274	5.495409e+05	1.901516e+00,	6.913935e-03	
275	5.623413e+05	1.901517e+00,	7.074975e-03	
276	5.754399e+05	1.901519e+00,	7.239766e-03	
277	5.888437e+05	1.901520e+00,	7.408394e-03	
278	6.025596e+05	1.901522e+00,	7.580950e-03	
279	6.165950e+05	1.901524e+00,	7.757525e-03	
280	6.309573e+05	1.901526e+00,	7.938212e-03	
281	6.456542e+05	1.901528e+00,	8.123108e-03	
282	6.606934e+05	1.901530e+00,	8.312309e-03	
283	6.760830e+05	1.901532e+00,	8.505917e-03	
284	6.918310e+05	1.901535e+00,	8.704034e-03	
285	7.079458e+05	1.901537e+00,	8.906764e-03	
286	7.244360e+05	1.901540e+00,	9.114216e-03	

Index   frequency       vop                             
--------------------------------------------------------------------------------
287	7.413102e+05	1.901542e+00,	9.326499e-03	
288	7.585776e+05	1.901545e+00,	9.543726e-03	
289	7.762471e+05	1.901548e+00,	9.766012e-03	
290	7.943282e+05	1.901551e+00,	9.993474e-03	
291	8.128305e+05	1.901554e+00,	1.022623e-02	
292	8.317638e+05	1.901558e+00,	1.046441e-02	
293	8.511380e+05	1.901561e+00,	1.070814e-02	
294	8.709636e+05	1.901565e+00,	1.095754e-02	
295	8.912509e+05	1.901569e+00,	1.121275e-02	
296	9.120108e+05	1.901573e+00,	1.147390e-02	
297	9.332543e+05	1.901577e+00,	1.174113e-02	
298	9.549926e+05	1.901581e+00,	1.201459e-02	
299	9.772372e+05	1.901586e+00,	1.229441e-02	
300	1.000000e+06	1.901591e+00,	1.258075e-02	
301	1.023293e+06	1.901596e+00,	1.287376e-02	
302	1.047129e+06	1.901601e+00,	1.317359e-02	
303	1.071519e+06	1.901607e+00,	1.348040e-02	
304	1.096478e+06	1.901613e+00,	1.379435e-02	
305	1.122018e+06	1.901619e+00,	1.411561e-02	
306	1.148154e+06	1.901625e+00,	1.444435e-02	
307	1.174898e+06	1.901632e+00,	1.478075e-02	
308	1.202264e+06	1.901639e+00,	1.512498e-02	
309	1.230269e+06	1.901646e+00,	1.547722e-02	
310	1.258925e+06	1.901654e+00,	1.583766e-02	
311	1.288250e+06	1.901662e+00,	1.620649e-02	
312	1.318257e+06	1.901670e+00,	1.658391e-02	
313	1.348963e+06	1.901679e+00,	1.697011e-02	
314	1.380384e+06	1.901688e+00,	1.736530e-02	
315	1.412538e+06	1.901698e+00,	1.776970e-02	
316	1.445440e+06	1.901708e+00,	1.818350e-02	
317	1.479108e+06	1.901719e+00,	1.860694e-02	
318	1.513561e+06	1.901730e+00,	1.904023e-02	
319	1.548817e+06	1.901741e+00,	1.948360e-02	
320	1.584893e+06	1.901753e+00,	1.993729e-02	
321	1.621810e+06	1.901766e+00,	2.040154e-02	
322	1.659587e+06	1.901780e+00,	2.087660e-02	
323	1.698244e+06	1.901794e+00,	2.136270e-02	
324	1.737801e+06	1.901808e+00,	2.186012e-02	
325	1.778279e+06	1.901823e+00,	2.236911e-02	
326	1.819701e+06	1.901839e+00,	2.288995e-02	
327	1.862087e+06	1.901856e+00,	2.342290e-02	
328	1.905461e+06	1.901874e+00,	2.396825e-02	
329	1.949845e+06	1.901892e+00,	2.452628e-02	
330	1.995262e+06	1.901912e+00,	2.509729e-02	
331	2.041738e+06	1.901932e+00,	2.568159e-02	
332	2.089296e+06	1.901953e+00,	2.627947e-02	
333	2.137962e+06	1.901975e+00,	2.689126e-02	
334	2.187762e+06	1.901998e+00,	2.751727e-02	
335	2.238721e+06	1.902022e+00,	2.815784e-02	
336	2.290868e+06	1.902048e+00,	2.881330e-02	
337	2.344229e+06	1.902074e+00,	2.948400e-02	
338	2.398833e+06	1.902102e+00,	3.017029e-02	
339	2.454709e+06	1.902132e+00,	3.087253e-02	
340	2.511886e+06	1.902162e+00,	3.159109e-02	
341	2.570396e+06	1.902194e+00,	3.232635e-02	
342	2.630268e+06	1.902228e+00,	3.307869e-02	
343	2.691535e+06	1.902263e+00,	3.384852e-02	
344	2.754229e+06	1.902299e+00,	3.463622e-02	

Index   frequency       vop                             
--------------------------------------------------------------------------------
345	2.818383e+06	1.902338e+00,	3.544222e-02	
346	2.884032e+06	1.902378e+00,	3.626694e-02	
347	2.951209e+06	1.902420e+00,	3.711081e-02	
348	3.019952e+06	1.902464e+00,	3.797427e-02	
349	3.090295e+06	1.902511e+00,	3.885778e-02	
350	3.162278e+06	1.902559e+00,	3.976179e-02	
351	3.235937e+06	1.902610e+00,	4.068678e-02	
352	3.311311e+06	1.902663e+00,	4.163324e-02	
353	3.388442e+06	1.902718e+00,	4.260164e-02	
354	3.467369e+06	1.902777e+00,	4.359251e-02	
355	3.548134e+06	1.902837e+00,	4.460635e-02	
356	3.630781e+06	1.902901e+00,	4.564370e-02	
357	3.715352e+06	1.902968e+00,	4.670509e-02	
358	3.801894e+06	1.903038e+00,	4.779108e-02	
359	3.890451e+06	1.903111e+00,	4.890223e-02	
360	3.981072e+06	1.903188e+00,	5.003911e-02	
361	4.073803e+06	1.903268e+00,	5.120232e-02	
362	4.168694e+06	1.903352e+00,	5.239245e-02	
363	4.265795e+06	1.903440e+00,	5.361012e-02	
364	4.365158e+06	1.903532e+00,	5.485597e-02	
365	4.466836e+06	1.903629e+00,	5.613062e-02	
366	4.570882e+06	1.903730e+00,	5.743475e-02	
367	4.677351e+06	1.903836e+00,	5.876901e-02	
368	4.786301e+06	1.903946e+00,	6.013410e-02	
369	4.897788e+06	1.904062e+00,	6.153072e-02	
370	5.011872e+06	1.904184e+00,	6.295957e-02	
371	5.128614e+06	1.904311e+00,	6.442139e-02	
372	5.248075e+06	1.904444e+00,	6.591693e-02	
373	5.370318e+06	1.904583e+00,	6.744695e-02	
374	5.495409e+06	1.904729e+00,	6.901222e-02	
375	5.623413e+06	1.904882e+00,	7.061353e-02	
376	5.754399e+06	1.905042e+00,	7.225170e-02	
377	5.888437e+06	1.905209e+00,	7.392756e-02	
378	6.025596e+06	1.905384e+00,	7.564195e-02	
379	6.165950e+06	1.905568e+00,	7.739573e-02	
380	6.309573e+06	1.905760e+00,	7.918978e-02	
381	6.456542e+06	1.905961e+00,	8.102499e-02	
382	6.606934e+06	1.906172e+00,	8.290228e-02	
383	6.760830e+06	1.906392e+00,	8.482259e-02	
384	6.918310e+06	1.906623e+00,	8.678686e-02	
385	7.079458e+06	1.906865e+00,	8.879606e-02	
386	7.244360e+06	1.907118e+00,	9.085118e-02	
387	7.413102e+06	1.907383e+00,	9.295324e-02	
388	7.585776e+06	1.907660e+00,	9.510325e-02	
389	7.762471e+06	1.907950e+00,	9.730225e-02	
390	7.943282e+06	1.908254e+00,	9.955133e-02	
391	8.128305e+06	1.908572e+00,	1.018515e-01	
392	8.317638e+06	1.908905e+00,	1.042040e-01	
393	8.511380e+06	1.909254e+00,	1.066099e-01	
394	8.709636e+06	1.909618e+00,	1.090702e-01	
395	8.912509e+06	1.910000e+00,	1.115863e-01	
396	9.120108e+06	1.910400e+00,	1.141592e-01	
397	9.332543e+06	1.910819e+00,	1.167901e-01	
398	9.549926e+06	1.911257e+00,	1.194804e-01	
399	9.772372e+06	1.911715e+00,	1.222312e-01	
400	1.000000e+07	1.912195e+00,	1.250437e-01	
401	1.023293e+07	1.912697e+00,	1.279193e-01	
402	1.047129e+07	1.913223e+00,	1.308592e-01	

Index   frequency       vop                             
--------------------------------------------------------------------------------
403	1.071519e+07	1.913773e+00,	1.338648e-01	
404	1.096478e+07	1.914349e+00,	1.369374e-01	
405	1.122018e+07	1.914951e+00,	1.400783e-01	
406	1.148154e+07	1.915582e+00,	1.432890e-01	
407	1.174898e+07	1.916242e+00,	1.465707e-01	
408	1.202264e+07	1.916933e+00,	1.499248e-01	
409	1.230269e+07	1.917655e+00,	1.533529e-01	
410	1.258925e+07	1.918412e+00,	1.568563e-01	
411	1.288250e+07	1.919203e+00,	1.604364e-01	
412	1.318257e+07	1.920031e+00,	1.640946e-01	
413	1.348963e+07	1.920897e+00,	1.678326e-01	
414	1.380384e+07	1.921804e+00,	1.716516e-01	
415	1.412538e+07	1.922752e+00,	1.755532e-01	
416	1.445440e+07	1.923744e+00,	1.795388e-01	
