** sch_path: /home/andylithia/openmpw/project-reisen-chip1/xschem/ota_wideband.sch
AC Analysis  Sun Oct 30 17:11:03  2022
--------------------------------------------------------------------------------
Index   frequency       vop                             
--------------------------------------------------------------------------------
0	1.000000e+03	3.548851e+00,	-1.91521e-06	
1	1.023293e+03	3.548851e+00,	-1.95982e-06	
2	1.047129e+03	3.548851e+00,	-2.00547e-06	
3	1.071519e+03	3.548851e+00,	-2.05218e-06	
4	1.096478e+03	3.548851e+00,	-2.09999e-06	
5	1.122018e+03	3.548851e+00,	-2.14890e-06	
6	1.148154e+03	3.548851e+00,	-2.19896e-06	
7	1.174898e+03	3.548851e+00,	-2.25018e-06	
8	1.202264e+03	3.548851e+00,	-2.30259e-06	
9	1.230269e+03	3.548851e+00,	-2.35622e-06	
10	1.258925e+03	3.548851e+00,	-2.41111e-06	
11	1.288250e+03	3.548851e+00,	-2.46727e-06	
12	1.318257e+03	3.548851e+00,	-2.52474e-06	
13	1.348963e+03	3.548851e+00,	-2.58355e-06	
14	1.380384e+03	3.548851e+00,	-2.64373e-06	
15	1.412538e+03	3.548851e+00,	-2.70531e-06	
16	1.445440e+03	3.548851e+00,	-2.76832e-06	
17	1.479108e+03	3.548851e+00,	-2.83280e-06	
18	1.513561e+03	3.548851e+00,	-2.89879e-06	
19	1.548817e+03	3.548851e+00,	-2.96631e-06	
20	1.584893e+03	3.548851e+00,	-3.03540e-06	
21	1.621810e+03	3.548851e+00,	-3.10611e-06	
22	1.659587e+03	3.548851e+00,	-3.17846e-06	
23	1.698244e+03	3.548851e+00,	-3.25249e-06	
24	1.737801e+03	3.548851e+00,	-3.32825e-06	
25	1.778279e+03	3.548851e+00,	-3.40578e-06	
26	1.819701e+03	3.548851e+00,	-3.48511e-06	
27	1.862087e+03	3.548851e+00,	-3.56629e-06	
28	1.905461e+03	3.548851e+00,	-3.64936e-06	
29	1.949845e+03	3.548851e+00,	-3.73436e-06	
30	1.995262e+03	3.548851e+00,	-3.82135e-06	
31	2.041738e+03	3.548851e+00,	-3.91036e-06	
32	2.089296e+03	3.548851e+00,	-4.00144e-06	
33	2.137962e+03	3.548851e+00,	-4.09465e-06	
34	2.187762e+03	3.548851e+00,	-4.19002e-06	
35	2.238721e+03	3.548851e+00,	-4.28762e-06	
36	2.290868e+03	3.548851e+00,	-4.38749e-06	
37	2.344229e+03	3.548851e+00,	-4.48969e-06	
38	2.398833e+03	3.548851e+00,	-4.59427e-06	
39	2.454709e+03	3.548851e+00,	-4.70128e-06	
40	2.511886e+03	3.548851e+00,	-4.81079e-06	
41	2.570396e+03	3.548851e+00,	-4.92285e-06	
42	2.630268e+03	3.548851e+00,	-5.03752e-06	
43	2.691535e+03	3.548851e+00,	-5.15485e-06	
44	2.754229e+03	3.548851e+00,	-5.27493e-06	
45	2.818383e+03	3.548851e+00,	-5.39780e-06	
46	2.884032e+03	3.548851e+00,	-5.52353e-06	
47	2.951209e+03	3.548851e+00,	-5.65219e-06	
48	3.019952e+03	3.548851e+00,	-5.78384e-06	
49	3.090295e+03	3.548851e+00,	-5.91856e-06	
50	3.162278e+03	3.548851e+00,	-6.05643e-06	
51	3.235937e+03	3.548851e+00,	-6.19750e-06	
52	3.311311e+03	3.548851e+00,	-6.34186e-06	
53	3.388442e+03	3.548851e+00,	-6.48958e-06	
54	3.467369e+03	3.548851e+00,	-6.64074e-06	

Index   frequency       vop                             
--------------------------------------------------------------------------------
55	3.548134e+03	3.548851e+00,	-6.79542e-06	
56	3.630781e+03	3.548851e+00,	-6.95371e-06	
57	3.715352e+03	3.548851e+00,	-7.11568e-06	
58	3.801894e+03	3.548851e+00,	-7.28143e-06	
59	3.890451e+03	3.548851e+00,	-7.45103e-06	
60	3.981072e+03	3.548851e+00,	-7.62459e-06	
61	4.073803e+03	3.548851e+00,	-7.80219e-06	
62	4.168694e+03	3.548851e+00,	-7.98392e-06	
63	4.265795e+03	3.548851e+00,	-8.16989e-06	
64	4.365158e+03	3.548851e+00,	-8.36019e-06	
65	4.466836e+03	3.548851e+00,	-8.55493e-06	
66	4.570882e+03	3.548851e+00,	-8.75420e-06	
67	4.677351e+03	3.548851e+00,	-8.95811e-06	
68	4.786301e+03	3.548851e+00,	-9.16677e-06	
69	4.897788e+03	3.548851e+00,	-9.38029e-06	
70	5.011872e+03	3.548851e+00,	-9.59879e-06	
71	5.128614e+03	3.548851e+00,	-9.82237e-06	
72	5.248075e+03	3.548851e+00,	-1.00512e-05	
73	5.370318e+03	3.548851e+00,	-1.02853e-05	
74	5.495409e+03	3.548851e+00,	-1.05249e-05	
75	5.623413e+03	3.548851e+00,	-1.07700e-05	
76	5.754399e+03	3.548851e+00,	-1.10209e-05	
77	5.888437e+03	3.548851e+00,	-1.12776e-05	
78	6.025596e+03	3.548851e+00,	-1.15403e-05	
79	6.165950e+03	3.548851e+00,	-1.18091e-05	
80	6.309573e+03	3.548851e+00,	-1.20842e-05	
81	6.456542e+03	3.548851e+00,	-1.23656e-05	
82	6.606934e+03	3.548851e+00,	-1.26537e-05	
83	6.760830e+03	3.548851e+00,	-1.29484e-05	
84	6.918310e+03	3.548851e+00,	-1.32500e-05	
85	7.079458e+03	3.548851e+00,	-1.35586e-05	
86	7.244360e+03	3.548851e+00,	-1.38745e-05	
87	7.413102e+03	3.548851e+00,	-1.41976e-05	
88	7.585776e+03	3.548851e+00,	-1.45284e-05	
89	7.762471e+03	3.548851e+00,	-1.48668e-05	
90	7.943282e+03	3.548851e+00,	-1.52131e-05	
91	8.128305e+03	3.548851e+00,	-1.55674e-05	
92	8.317638e+03	3.548851e+00,	-1.59300e-05	
93	8.511380e+03	3.548851e+00,	-1.63011e-05	
94	8.709636e+03	3.548851e+00,	-1.66808e-05	
95	8.912509e+03	3.548851e+00,	-1.70693e-05	
96	9.120108e+03	3.548851e+00,	-1.74669e-05	
97	9.332543e+03	3.548851e+00,	-1.78738e-05	
98	9.549926e+03	3.548851e+00,	-1.82901e-05	
99	9.772372e+03	3.548851e+00,	-1.87161e-05	
100	1.000000e+04	3.548851e+00,	-1.91521e-05	
101	1.023293e+04	3.548851e+00,	-1.95982e-05	
102	1.047129e+04	3.548851e+00,	-2.00547e-05	
103	1.071519e+04	3.548851e+00,	-2.05218e-05	
104	1.096478e+04	3.548851e+00,	-2.09999e-05	
105	1.122018e+04	3.548851e+00,	-2.14890e-05	
106	1.148154e+04	3.548851e+00,	-2.19896e-05	
107	1.174898e+04	3.548851e+00,	-2.25018e-05	
108	1.202264e+04	3.548851e+00,	-2.30259e-05	
109	1.230269e+04	3.548851e+00,	-2.35622e-05	
110	1.258925e+04	3.548851e+00,	-2.41111e-05	
111	1.288250e+04	3.548851e+00,	-2.46727e-05	
112	1.318257e+04	3.548851e+00,	-2.52474e-05	

Index   frequency       vop                             
--------------------------------------------------------------------------------
113	1.348963e+04	3.548851e+00,	-2.58355e-05	
114	1.380384e+04	3.548851e+00,	-2.64373e-05	
115	1.412538e+04	3.548851e+00,	-2.70531e-05	
116	1.445440e+04	3.548851e+00,	-2.76832e-05	
117	1.479108e+04	3.548851e+00,	-2.83280e-05	
118	1.513561e+04	3.548851e+00,	-2.89879e-05	
119	1.548817e+04	3.548851e+00,	-2.96631e-05	
120	1.584893e+04	3.548851e+00,	-3.03540e-05	
121	1.621810e+04	3.548851e+00,	-3.10611e-05	
122	1.659587e+04	3.548851e+00,	-3.17846e-05	
123	1.698244e+04	3.548851e+00,	-3.25249e-05	
124	1.737801e+04	3.548851e+00,	-3.32825e-05	
125	1.778279e+04	3.548851e+00,	-3.40578e-05	
126	1.819701e+04	3.548851e+00,	-3.48511e-05	
127	1.862087e+04	3.548851e+00,	-3.56629e-05	
128	1.905461e+04	3.548851e+00,	-3.64936e-05	
129	1.949845e+04	3.548851e+00,	-3.73436e-05	
130	1.995262e+04	3.548851e+00,	-3.82135e-05	
131	2.041738e+04	3.548851e+00,	-3.91036e-05	
132	2.089296e+04	3.548851e+00,	-4.00144e-05	
133	2.137962e+04	3.548851e+00,	-4.09465e-05	
134	2.187762e+04	3.548851e+00,	-4.19002e-05	
135	2.238721e+04	3.548851e+00,	-4.28762e-05	
136	2.290868e+04	3.548851e+00,	-4.38749e-05	
137	2.344229e+04	3.548851e+00,	-4.48969e-05	
138	2.398833e+04	3.548851e+00,	-4.59427e-05	
139	2.454709e+04	3.548851e+00,	-4.70128e-05	
140	2.511886e+04	3.548851e+00,	-4.81079e-05	
141	2.570396e+04	3.548851e+00,	-4.92285e-05	
142	2.630268e+04	3.548851e+00,	-5.03752e-05	
143	2.691535e+04	3.548851e+00,	-5.15485e-05	
144	2.754229e+04	3.548851e+00,	-5.27493e-05	
145	2.818383e+04	3.548851e+00,	-5.39780e-05	
146	2.884032e+04	3.548851e+00,	-5.52353e-05	
147	2.951209e+04	3.548851e+00,	-5.65219e-05	
148	3.019952e+04	3.548851e+00,	-5.78384e-05	
149	3.090295e+04	3.548851e+00,	-5.91856e-05	
150	3.162278e+04	3.548851e+00,	-6.05643e-05	
151	3.235937e+04	3.548851e+00,	-6.19750e-05	
152	3.311311e+04	3.548851e+00,	-6.34186e-05	
153	3.388442e+04	3.548851e+00,	-6.48958e-05	
154	3.467369e+04	3.548851e+00,	-6.64074e-05	
155	3.548134e+04	3.548851e+00,	-6.79542e-05	
156	3.630781e+04	3.548851e+00,	-6.95371e-05	
157	3.715352e+04	3.548851e+00,	-7.11568e-05	
158	3.801894e+04	3.548851e+00,	-7.28143e-05	
159	3.890451e+04	3.548851e+00,	-7.45103e-05	
160	3.981072e+04	3.548851e+00,	-7.62459e-05	
161	4.073803e+04	3.548851e+00,	-7.80219e-05	
162	4.168694e+04	3.548851e+00,	-7.98392e-05	
163	4.265795e+04	3.548851e+00,	-8.16989e-05	
164	4.365158e+04	3.548851e+00,	-8.36019e-05	
165	4.466836e+04	3.548851e+00,	-8.55493e-05	
166	4.570882e+04	3.548851e+00,	-8.75420e-05	
167	4.677351e+04	3.548851e+00,	-8.95811e-05	
168	4.786301e+04	3.548851e+00,	-9.16677e-05	
169	4.897788e+04	3.548851e+00,	-9.38029e-05	
170	5.011872e+04	3.548851e+00,	-9.59879e-05	

Index   frequency       vop                             
--------------------------------------------------------------------------------
171	5.128614e+04	3.548851e+00,	-9.82237e-05	
172	5.248075e+04	3.548851e+00,	-1.00512e-04	
173	5.370318e+04	3.548851e+00,	-1.02853e-04	
174	5.495409e+04	3.548851e+00,	-1.05249e-04	
175	5.623413e+04	3.548851e+00,	-1.07700e-04	
176	5.754399e+04	3.548851e+00,	-1.10209e-04	
177	5.888437e+04	3.548851e+00,	-1.12776e-04	
178	6.025596e+04	3.548851e+00,	-1.15403e-04	
179	6.165950e+04	3.548851e+00,	-1.18091e-04	
180	6.309573e+04	3.548851e+00,	-1.20842e-04	
181	6.456542e+04	3.548851e+00,	-1.23656e-04	
182	6.606934e+04	3.548851e+00,	-1.26537e-04	
183	6.760830e+04	3.548851e+00,	-1.29484e-04	
184	6.918310e+04	3.548851e+00,	-1.32500e-04	
185	7.079458e+04	3.548851e+00,	-1.35586e-04	
186	7.244360e+04	3.548851e+00,	-1.38745e-04	
187	7.413102e+04	3.548851e+00,	-1.41976e-04	
188	7.585776e+04	3.548851e+00,	-1.45284e-04	
189	7.762471e+04	3.548851e+00,	-1.48668e-04	
190	7.943282e+04	3.548851e+00,	-1.52131e-04	
191	8.128305e+04	3.548851e+00,	-1.55674e-04	
192	8.317638e+04	3.548851e+00,	-1.59300e-04	
193	8.511380e+04	3.548851e+00,	-1.63011e-04	
194	8.709636e+04	3.548851e+00,	-1.66808e-04	
195	8.912509e+04	3.548851e+00,	-1.70693e-04	
196	9.120108e+04	3.548851e+00,	-1.74669e-04	
197	9.332543e+04	3.548851e+00,	-1.78738e-04	
198	9.549926e+04	3.548851e+00,	-1.82901e-04	
199	9.772372e+04	3.548851e+00,	-1.87161e-04	
200	1.000000e+05	3.548851e+00,	-1.91521e-04	
201	1.023293e+05	3.548851e+00,	-1.95982e-04	
202	1.047129e+05	3.548851e+00,	-2.00547e-04	
203	1.071519e+05	3.548851e+00,	-2.05218e-04	
204	1.096478e+05	3.548851e+00,	-2.09999e-04	
205	1.122018e+05	3.548851e+00,	-2.14890e-04	
206	1.148154e+05	3.548851e+00,	-2.19896e-04	
207	1.174898e+05	3.548851e+00,	-2.25018e-04	
208	1.202264e+05	3.548851e+00,	-2.30259e-04	
209	1.230269e+05	3.548851e+00,	-2.35622e-04	
210	1.258925e+05	3.548851e+00,	-2.41111e-04	
211	1.288250e+05	3.548851e+00,	-2.46727e-04	
212	1.318257e+05	3.548851e+00,	-2.52474e-04	
213	1.348963e+05	3.548851e+00,	-2.58355e-04	
214	1.380384e+05	3.548851e+00,	-2.64373e-04	
215	1.412538e+05	3.548851e+00,	-2.70531e-04	
216	1.445440e+05	3.548851e+00,	-2.76832e-04	
217	1.479108e+05	3.548851e+00,	-2.83280e-04	
218	1.513561e+05	3.548851e+00,	-2.89879e-04	
219	1.548817e+05	3.548851e+00,	-2.96631e-04	
220	1.584893e+05	3.548851e+00,	-3.03540e-04	
221	1.621810e+05	3.548851e+00,	-3.10611e-04	
222	1.659587e+05	3.548851e+00,	-3.17846e-04	
223	1.698244e+05	3.548851e+00,	-3.25249e-04	
224	1.737801e+05	3.548851e+00,	-3.32825e-04	
225	1.778279e+05	3.548851e+00,	-3.40578e-04	
226	1.819701e+05	3.548851e+00,	-3.48511e-04	
227	1.862087e+05	3.548851e+00,	-3.56629e-04	
228	1.905461e+05	3.548851e+00,	-3.64936e-04	

Index   frequency       vop                             
--------------------------------------------------------------------------------
229	1.949845e+05	3.548851e+00,	-3.73436e-04	
230	1.995262e+05	3.548851e+00,	-3.82135e-04	
231	2.041738e+05	3.548851e+00,	-3.91036e-04	
232	2.089296e+05	3.548851e+00,	-4.00144e-04	
233	2.137962e+05	3.548851e+00,	-4.09465e-04	
234	2.187762e+05	3.548851e+00,	-4.19002e-04	
235	2.238721e+05	3.548851e+00,	-4.28762e-04	
236	2.290868e+05	3.548851e+00,	-4.38749e-04	
237	2.344229e+05	3.548851e+00,	-4.48969e-04	
238	2.398833e+05	3.548851e+00,	-4.59427e-04	
239	2.454709e+05	3.548851e+00,	-4.70128e-04	
240	2.511886e+05	3.548851e+00,	-4.81079e-04	
241	2.570396e+05	3.548851e+00,	-4.92285e-04	
242	2.630268e+05	3.548851e+00,	-5.03752e-04	
243	2.691535e+05	3.548851e+00,	-5.15485e-04	
244	2.754229e+05	3.548851e+00,	-5.27493e-04	
245	2.818383e+05	3.548851e+00,	-5.39780e-04	
246	2.884032e+05	3.548851e+00,	-5.52353e-04	
247	2.951209e+05	3.548851e+00,	-5.65219e-04	
248	3.019952e+05	3.548851e+00,	-5.78384e-04	
249	3.090295e+05	3.548851e+00,	-5.91857e-04	
250	3.162278e+05	3.548851e+00,	-6.05643e-04	
251	3.235937e+05	3.548851e+00,	-6.19750e-04	
252	3.311311e+05	3.548851e+00,	-6.34186e-04	
253	3.388442e+05	3.548851e+00,	-6.48958e-04	
254	3.467369e+05	3.548851e+00,	-6.64074e-04	
255	3.548134e+05	3.548851e+00,	-6.79542e-04	
256	3.630781e+05	3.548851e+00,	-6.95371e-04	
257	3.715352e+05	3.548851e+00,	-7.11568e-04	
258	3.801894e+05	3.548851e+00,	-7.28143e-04	
259	3.890451e+05	3.548851e+00,	-7.45103e-04	
260	3.981072e+05	3.548851e+00,	-7.62459e-04	
261	4.073803e+05	3.548851e+00,	-7.80219e-04	
262	4.168694e+05	3.548851e+00,	-7.98393e-04	
263	4.265795e+05	3.548851e+00,	-8.16990e-04	
264	4.365158e+05	3.548851e+00,	-8.36020e-04	
265	4.466836e+05	3.548851e+00,	-8.55493e-04	
266	4.570882e+05	3.548851e+00,	-8.75420e-04	
267	4.677351e+05	3.548851e+00,	-8.95811e-04	
268	4.786301e+05	3.548851e+00,	-9.16678e-04	
269	4.897788e+05	3.548851e+00,	-9.38030e-04	
270	5.011872e+05	3.548851e+00,	-9.59879e-04	
271	5.128614e+05	3.548851e+00,	-9.82238e-04	
272	5.248075e+05	3.548851e+00,	-1.00512e-03	
273	5.370318e+05	3.548851e+00,	-1.02853e-03	
274	5.495409e+05	3.548851e+00,	-1.05249e-03	
275	5.623413e+05	3.548851e+00,	-1.07700e-03	
276	5.754399e+05	3.548851e+00,	-1.10209e-03	
277	5.888437e+05	3.548851e+00,	-1.12776e-03	
278	6.025596e+05	3.548851e+00,	-1.15403e-03	
279	6.165950e+05	3.548851e+00,	-1.18091e-03	
280	6.309573e+05	3.548851e+00,	-1.20842e-03	
281	6.456542e+05	3.548851e+00,	-1.23656e-03	
282	6.606934e+05	3.548851e+00,	-1.26537e-03	
283	6.760830e+05	3.548851e+00,	-1.29484e-03	
284	6.918310e+05	3.548851e+00,	-1.32500e-03	
285	7.079458e+05	3.548851e+00,	-1.35587e-03	
286	7.244360e+05	3.548851e+00,	-1.38745e-03	

Index   frequency       vop                             
--------------------------------------------------------------------------------
287	7.413102e+05	3.548851e+00,	-1.41977e-03	
288	7.585776e+05	3.548851e+00,	-1.45284e-03	
289	7.762471e+05	3.548851e+00,	-1.48668e-03	
290	7.943282e+05	3.548851e+00,	-1.52131e-03	
291	8.128305e+05	3.548851e+00,	-1.55674e-03	
292	8.317638e+05	3.548851e+00,	-1.59300e-03	
293	8.511380e+05	3.548851e+00,	-1.63011e-03	
294	8.709636e+05	3.548851e+00,	-1.66808e-03	
295	8.912509e+05	3.548851e+00,	-1.70694e-03	
296	9.120108e+05	3.548851e+00,	-1.74670e-03	
297	9.332543e+05	3.548851e+00,	-1.78738e-03	
298	9.549926e+05	3.548851e+00,	-1.82901e-03	
299	9.772372e+05	3.548851e+00,	-1.87162e-03	
300	1.000000e+06	3.548851e+00,	-1.91521e-03	
301	1.023293e+06	3.548851e+00,	-1.95983e-03	
302	1.047129e+06	3.548851e+00,	-2.00548e-03	
303	1.071519e+06	3.548851e+00,	-2.05219e-03	
304	1.096478e+06	3.548850e+00,	-2.09999e-03	
305	1.122018e+06	3.548850e+00,	-2.14891e-03	
306	1.148154e+06	3.548850e+00,	-2.19896e-03	
307	1.174898e+06	3.548850e+00,	-2.25018e-03	
308	1.202264e+06	3.548850e+00,	-2.30260e-03	
309	1.230269e+06	3.548850e+00,	-2.35623e-03	
310	1.258925e+06	3.548850e+00,	-2.41111e-03	
311	1.288250e+06	3.548850e+00,	-2.46728e-03	
312	1.318257e+06	3.548850e+00,	-2.52475e-03	
313	1.348963e+06	3.548850e+00,	-2.58356e-03	
314	1.380384e+06	3.548850e+00,	-2.64374e-03	
315	1.412538e+06	3.548850e+00,	-2.70532e-03	
316	1.445440e+06	3.548850e+00,	-2.76833e-03	
317	1.479108e+06	3.548850e+00,	-2.83282e-03	
318	1.513561e+06	3.548850e+00,	-2.89880e-03	
319	1.548817e+06	3.548850e+00,	-2.96632e-03	
320	1.584893e+06	3.548850e+00,	-3.03542e-03	
321	1.621810e+06	3.548850e+00,	-3.10612e-03	
322	1.659587e+06	3.548850e+00,	-3.17848e-03	
323	1.698244e+06	3.548850e+00,	-3.25251e-03	
324	1.737801e+06	3.548850e+00,	-3.32827e-03	
325	1.778279e+06	3.548850e+00,	-3.40580e-03	
326	1.819701e+06	3.548849e+00,	-3.48513e-03	
327	1.862087e+06	3.548849e+00,	-3.56631e-03	
328	1.905461e+06	3.548849e+00,	-3.64938e-03	
329	1.949845e+06	3.548849e+00,	-3.73439e-03	
330	1.995262e+06	3.548849e+00,	-3.82138e-03	
331	2.041738e+06	3.548849e+00,	-3.91039e-03	
332	2.089296e+06	3.548849e+00,	-4.00148e-03	
333	2.137962e+06	3.548849e+00,	-4.09469e-03	
334	2.187762e+06	3.548849e+00,	-4.19006e-03	
335	2.238721e+06	3.548849e+00,	-4.28767e-03	
336	2.290868e+06	3.548849e+00,	-4.38754e-03	
337	2.344229e+06	3.548848e+00,	-4.48974e-03	
338	2.398833e+06	3.548848e+00,	-4.59432e-03	
339	2.454709e+06	3.548848e+00,	-4.70134e-03	
340	2.511886e+06	3.548848e+00,	-4.81085e-03	
341	2.570396e+06	3.548848e+00,	-4.92292e-03	
342	2.630268e+06	3.548848e+00,	-5.03759e-03	
343	2.691535e+06	3.548848e+00,	-5.15493e-03	
344	2.754229e+06	3.548847e+00,	-5.27501e-03	

Index   frequency       vop                             
--------------------------------------------------------------------------------
345	2.818383e+06	3.548847e+00,	-5.39788e-03	
346	2.884032e+06	3.548847e+00,	-5.52362e-03	
347	2.951209e+06	3.548847e+00,	-5.65229e-03	
348	3.019952e+06	3.548847e+00,	-5.78395e-03	
349	3.090295e+06	3.548846e+00,	-5.91868e-03	
350	3.162278e+06	3.548846e+00,	-6.05655e-03	
351	3.235937e+06	3.548846e+00,	-6.19763e-03	
352	3.311311e+06	3.548846e+00,	-6.34200e-03	
353	3.388442e+06	3.548846e+00,	-6.48973e-03	
354	3.467369e+06	3.548845e+00,	-6.64090e-03	
355	3.548134e+06	3.548845e+00,	-6.79560e-03	
356	3.630781e+06	3.548845e+00,	-6.95390e-03	
357	3.715352e+06	3.548844e+00,	-7.11588e-03	
358	3.801894e+06	3.548844e+00,	-7.28164e-03	
359	3.890451e+06	3.548844e+00,	-7.45127e-03	
360	3.981072e+06	3.548843e+00,	-7.62484e-03	
361	4.073803e+06	3.548843e+00,	-7.80246e-03	
362	4.168694e+06	3.548843e+00,	-7.98421e-03	
363	4.265795e+06	3.548842e+00,	-8.17020e-03	
364	4.365158e+06	3.548842e+00,	-8.36053e-03	
365	4.466836e+06	3.548841e+00,	-8.55528e-03	
366	4.570882e+06	3.548841e+00,	-8.75458e-03	
367	4.677351e+06	3.548840e+00,	-8.95852e-03	
368	4.786301e+06	3.548840e+00,	-9.16721e-03	
369	4.897788e+06	3.548839e+00,	-9.38076e-03	
370	5.011872e+06	3.548839e+00,	-9.59929e-03	
371	5.128614e+06	3.548838e+00,	-9.82291e-03	
372	5.248075e+06	3.548838e+00,	-1.00517e-02	
373	5.370318e+06	3.548837e+00,	-1.02859e-02	
374	5.495409e+06	3.548836e+00,	-1.05255e-02	
375	5.623413e+06	3.548836e+00,	-1.07707e-02	
376	5.754399e+06	3.548835e+00,	-1.10216e-02	
377	5.888437e+06	3.548834e+00,	-1.12784e-02	
378	6.025596e+06	3.548834e+00,	-1.15411e-02	
379	6.165950e+06	3.548833e+00,	-1.18100e-02	
380	6.309573e+06	3.548832e+00,	-1.20852e-02	
381	6.456542e+06	3.548831e+00,	-1.23667e-02	
382	6.606934e+06	3.548830e+00,	-1.26548e-02	
383	6.760830e+06	3.548829e+00,	-1.29496e-02	
384	6.918310e+06	3.548828e+00,	-1.32513e-02	
385	7.079458e+06	3.548827e+00,	-1.35601e-02	
386	7.244360e+06	3.548826e+00,	-1.38760e-02	
387	7.413102e+06	3.548824e+00,	-1.41993e-02	
388	7.585776e+06	3.548823e+00,	-1.45301e-02	
389	7.762471e+06	3.548822e+00,	-1.48686e-02	
390	7.943282e+06	3.548820e+00,	-1.52150e-02	
391	8.128305e+06	3.548819e+00,	-1.55695e-02	
392	8.317638e+06	3.548817e+00,	-1.59323e-02	
393	8.511380e+06	3.548816e+00,	-1.63035e-02	
394	8.709636e+06	3.548814e+00,	-1.66834e-02	
395	8.912509e+06	3.548812e+00,	-1.70721e-02	
396	9.120108e+06	3.548811e+00,	-1.74699e-02	
397	9.332543e+06	3.548809e+00,	-1.78770e-02	
398	9.549926e+06	3.548807e+00,	-1.82935e-02	
399	9.772372e+06	3.548805e+00,	-1.87198e-02	
400	1.000000e+07	3.548802e+00,	-1.91560e-02	
401	1.023293e+07	3.548800e+00,	-1.96024e-02	
402	1.047129e+07	3.548798e+00,	-2.00592e-02	

Index   frequency       vop                             
--------------------------------------------------------------------------------
403	1.071519e+07	3.548795e+00,	-2.05266e-02	
404	1.096478e+07	3.548792e+00,	-2.10050e-02	
405	1.122018e+07	3.548790e+00,	-2.14945e-02	
406	1.148154e+07	3.548787e+00,	-2.19954e-02	
407	1.174898e+07	3.548784e+00,	-2.25080e-02	
408	1.202264e+07	3.548780e+00,	-2.30326e-02	
409	1.230269e+07	3.548777e+00,	-2.35694e-02	
410	1.258925e+07	3.548773e+00,	-2.41188e-02	
411	1.288250e+07	3.548770e+00,	-2.46809e-02	
412	1.318257e+07	3.548766e+00,	-2.52562e-02	
413	1.348963e+07	3.548762e+00,	-2.58449e-02	
414	1.380384e+07	3.548757e+00,	-2.64473e-02	
415	1.412538e+07	3.548753e+00,	-2.70638e-02	
416	1.445440e+07	3.548748e+00,	-2.76947e-02	
