** sch_path: /home/andylithia/openmpw/project-reisen-chip1/xschem/ota_wideband.sch
AC Analysis  Sun Oct 30 17:11:03  2022
--------------------------------------------------------------------------------
Index   frequency       vop                             
--------------------------------------------------------------------------------
0	1.000000e+03	3.567221e+00,	-1.99372e-06	
1	1.023293e+03	3.567221e+00,	-2.04016e-06	
2	1.047129e+03	3.567221e+00,	-2.08769e-06	
3	1.071519e+03	3.567221e+00,	-2.13631e-06	
4	1.096478e+03	3.567221e+00,	-2.18608e-06	
5	1.122018e+03	3.567221e+00,	-2.23700e-06	
6	1.148154e+03	3.567221e+00,	-2.28910e-06	
7	1.174898e+03	3.567221e+00,	-2.34242e-06	
8	1.202264e+03	3.567221e+00,	-2.39698e-06	
9	1.230269e+03	3.567221e+00,	-2.45282e-06	
10	1.258925e+03	3.567221e+00,	-2.50995e-06	
11	1.288250e+03	3.567221e+00,	-2.56841e-06	
12	1.318257e+03	3.567221e+00,	-2.62824e-06	
13	1.348963e+03	3.567221e+00,	-2.68946e-06	
14	1.380384e+03	3.567221e+00,	-2.75211e-06	
15	1.412538e+03	3.567221e+00,	-2.81621e-06	
16	1.445440e+03	3.567221e+00,	-2.88181e-06	
17	1.479108e+03	3.567221e+00,	-2.94893e-06	
18	1.513561e+03	3.567221e+00,	-3.01762e-06	
19	1.548817e+03	3.567221e+00,	-3.08791e-06	
20	1.584893e+03	3.567221e+00,	-3.15984e-06	
21	1.621810e+03	3.567221e+00,	-3.23344e-06	
22	1.659587e+03	3.567221e+00,	-3.30876e-06	
23	1.698244e+03	3.567221e+00,	-3.38583e-06	
24	1.737801e+03	3.567221e+00,	-3.46470e-06	
25	1.778279e+03	3.567221e+00,	-3.54540e-06	
26	1.819701e+03	3.567221e+00,	-3.62798e-06	
27	1.862087e+03	3.567221e+00,	-3.71249e-06	
28	1.905461e+03	3.567221e+00,	-3.79896e-06	
29	1.949845e+03	3.567221e+00,	-3.88745e-06	
30	1.995262e+03	3.567221e+00,	-3.97800e-06	
31	2.041738e+03	3.567221e+00,	-4.07066e-06	
32	2.089296e+03	3.567221e+00,	-4.16548e-06	
33	2.137962e+03	3.567221e+00,	-4.26251e-06	
34	2.187762e+03	3.567221e+00,	-4.36179e-06	
35	2.238721e+03	3.567221e+00,	-4.46339e-06	
36	2.290868e+03	3.567221e+00,	-4.56736e-06	
37	2.344229e+03	3.567221e+00,	-4.67375e-06	
38	2.398833e+03	3.567221e+00,	-4.78261e-06	
39	2.454709e+03	3.567221e+00,	-4.89401e-06	
40	2.511886e+03	3.567221e+00,	-5.00801e-06	
41	2.570396e+03	3.567221e+00,	-5.12466e-06	
42	2.630268e+03	3.567221e+00,	-5.24403e-06	
43	2.691535e+03	3.567221e+00,	-5.36618e-06	
44	2.754229e+03	3.567221e+00,	-5.49117e-06	
45	2.818383e+03	3.567221e+00,	-5.61908e-06	
46	2.884032e+03	3.567221e+00,	-5.74996e-06	
47	2.951209e+03	3.567221e+00,	-5.88390e-06	
48	3.019952e+03	3.567221e+00,	-6.02095e-06	
49	3.090295e+03	3.567221e+00,	-6.16120e-06	
50	3.162278e+03	3.567221e+00,	-6.30471e-06	
51	3.235937e+03	3.567221e+00,	-6.45157e-06	
52	3.311311e+03	3.567221e+00,	-6.60184e-06	
53	3.388442e+03	3.567221e+00,	-6.75562e-06	
54	3.467369e+03	3.567221e+00,	-6.91298e-06	

Index   frequency       vop                             
--------------------------------------------------------------------------------
55	3.548134e+03	3.567221e+00,	-7.07400e-06	
56	3.630781e+03	3.567221e+00,	-7.23878e-06	
57	3.715352e+03	3.567221e+00,	-7.40739e-06	
58	3.801894e+03	3.567221e+00,	-7.57993e-06	
59	3.890451e+03	3.567221e+00,	-7.75649e-06	
60	3.981072e+03	3.567221e+00,	-7.93716e-06	
61	4.073803e+03	3.567221e+00,	-8.12204e-06	
62	4.168694e+03	3.567221e+00,	-8.31123e-06	
63	4.265795e+03	3.567221e+00,	-8.50482e-06	
64	4.365158e+03	3.567221e+00,	-8.70292e-06	
65	4.466836e+03	3.567221e+00,	-8.90564e-06	
66	4.570882e+03	3.567221e+00,	-9.11308e-06	
67	4.677351e+03	3.567221e+00,	-9.32535e-06	
68	4.786301e+03	3.567221e+00,	-9.54256e-06	
69	4.897788e+03	3.567221e+00,	-9.76484e-06	
70	5.011872e+03	3.567221e+00,	-9.99229e-06	
71	5.128614e+03	3.567221e+00,	-1.02250e-05	
72	5.248075e+03	3.567221e+00,	-1.04632e-05	
73	5.370318e+03	3.567221e+00,	-1.07069e-05	
74	5.495409e+03	3.567221e+00,	-1.09563e-05	
75	5.623413e+03	3.567221e+00,	-1.12115e-05	
76	5.754399e+03	3.567221e+00,	-1.14727e-05	
77	5.888437e+03	3.567221e+00,	-1.17399e-05	
78	6.025596e+03	3.567221e+00,	-1.20134e-05	
79	6.165950e+03	3.567221e+00,	-1.22932e-05	
80	6.309573e+03	3.567221e+00,	-1.25795e-05	
81	6.456542e+03	3.567221e+00,	-1.28726e-05	
82	6.606934e+03	3.567221e+00,	-1.31724e-05	
83	6.760830e+03	3.567221e+00,	-1.34792e-05	
84	6.918310e+03	3.567221e+00,	-1.37932e-05	
85	7.079458e+03	3.567221e+00,	-1.41145e-05	
86	7.244360e+03	3.567221e+00,	-1.44433e-05	
87	7.413102e+03	3.567221e+00,	-1.47797e-05	
88	7.585776e+03	3.567221e+00,	-1.51239e-05	
89	7.762471e+03	3.567221e+00,	-1.54762e-05	
90	7.943282e+03	3.567221e+00,	-1.58367e-05	
91	8.128305e+03	3.567221e+00,	-1.62056e-05	
92	8.317638e+03	3.567221e+00,	-1.65831e-05	
93	8.511380e+03	3.567221e+00,	-1.69693e-05	
94	8.709636e+03	3.567221e+00,	-1.73646e-05	
95	8.912509e+03	3.567221e+00,	-1.77691e-05	
96	9.120108e+03	3.567221e+00,	-1.81830e-05	
97	9.332543e+03	3.567221e+00,	-1.86065e-05	
98	9.549926e+03	3.567221e+00,	-1.90399e-05	
99	9.772372e+03	3.567221e+00,	-1.94834e-05	
100	1.000000e+04	3.567221e+00,	-1.99372e-05	
101	1.023293e+04	3.567221e+00,	-2.04016e-05	
102	1.047129e+04	3.567221e+00,	-2.08769e-05	
103	1.071519e+04	3.567221e+00,	-2.13631e-05	
104	1.096478e+04	3.567221e+00,	-2.18608e-05	
105	1.122018e+04	3.567221e+00,	-2.23700e-05	
106	1.148154e+04	3.567221e+00,	-2.28910e-05	
107	1.174898e+04	3.567221e+00,	-2.34242e-05	
108	1.202264e+04	3.567221e+00,	-2.39698e-05	
109	1.230269e+04	3.567221e+00,	-2.45282e-05	
110	1.258925e+04	3.567221e+00,	-2.50995e-05	
111	1.288250e+04	3.567221e+00,	-2.56841e-05	
112	1.318257e+04	3.567221e+00,	-2.62824e-05	

Index   frequency       vop                             
--------------------------------------------------------------------------------
113	1.348963e+04	3.567221e+00,	-2.68946e-05	
114	1.380384e+04	3.567221e+00,	-2.75211e-05	
115	1.412538e+04	3.567221e+00,	-2.81621e-05	
116	1.445440e+04	3.567221e+00,	-2.88181e-05	
117	1.479108e+04	3.567221e+00,	-2.94893e-05	
118	1.513561e+04	3.567221e+00,	-3.01762e-05	
119	1.548817e+04	3.567221e+00,	-3.08791e-05	
120	1.584893e+04	3.567221e+00,	-3.15984e-05	
121	1.621810e+04	3.567221e+00,	-3.23344e-05	
122	1.659587e+04	3.567221e+00,	-3.30876e-05	
123	1.698244e+04	3.567221e+00,	-3.38583e-05	
124	1.737801e+04	3.567221e+00,	-3.46470e-05	
125	1.778279e+04	3.567221e+00,	-3.54540e-05	
126	1.819701e+04	3.567221e+00,	-3.62798e-05	
127	1.862087e+04	3.567221e+00,	-3.71249e-05	
128	1.905461e+04	3.567221e+00,	-3.79896e-05	
129	1.949845e+04	3.567221e+00,	-3.88745e-05	
130	1.995262e+04	3.567221e+00,	-3.97800e-05	
131	2.041738e+04	3.567221e+00,	-4.07066e-05	
132	2.089296e+04	3.567221e+00,	-4.16548e-05	
133	2.137962e+04	3.567221e+00,	-4.26251e-05	
134	2.187762e+04	3.567221e+00,	-4.36179e-05	
135	2.238721e+04	3.567221e+00,	-4.46339e-05	
136	2.290868e+04	3.567221e+00,	-4.56736e-05	
137	2.344229e+04	3.567221e+00,	-4.67375e-05	
138	2.398833e+04	3.567221e+00,	-4.78261e-05	
139	2.454709e+04	3.567221e+00,	-4.89401e-05	
140	2.511886e+04	3.567221e+00,	-5.00801e-05	
141	2.570396e+04	3.567221e+00,	-5.12466e-05	
142	2.630268e+04	3.567221e+00,	-5.24403e-05	
143	2.691535e+04	3.567221e+00,	-5.36618e-05	
144	2.754229e+04	3.567221e+00,	-5.49117e-05	
145	2.818383e+04	3.567221e+00,	-5.61908e-05	
146	2.884032e+04	3.567221e+00,	-5.74996e-05	
147	2.951209e+04	3.567221e+00,	-5.88390e-05	
148	3.019952e+04	3.567221e+00,	-6.02095e-05	
149	3.090295e+04	3.567221e+00,	-6.16120e-05	
150	3.162278e+04	3.567221e+00,	-6.30471e-05	
151	3.235937e+04	3.567221e+00,	-6.45157e-05	
152	3.311311e+04	3.567221e+00,	-6.60184e-05	
153	3.388442e+04	3.567221e+00,	-6.75562e-05	
154	3.467369e+04	3.567221e+00,	-6.91298e-05	
155	3.548134e+04	3.567221e+00,	-7.07400e-05	
156	3.630781e+04	3.567221e+00,	-7.23878e-05	
157	3.715352e+04	3.567221e+00,	-7.40739e-05	
158	3.801894e+04	3.567221e+00,	-7.57993e-05	
159	3.890451e+04	3.567221e+00,	-7.75649e-05	
160	3.981072e+04	3.567221e+00,	-7.93716e-05	
161	4.073803e+04	3.567221e+00,	-8.12204e-05	
162	4.168694e+04	3.567221e+00,	-8.31123e-05	
163	4.265795e+04	3.567221e+00,	-8.50482e-05	
164	4.365158e+04	3.567221e+00,	-8.70292e-05	
165	4.466836e+04	3.567221e+00,	-8.90564e-05	
166	4.570882e+04	3.567221e+00,	-9.11308e-05	
167	4.677351e+04	3.567221e+00,	-9.32535e-05	
168	4.786301e+04	3.567221e+00,	-9.54256e-05	
169	4.897788e+04	3.567221e+00,	-9.76484e-05	
170	5.011872e+04	3.567221e+00,	-9.99229e-05	

Index   frequency       vop                             
--------------------------------------------------------------------------------
171	5.128614e+04	3.567221e+00,	-1.02250e-04	
172	5.248075e+04	3.567221e+00,	-1.04632e-04	
173	5.370318e+04	3.567221e+00,	-1.07069e-04	
174	5.495409e+04	3.567221e+00,	-1.09563e-04	
175	5.623413e+04	3.567221e+00,	-1.12115e-04	
176	5.754399e+04	3.567221e+00,	-1.14727e-04	
177	5.888437e+04	3.567221e+00,	-1.17399e-04	
178	6.025596e+04	3.567221e+00,	-1.20134e-04	
179	6.165950e+04	3.567221e+00,	-1.22932e-04	
180	6.309573e+04	3.567221e+00,	-1.25795e-04	
181	6.456542e+04	3.567221e+00,	-1.28726e-04	
182	6.606934e+04	3.567221e+00,	-1.31724e-04	
183	6.760830e+04	3.567221e+00,	-1.34792e-04	
184	6.918310e+04	3.567221e+00,	-1.37932e-04	
185	7.079458e+04	3.567221e+00,	-1.41145e-04	
186	7.244360e+04	3.567221e+00,	-1.44433e-04	
187	7.413102e+04	3.567221e+00,	-1.47797e-04	
188	7.585776e+04	3.567221e+00,	-1.51239e-04	
189	7.762471e+04	3.567221e+00,	-1.54762e-04	
190	7.943282e+04	3.567221e+00,	-1.58367e-04	
191	8.128305e+04	3.567221e+00,	-1.62056e-04	
192	8.317638e+04	3.567221e+00,	-1.65831e-04	
193	8.511380e+04	3.567221e+00,	-1.69693e-04	
194	8.709636e+04	3.567221e+00,	-1.73646e-04	
195	8.912509e+04	3.567221e+00,	-1.77691e-04	
196	9.120108e+04	3.567221e+00,	-1.81830e-04	
197	9.332543e+04	3.567221e+00,	-1.86065e-04	
198	9.549926e+04	3.567221e+00,	-1.90399e-04	
199	9.772372e+04	3.567221e+00,	-1.94834e-04	
200	1.000000e+05	3.567221e+00,	-1.99372e-04	
201	1.023293e+05	3.567221e+00,	-2.04016e-04	
202	1.047129e+05	3.567221e+00,	-2.08769e-04	
203	1.071519e+05	3.567221e+00,	-2.13631e-04	
204	1.096478e+05	3.567221e+00,	-2.18608e-04	
205	1.122018e+05	3.567221e+00,	-2.23700e-04	
206	1.148154e+05	3.567221e+00,	-2.28910e-04	
207	1.174898e+05	3.567221e+00,	-2.34242e-04	
208	1.202264e+05	3.567221e+00,	-2.39698e-04	
209	1.230269e+05	3.567221e+00,	-2.45282e-04	
210	1.258925e+05	3.567221e+00,	-2.50995e-04	
211	1.288250e+05	3.567221e+00,	-2.56841e-04	
212	1.318257e+05	3.567221e+00,	-2.62824e-04	
213	1.348963e+05	3.567221e+00,	-2.68946e-04	
214	1.380384e+05	3.567221e+00,	-2.75211e-04	
215	1.412538e+05	3.567221e+00,	-2.81621e-04	
216	1.445440e+05	3.567221e+00,	-2.88181e-04	
217	1.479108e+05	3.567221e+00,	-2.94893e-04	
218	1.513561e+05	3.567221e+00,	-3.01762e-04	
219	1.548817e+05	3.567221e+00,	-3.08791e-04	
220	1.584893e+05	3.567221e+00,	-3.15984e-04	
221	1.621810e+05	3.567221e+00,	-3.23344e-04	
222	1.659587e+05	3.567221e+00,	-3.30876e-04	
223	1.698244e+05	3.567221e+00,	-3.38583e-04	
224	1.737801e+05	3.567221e+00,	-3.46470e-04	
225	1.778279e+05	3.567221e+00,	-3.54540e-04	
226	1.819701e+05	3.567221e+00,	-3.62798e-04	
227	1.862087e+05	3.567221e+00,	-3.71249e-04	
228	1.905461e+05	3.567221e+00,	-3.79896e-04	

Index   frequency       vop                             
--------------------------------------------------------------------------------
229	1.949845e+05	3.567221e+00,	-3.88745e-04	
230	1.995262e+05	3.567221e+00,	-3.97800e-04	
231	2.041738e+05	3.567221e+00,	-4.07066e-04	
232	2.089296e+05	3.567221e+00,	-4.16548e-04	
233	2.137962e+05	3.567221e+00,	-4.26251e-04	
234	2.187762e+05	3.567221e+00,	-4.36179e-04	
235	2.238721e+05	3.567221e+00,	-4.46339e-04	
236	2.290868e+05	3.567221e+00,	-4.56736e-04	
237	2.344229e+05	3.567221e+00,	-4.67375e-04	
238	2.398833e+05	3.567221e+00,	-4.78261e-04	
239	2.454709e+05	3.567221e+00,	-4.89401e-04	
240	2.511886e+05	3.567221e+00,	-5.00801e-04	
241	2.570396e+05	3.567221e+00,	-5.12466e-04	
242	2.630268e+05	3.567221e+00,	-5.24403e-04	
243	2.691535e+05	3.567221e+00,	-5.36618e-04	
244	2.754229e+05	3.567221e+00,	-5.49117e-04	
245	2.818383e+05	3.567221e+00,	-5.61908e-04	
246	2.884032e+05	3.567221e+00,	-5.74996e-04	
247	2.951209e+05	3.567221e+00,	-5.88390e-04	
248	3.019952e+05	3.567221e+00,	-6.02095e-04	
249	3.090295e+05	3.567221e+00,	-6.16120e-04	
250	3.162278e+05	3.567221e+00,	-6.30471e-04	
251	3.235937e+05	3.567221e+00,	-6.45156e-04	
252	3.311311e+05	3.567221e+00,	-6.60184e-04	
253	3.388442e+05	3.567221e+00,	-6.75562e-04	
254	3.467369e+05	3.567221e+00,	-6.91297e-04	
255	3.548134e+05	3.567221e+00,	-7.07400e-04	
256	3.630781e+05	3.567221e+00,	-7.23877e-04	
257	3.715352e+05	3.567221e+00,	-7.40739e-04	
258	3.801894e+05	3.567221e+00,	-7.57993e-04	
259	3.890451e+05	3.567221e+00,	-7.75648e-04	
260	3.981072e+05	3.567221e+00,	-7.93716e-04	
261	4.073803e+05	3.567221e+00,	-8.12204e-04	
262	4.168694e+05	3.567220e+00,	-8.31122e-04	
263	4.265795e+05	3.567220e+00,	-8.50482e-04	
264	4.365158e+05	3.567220e+00,	-8.70292e-04	
265	4.466836e+05	3.567220e+00,	-8.90564e-04	
266	4.570882e+05	3.567220e+00,	-9.11307e-04	
267	4.677351e+05	3.567220e+00,	-9.32534e-04	
268	4.786301e+05	3.567220e+00,	-9.54256e-04	
269	4.897788e+05	3.567220e+00,	-9.76483e-04	
270	5.011872e+05	3.567220e+00,	-9.99229e-04	
271	5.128614e+05	3.567220e+00,	-1.02250e-03	
272	5.248075e+05	3.567220e+00,	-1.04632e-03	
273	5.370318e+05	3.567220e+00,	-1.07069e-03	
274	5.495409e+05	3.567220e+00,	-1.09563e-03	
275	5.623413e+05	3.567220e+00,	-1.12115e-03	
276	5.754399e+05	3.567220e+00,	-1.14727e-03	
277	5.888437e+05	3.567220e+00,	-1.17399e-03	
278	6.025596e+05	3.567220e+00,	-1.20134e-03	
279	6.165950e+05	3.567220e+00,	-1.22932e-03	
280	6.309573e+05	3.567220e+00,	-1.25795e-03	
281	6.456542e+05	3.567220e+00,	-1.28726e-03	
282	6.606934e+05	3.567220e+00,	-1.31724e-03	
283	6.760830e+05	3.567220e+00,	-1.34792e-03	
284	6.918310e+05	3.567220e+00,	-1.37932e-03	
285	7.079458e+05	3.567220e+00,	-1.41145e-03	
286	7.244360e+05	3.567220e+00,	-1.44432e-03	

Index   frequency       vop                             
--------------------------------------------------------------------------------
287	7.413102e+05	3.567220e+00,	-1.47797e-03	
288	7.585776e+05	3.567220e+00,	-1.51239e-03	
289	7.762471e+05	3.567220e+00,	-1.54762e-03	
290	7.943282e+05	3.567220e+00,	-1.58367e-03	
291	8.128305e+05	3.567220e+00,	-1.62056e-03	
292	8.317638e+05	3.567220e+00,	-1.65831e-03	
293	8.511380e+05	3.567220e+00,	-1.69693e-03	
294	8.709636e+05	3.567220e+00,	-1.73646e-03	
295	8.912509e+05	3.567220e+00,	-1.77691e-03	
296	9.120108e+05	3.567220e+00,	-1.81830e-03	
297	9.332543e+05	3.567220e+00,	-1.86065e-03	
298	9.549926e+05	3.567220e+00,	-1.90399e-03	
299	9.772372e+05	3.567220e+00,	-1.94834e-03	
300	1.000000e+06	3.567220e+00,	-1.99372e-03	
301	1.023293e+06	3.567220e+00,	-2.04016e-03	
302	1.047129e+06	3.567219e+00,	-2.08768e-03	
303	1.071519e+06	3.567219e+00,	-2.13631e-03	
304	1.096478e+06	3.567219e+00,	-2.18607e-03	
305	1.122018e+06	3.567219e+00,	-2.23699e-03	
306	1.148154e+06	3.567219e+00,	-2.28910e-03	
307	1.174898e+06	3.567219e+00,	-2.34242e-03	
308	1.202264e+06	3.567219e+00,	-2.39698e-03	
309	1.230269e+06	3.567219e+00,	-2.45281e-03	
310	1.258925e+06	3.567219e+00,	-2.50994e-03	
311	1.288250e+06	3.567219e+00,	-2.56841e-03	
312	1.318257e+06	3.567219e+00,	-2.62823e-03	
313	1.348963e+06	3.567219e+00,	-2.68945e-03	
314	1.380384e+06	3.567219e+00,	-2.75209e-03	
315	1.412538e+06	3.567219e+00,	-2.81620e-03	
316	1.445440e+06	3.567218e+00,	-2.88180e-03	
317	1.479108e+06	3.567218e+00,	-2.94892e-03	
318	1.513561e+06	3.567218e+00,	-3.01761e-03	
319	1.548817e+06	3.567218e+00,	-3.08790e-03	
320	1.584893e+06	3.567218e+00,	-3.15982e-03	
321	1.621810e+06	3.567218e+00,	-3.23342e-03	
322	1.659587e+06	3.567218e+00,	-3.30874e-03	
323	1.698244e+06	3.567218e+00,	-3.38581e-03	
324	1.737801e+06	3.567217e+00,	-3.46467e-03	
325	1.778279e+06	3.567217e+00,	-3.54538e-03	
326	1.819701e+06	3.567217e+00,	-3.62796e-03	
327	1.862087e+06	3.567217e+00,	-3.71246e-03	
328	1.905461e+06	3.567217e+00,	-3.79894e-03	
329	1.949845e+06	3.567217e+00,	-3.88742e-03	
330	1.995262e+06	3.567216e+00,	-3.97797e-03	
331	2.041738e+06	3.567216e+00,	-4.07063e-03	
332	2.089296e+06	3.567216e+00,	-4.16544e-03	
333	2.137962e+06	3.567216e+00,	-4.26247e-03	
334	2.187762e+06	3.567215e+00,	-4.36175e-03	
335	2.238721e+06	3.567215e+00,	-4.46335e-03	
336	2.290868e+06	3.567215e+00,	-4.56731e-03	
337	2.344229e+06	3.567215e+00,	-4.67369e-03	
338	2.398833e+06	3.567214e+00,	-4.78256e-03	
339	2.454709e+06	3.567214e+00,	-4.89395e-03	
340	2.511886e+06	3.567214e+00,	-5.00794e-03	
341	2.570396e+06	3.567213e+00,	-5.12459e-03	
342	2.630268e+06	3.567213e+00,	-5.24396e-03	
343	2.691535e+06	3.567213e+00,	-5.36610e-03	
344	2.754229e+06	3.567212e+00,	-5.49109e-03	

Index   frequency       vop                             
--------------------------------------------------------------------------------
345	2.818383e+06	3.567212e+00,	-5.61899e-03	
346	2.884032e+06	3.567212e+00,	-5.74987e-03	
347	2.951209e+06	3.567211e+00,	-5.88379e-03	
348	3.019952e+06	3.567211e+00,	-6.02084e-03	
349	3.090295e+06	3.567210e+00,	-6.16108e-03	
350	3.162278e+06	3.567210e+00,	-6.30458e-03	
351	3.235937e+06	3.567209e+00,	-6.45143e-03	
352	3.311311e+06	3.567209e+00,	-6.60169e-03	
353	3.388442e+06	3.567208e+00,	-6.75546e-03	
354	3.467369e+06	3.567208e+00,	-6.91281e-03	
355	3.548134e+06	3.567207e+00,	-7.07382e-03	
356	3.630781e+06	3.567206e+00,	-7.23858e-03	
357	3.715352e+06	3.567206e+00,	-7.40718e-03	
358	3.801894e+06	3.567205e+00,	-7.57971e-03	
359	3.890451e+06	3.567204e+00,	-7.75625e-03	
360	3.981072e+06	3.567203e+00,	-7.93690e-03	
361	4.073803e+06	3.567203e+00,	-8.12177e-03	
362	4.168694e+06	3.567202e+00,	-8.31093e-03	
363	4.265795e+06	3.567201e+00,	-8.50451e-03	
364	4.365158e+06	3.567200e+00,	-8.70259e-03	
365	4.466836e+06	3.567199e+00,	-8.90528e-03	
366	4.570882e+06	3.567198e+00,	-9.11269e-03	
367	4.677351e+06	3.567197e+00,	-9.32494e-03	
368	4.786301e+06	3.567196e+00,	-9.54212e-03	
369	4.897788e+06	3.567195e+00,	-9.76437e-03	
370	5.011872e+06	3.567193e+00,	-9.99178e-03	
371	5.128614e+06	3.567192e+00,	-1.02245e-02	
372	5.248075e+06	3.567191e+00,	-1.04626e-02	
373	5.370318e+06	3.567189e+00,	-1.07063e-02	
374	5.495409e+06	3.567188e+00,	-1.09557e-02	
375	5.623413e+06	3.567186e+00,	-1.12108e-02	
376	5.754399e+06	3.567185e+00,	-1.14719e-02	
377	5.888437e+06	3.567183e+00,	-1.17391e-02	
378	6.025596e+06	3.567181e+00,	-1.20125e-02	
379	6.165950e+06	3.567179e+00,	-1.22923e-02	
380	6.309573e+06	3.567177e+00,	-1.25785e-02	
381	6.456542e+06	3.567175e+00,	-1.28715e-02	
382	6.606934e+06	3.567173e+00,	-1.31712e-02	
383	6.760830e+06	3.567171e+00,	-1.34780e-02	
384	6.918310e+06	3.567169e+00,	-1.37919e-02	
385	7.079458e+06	3.567166e+00,	-1.41131e-02	
386	7.244360e+06	3.567164e+00,	-1.44417e-02	
387	7.413102e+06	3.567161e+00,	-1.47781e-02	
388	7.585776e+06	3.567158e+00,	-1.51222e-02	
389	7.762471e+06	3.567155e+00,	-1.54744e-02	
390	7.943282e+06	3.567152e+00,	-1.58347e-02	
391	8.128305e+06	3.567149e+00,	-1.62035e-02	
392	8.317638e+06	3.567146e+00,	-1.65808e-02	
393	8.511380e+06	3.567142e+00,	-1.69669e-02	
394	8.709636e+06	3.567138e+00,	-1.73620e-02	
395	8.912509e+06	3.567135e+00,	-1.77663e-02	
396	9.120108e+06	3.567130e+00,	-1.81800e-02	
397	9.332543e+06	3.567126e+00,	-1.86033e-02	
398	9.549926e+06	3.567122e+00,	-1.90365e-02	
399	9.772372e+06	3.567117e+00,	-1.94797e-02	
400	1.000000e+07	3.567112e+00,	-1.99333e-02	
401	1.023293e+07	3.567107e+00,	-2.03974e-02	
402	1.047129e+07	3.567102e+00,	-2.08723e-02	

Index   frequency       vop                             
--------------------------------------------------------------------------------
403	1.071519e+07	3.567096e+00,	-2.13583e-02	
404	1.096478e+07	3.567091e+00,	-2.18556e-02	
405	1.122018e+07	3.567084e+00,	-2.23644e-02	
406	1.148154e+07	3.567078e+00,	-2.28851e-02	
407	1.174898e+07	3.567071e+00,	-2.34178e-02	
408	1.202264e+07	3.567064e+00,	-2.39630e-02	
409	1.230269e+07	3.567057e+00,	-2.45209e-02	
410	1.258925e+07	3.567049e+00,	-2.50917e-02	
411	1.288250e+07	3.567041e+00,	-2.56758e-02	
412	1.318257e+07	3.567033e+00,	-2.62735e-02	
413	1.348963e+07	3.567024e+00,	-2.68850e-02	
414	1.380384e+07	3.567015e+00,	-2.75108e-02	
415	1.412538e+07	3.567006e+00,	-2.81512e-02	
416	1.445440e+07	3.566996e+00,	-2.88064e-02	
