** sch_path: /home/andylithia/openmpw/project-reisen-chip1/xschem/ota_wideband.sch
AC Analysis  Sun Oct 30 17:11:03  2022
--------------------------------------------------------------------------------
Index   frequency       vop                             
--------------------------------------------------------------------------------
0	1.000000e+03	1.865917e+00,	1.312098e-05	
1	1.023293e+03	1.865917e+00,	1.342660e-05	
2	1.047129e+03	1.865917e+00,	1.373935e-05	
3	1.071519e+03	1.865917e+00,	1.405938e-05	
4	1.096478e+03	1.865917e+00,	1.438686e-05	
5	1.122018e+03	1.865917e+00,	1.472198e-05	
6	1.148154e+03	1.865917e+00,	1.506490e-05	
7	1.174898e+03	1.865917e+00,	1.541580e-05	
8	1.202264e+03	1.865917e+00,	1.577488e-05	
9	1.230269e+03	1.865917e+00,	1.614233e-05	
10	1.258925e+03	1.865917e+00,	1.651833e-05	
11	1.288250e+03	1.865917e+00,	1.690309e-05	
12	1.318257e+03	1.865917e+00,	1.729681e-05	
13	1.348963e+03	1.865917e+00,	1.769971e-05	
14	1.380384e+03	1.865917e+00,	1.811199e-05	
15	1.412538e+03	1.865917e+00,	1.853387e-05	
16	1.445440e+03	1.865917e+00,	1.896558e-05	
17	1.479108e+03	1.865917e+00,	1.940735e-05	
18	1.513561e+03	1.865917e+00,	1.985940e-05	
19	1.548817e+03	1.865917e+00,	2.032199e-05	
20	1.584893e+03	1.865917e+00,	2.079535e-05	
21	1.621810e+03	1.865917e+00,	2.127973e-05	
22	1.659587e+03	1.865917e+00,	2.177540e-05	
23	1.698244e+03	1.865917e+00,	2.228261e-05	
24	1.737801e+03	1.865917e+00,	2.280164e-05	
25	1.778279e+03	1.865917e+00,	2.333276e-05	
26	1.819701e+03	1.865917e+00,	2.387625e-05	
27	1.862087e+03	1.865917e+00,	2.443240e-05	
28	1.905461e+03	1.865917e+00,	2.500150e-05	
29	1.949845e+03	1.865917e+00,	2.558386e-05	
30	1.995262e+03	1.865917e+00,	2.617979e-05	
31	2.041738e+03	1.865917e+00,	2.678959e-05	
32	2.089296e+03	1.865917e+00,	2.741360e-05	
33	2.137962e+03	1.865917e+00,	2.805215e-05	
34	2.187762e+03	1.865917e+00,	2.870557e-05	
35	2.238721e+03	1.865917e+00,	2.937421e-05	
36	2.290868e+03	1.865917e+00,	3.005842e-05	
37	2.344229e+03	1.865917e+00,	3.075857e-05	
38	2.398833e+03	1.865917e+00,	3.147503e-05	
39	2.454709e+03	1.865917e+00,	3.220818e-05	
40	2.511886e+03	1.865917e+00,	3.295840e-05	
41	2.570396e+03	1.865917e+00,	3.372610e-05	
42	2.630268e+03	1.865917e+00,	3.451168e-05	
43	2.691535e+03	1.865917e+00,	3.531556e-05	
44	2.754229e+03	1.865917e+00,	3.613817e-05	
45	2.818383e+03	1.865917e+00,	3.697993e-05	
46	2.884032e+03	1.865917e+00,	3.784131e-05	
47	2.951209e+03	1.865917e+00,	3.872274e-05	
48	3.019952e+03	1.865917e+00,	3.962471e-05	
49	3.090295e+03	1.865917e+00,	4.054769e-05	
50	3.162278e+03	1.865917e+00,	4.149217e-05	
51	3.235937e+03	1.865917e+00,	4.245865e-05	
52	3.311311e+03	1.865917e+00,	4.344763e-05	
53	3.388442e+03	1.865917e+00,	4.445966e-05	
54	3.467369e+03	1.865917e+00,	4.549526e-05	

Index   frequency       vop                             
--------------------------------------------------------------------------------
55	3.548134e+03	1.865917e+00,	4.655498e-05	
56	3.630781e+03	1.865917e+00,	4.763938e-05	
57	3.715352e+03	1.865917e+00,	4.874905e-05	
58	3.801894e+03	1.865917e+00,	4.988456e-05	
59	3.890451e+03	1.865917e+00,	5.104652e-05	
60	3.981072e+03	1.865917e+00,	5.223555e-05	
61	4.073803e+03	1.865917e+00,	5.345227e-05	
62	4.168694e+03	1.865917e+00,	5.469733e-05	
63	4.265795e+03	1.865917e+00,	5.597140e-05	
64	4.365158e+03	1.865917e+00,	5.727514e-05	
65	4.466836e+03	1.865917e+00,	5.860925e-05	
66	4.570882e+03	1.865917e+00,	5.997443e-05	
67	4.677351e+03	1.865917e+00,	6.137141e-05	
68	4.786301e+03	1.865917e+00,	6.280094e-05	
69	4.897788e+03	1.865917e+00,	6.426376e-05	
70	5.011872e+03	1.865917e+00,	6.576066e-05	
71	5.128614e+03	1.865917e+00,	6.729242e-05	
72	5.248075e+03	1.865917e+00,	6.885986e-05	
73	5.370318e+03	1.865917e+00,	7.046381e-05	
74	5.495409e+03	1.865917e+00,	7.210512e-05	
75	5.623413e+03	1.865917e+00,	7.378467e-05	
76	5.754399e+03	1.865917e+00,	7.550333e-05	
77	5.888437e+03	1.865917e+00,	7.726203e-05	
78	6.025596e+03	1.865917e+00,	7.906170e-05	
79	6.165950e+03	1.865917e+00,	8.090328e-05	
80	6.309573e+03	1.865917e+00,	8.278776e-05	
81	6.456542e+03	1.865917e+00,	8.471613e-05	
82	6.606934e+03	1.865917e+00,	8.668943e-05	
83	6.760830e+03	1.865917e+00,	8.870868e-05	
84	6.918310e+03	1.865917e+00,	9.077497e-05	
85	7.079458e+03	1.865917e+00,	9.288939e-05	
86	7.244360e+03	1.865917e+00,	9.505307e-05	
87	7.413102e+03	1.865917e+00,	9.726714e-05	
88	7.585776e+03	1.865917e+00,	9.953278e-05	
89	7.762471e+03	1.865917e+00,	1.018512e-04	
90	7.943282e+03	1.865917e+00,	1.042236e-04	
91	8.128305e+03	1.865917e+00,	1.066513e-04	
92	8.317638e+03	1.865917e+00,	1.091355e-04	
93	8.511380e+03	1.865917e+00,	1.116776e-04	
94	8.709636e+03	1.865917e+00,	1.142789e-04	
95	8.912509e+03	1.865917e+00,	1.169408e-04	
96	9.120108e+03	1.865917e+00,	1.196647e-04	
97	9.332543e+03	1.865917e+00,	1.224521e-04	
98	9.549926e+03	1.865917e+00,	1.253043e-04	
99	9.772372e+03	1.865917e+00,	1.282231e-04	
100	1.000000e+04	1.865917e+00,	1.312098e-04	
101	1.023293e+04	1.865917e+00,	1.342660e-04	
102	1.047129e+04	1.865917e+00,	1.373935e-04	
103	1.071519e+04	1.865917e+00,	1.405938e-04	
104	1.096478e+04	1.865917e+00,	1.438686e-04	
105	1.122018e+04	1.865917e+00,	1.472198e-04	
106	1.148154e+04	1.865917e+00,	1.506490e-04	
107	1.174898e+04	1.865917e+00,	1.541580e-04	
108	1.202264e+04	1.865917e+00,	1.577488e-04	
109	1.230269e+04	1.865917e+00,	1.614233e-04	
110	1.258925e+04	1.865917e+00,	1.651833e-04	
111	1.288250e+04	1.865917e+00,	1.690309e-04	
112	1.318257e+04	1.865917e+00,	1.729681e-04	

Index   frequency       vop                             
--------------------------------------------------------------------------------
113	1.348963e+04	1.865917e+00,	1.769971e-04	
114	1.380384e+04	1.865917e+00,	1.811199e-04	
115	1.412538e+04	1.865917e+00,	1.853387e-04	
116	1.445440e+04	1.865917e+00,	1.896558e-04	
117	1.479108e+04	1.865917e+00,	1.940735e-04	
118	1.513561e+04	1.865917e+00,	1.985940e-04	
119	1.548817e+04	1.865917e+00,	2.032198e-04	
120	1.584893e+04	1.865917e+00,	2.079534e-04	
121	1.621810e+04	1.865917e+00,	2.127973e-04	
122	1.659587e+04	1.865917e+00,	2.177540e-04	
123	1.698244e+04	1.865917e+00,	2.228261e-04	
124	1.737801e+04	1.865917e+00,	2.280164e-04	
125	1.778279e+04	1.865917e+00,	2.333276e-04	
126	1.819701e+04	1.865917e+00,	2.387625e-04	
127	1.862087e+04	1.865917e+00,	2.443240e-04	
128	1.905461e+04	1.865917e+00,	2.500150e-04	
129	1.949845e+04	1.865917e+00,	2.558386e-04	
130	1.995262e+04	1.865917e+00,	2.617979e-04	
131	2.041738e+04	1.865917e+00,	2.678959e-04	
132	2.089296e+04	1.865917e+00,	2.741360e-04	
133	2.137962e+04	1.865917e+00,	2.805215e-04	
134	2.187762e+04	1.865917e+00,	2.870557e-04	
135	2.238721e+04	1.865917e+00,	2.937420e-04	
136	2.290868e+04	1.865917e+00,	3.005842e-04	
137	2.344229e+04	1.865917e+00,	3.075857e-04	
138	2.398833e+04	1.865917e+00,	3.147503e-04	
139	2.454709e+04	1.865917e+00,	3.220817e-04	
140	2.511886e+04	1.865917e+00,	3.295840e-04	
141	2.570396e+04	1.865917e+00,	3.372610e-04	
142	2.630268e+04	1.865917e+00,	3.451168e-04	
143	2.691535e+04	1.865917e+00,	3.531556e-04	
144	2.754229e+04	1.865917e+00,	3.613817e-04	
145	2.818383e+04	1.865917e+00,	3.697993e-04	
146	2.884032e+04	1.865917e+00,	3.784131e-04	
147	2.951209e+04	1.865917e+00,	3.872274e-04	
148	3.019952e+04	1.865917e+00,	3.962471e-04	
149	3.090295e+04	1.865917e+00,	4.054769e-04	
150	3.162278e+04	1.865917e+00,	4.149217e-04	
151	3.235937e+04	1.865917e+00,	4.245864e-04	
152	3.311311e+04	1.865917e+00,	4.344763e-04	
153	3.388442e+04	1.865917e+00,	4.445966e-04	
154	3.467369e+04	1.865917e+00,	4.549525e-04	
155	3.548134e+04	1.865917e+00,	4.655498e-04	
156	3.630781e+04	1.865917e+00,	4.763938e-04	
157	3.715352e+04	1.865917e+00,	4.874904e-04	
158	3.801894e+04	1.865917e+00,	4.988455e-04	
159	3.890451e+04	1.865917e+00,	5.104651e-04	
160	3.981072e+04	1.865917e+00,	5.223554e-04	
161	4.073803e+04	1.865917e+00,	5.345226e-04	
162	4.168694e+04	1.865917e+00,	5.469732e-04	
163	4.265795e+04	1.865917e+00,	5.597139e-04	
164	4.365158e+04	1.865917e+00,	5.727513e-04	
165	4.466836e+04	1.865917e+00,	5.860924e-04	
166	4.570882e+04	1.865917e+00,	5.997442e-04	
167	4.677351e+04	1.865917e+00,	6.137141e-04	
168	4.786301e+04	1.865917e+00,	6.280093e-04	
169	4.897788e+04	1.865917e+00,	6.426375e-04	
170	5.011872e+04	1.865917e+00,	6.576064e-04	

Index   frequency       vop                             
--------------------------------------------------------------------------------
171	5.128614e+04	1.865918e+00,	6.729241e-04	
172	5.248075e+04	1.865918e+00,	6.885985e-04	
173	5.370318e+04	1.865918e+00,	7.046380e-04	
174	5.495409e+04	1.865918e+00,	7.210511e-04	
175	5.623413e+04	1.865918e+00,	7.378465e-04	
176	5.754399e+04	1.865918e+00,	7.550332e-04	
177	5.888437e+04	1.865918e+00,	7.726202e-04	
178	6.025596e+04	1.865918e+00,	7.906168e-04	
179	6.165950e+04	1.865918e+00,	8.090326e-04	
180	6.309573e+04	1.865918e+00,	8.278774e-04	
181	6.456542e+04	1.865918e+00,	8.471611e-04	
182	6.606934e+04	1.865918e+00,	8.668940e-04	
183	6.760830e+04	1.865918e+00,	8.870866e-04	
184	6.918310e+04	1.865918e+00,	9.077495e-04	
185	7.079458e+04	1.865918e+00,	9.288937e-04	
186	7.244360e+04	1.865918e+00,	9.505303e-04	
187	7.413102e+04	1.865918e+00,	9.726710e-04	
188	7.585776e+04	1.865918e+00,	9.953274e-04	
189	7.762471e+04	1.865918e+00,	1.018512e-03	
190	7.943282e+04	1.865918e+00,	1.042236e-03	
191	8.128305e+04	1.865918e+00,	1.066513e-03	
192	8.317638e+04	1.865918e+00,	1.091355e-03	
193	8.511380e+04	1.865918e+00,	1.116776e-03	
194	8.709636e+04	1.865918e+00,	1.142789e-03	
195	8.912509e+04	1.865918e+00,	1.169408e-03	
196	9.120108e+04	1.865918e+00,	1.196647e-03	
197	9.332543e+04	1.865918e+00,	1.224520e-03	
198	9.549926e+04	1.865918e+00,	1.253043e-03	
199	9.772372e+04	1.865918e+00,	1.282230e-03	
200	1.000000e+05	1.865918e+00,	1.312097e-03	
201	1.023293e+05	1.865918e+00,	1.342659e-03	
202	1.047129e+05	1.865918e+00,	1.373934e-03	
203	1.071519e+05	1.865919e+00,	1.405937e-03	
204	1.096478e+05	1.865919e+00,	1.438685e-03	
205	1.122018e+05	1.865919e+00,	1.472197e-03	
206	1.148154e+05	1.865919e+00,	1.506488e-03	
207	1.174898e+05	1.865919e+00,	1.541579e-03	
208	1.202264e+05	1.865919e+00,	1.577487e-03	
209	1.230269e+05	1.865919e+00,	1.614231e-03	
210	1.258925e+05	1.865919e+00,	1.651831e-03	
211	1.288250e+05	1.865919e+00,	1.690307e-03	
212	1.318257e+05	1.865919e+00,	1.729680e-03	
213	1.348963e+05	1.865919e+00,	1.769969e-03	
214	1.380384e+05	1.865919e+00,	1.811197e-03	
215	1.412538e+05	1.865919e+00,	1.853385e-03	
216	1.445440e+05	1.865920e+00,	1.896555e-03	
217	1.479108e+05	1.865920e+00,	1.940732e-03	
218	1.513561e+05	1.865920e+00,	1.985937e-03	
219	1.548817e+05	1.865920e+00,	2.032195e-03	
220	1.584893e+05	1.865920e+00,	2.079531e-03	
221	1.621810e+05	1.865920e+00,	2.127970e-03	
222	1.659587e+05	1.865920e+00,	2.177536e-03	
223	1.698244e+05	1.865920e+00,	2.228257e-03	
224	1.737801e+05	1.865921e+00,	2.280160e-03	
225	1.778279e+05	1.865921e+00,	2.333271e-03	
226	1.819701e+05	1.865921e+00,	2.387620e-03	
227	1.862087e+05	1.865921e+00,	2.443235e-03	
228	1.905461e+05	1.865921e+00,	2.500145e-03	

Index   frequency       vop                             
--------------------------------------------------------------------------------
229	1.949845e+05	1.865922e+00,	2.558380e-03	
230	1.995262e+05	1.865922e+00,	2.617972e-03	
231	2.041738e+05	1.865922e+00,	2.678952e-03	
232	2.089296e+05	1.865922e+00,	2.741353e-03	
233	2.137962e+05	1.865922e+00,	2.805207e-03	
234	2.187762e+05	1.865923e+00,	2.870548e-03	
235	2.238721e+05	1.865923e+00,	2.937411e-03	
236	2.290868e+05	1.865923e+00,	3.005832e-03	
237	2.344229e+05	1.865923e+00,	3.075846e-03	
238	2.398833e+05	1.865924e+00,	3.147491e-03	
239	2.454709e+05	1.865924e+00,	3.220805e-03	
240	2.511886e+05	1.865924e+00,	3.295827e-03	
241	2.570396e+05	1.865925e+00,	3.372596e-03	
242	2.630268e+05	1.865925e+00,	3.451153e-03	
243	2.691535e+05	1.865925e+00,	3.531540e-03	
244	2.754229e+05	1.865926e+00,	3.613799e-03	
245	2.818383e+05	1.865926e+00,	3.697975e-03	
246	2.884032e+05	1.865927e+00,	3.784111e-03	
247	2.951209e+05	1.865927e+00,	3.872253e-03	
248	3.019952e+05	1.865928e+00,	3.962448e-03	
249	3.090295e+05	1.865928e+00,	4.054745e-03	
250	3.162278e+05	1.865929e+00,	4.149190e-03	
251	3.235937e+05	1.865929e+00,	4.245836e-03	
252	3.311311e+05	1.865930e+00,	4.344733e-03	
253	3.388442e+05	1.865930e+00,	4.445934e-03	
254	3.467369e+05	1.865931e+00,	4.549491e-03	
255	3.548134e+05	1.865932e+00,	4.655461e-03	
256	3.630781e+05	1.865932e+00,	4.763898e-03	
257	3.715352e+05	1.865933e+00,	4.874862e-03	
258	3.801894e+05	1.865934e+00,	4.988410e-03	
259	3.890451e+05	1.865934e+00,	5.104603e-03	
260	3.981072e+05	1.865935e+00,	5.223502e-03	
261	4.073803e+05	1.865936e+00,	5.345170e-03	
262	4.168694e+05	1.865937e+00,	5.469673e-03	
263	4.265795e+05	1.865938e+00,	5.597075e-03	
264	4.365158e+05	1.865939e+00,	5.727444e-03	
265	4.466836e+05	1.865940e+00,	5.860850e-03	
266	4.570882e+05	1.865941e+00,	5.997363e-03	
267	4.677351e+05	1.865942e+00,	6.137056e-03	
268	4.786301e+05	1.865943e+00,	6.280002e-03	
269	4.897788e+05	1.865944e+00,	6.426278e-03	
270	5.011872e+05	1.865946e+00,	6.575961e-03	
271	5.128614e+05	1.865947e+00,	6.729129e-03	
272	5.248075e+05	1.865949e+00,	6.885865e-03	
273	5.370318e+05	1.865950e+00,	7.046252e-03	
274	5.495409e+05	1.865952e+00,	7.210374e-03	
275	5.623413e+05	1.865953e+00,	7.378319e-03	
276	5.754399e+05	1.865955e+00,	7.550175e-03	
277	5.888437e+05	1.865957e+00,	7.726033e-03	
278	6.025596e+05	1.865958e+00,	7.905987e-03	
279	6.165950e+05	1.865960e+00,	8.090133e-03	
280	6.309573e+05	1.865962e+00,	8.278567e-03	
281	6.456542e+05	1.865965e+00,	8.471389e-03	
282	6.606934e+05	1.865967e+00,	8.668702e-03	
283	6.760830e+05	1.865969e+00,	8.870611e-03	
284	6.918310e+05	1.865972e+00,	9.077221e-03	
285	7.079458e+05	1.865974e+00,	9.288644e-03	
286	7.244360e+05	1.865977e+00,	9.504990e-03	

Index   frequency       vop                             
--------------------------------------------------------------------------------
287	7.413102e+05	1.865980e+00,	9.726374e-03	
288	7.585776e+05	1.865983e+00,	9.952914e-03	
289	7.762471e+05	1.865986e+00,	1.018473e-02	
290	7.943282e+05	1.865989e+00,	1.042194e-02	
291	8.128305e+05	1.865992e+00,	1.066468e-02	
292	8.317638e+05	1.865996e+00,	1.091307e-02	
293	8.511380e+05	1.866000e+00,	1.116725e-02	
294	8.709636e+05	1.866003e+00,	1.142734e-02	
295	8.912509e+05	1.866008e+00,	1.169349e-02	
296	9.120108e+05	1.866012e+00,	1.196584e-02	
297	9.332543e+05	1.866016e+00,	1.224453e-02	
298	9.549926e+05	1.866021e+00,	1.252971e-02	
299	9.772372e+05	1.866026e+00,	1.282153e-02	
300	1.000000e+06	1.866031e+00,	1.312014e-02	
301	1.023293e+06	1.866036e+00,	1.342571e-02	
302	1.047129e+06	1.866042e+00,	1.373839e-02	
303	1.071519e+06	1.866048e+00,	1.405835e-02	
304	1.096478e+06	1.866054e+00,	1.438576e-02	
305	1.122018e+06	1.866060e+00,	1.472080e-02	
306	1.148154e+06	1.866067e+00,	1.506363e-02	
307	1.174898e+06	1.866074e+00,	1.541445e-02	
308	1.202264e+06	1.866082e+00,	1.577343e-02	
309	1.230269e+06	1.866089e+00,	1.614077e-02	
310	1.258925e+06	1.866097e+00,	1.651667e-02	
311	1.288250e+06	1.866106e+00,	1.690131e-02	
312	1.318257e+06	1.866115e+00,	1.729490e-02	
313	1.348963e+06	1.866124e+00,	1.769766e-02	
314	1.380384e+06	1.866134e+00,	1.810979e-02	
315	1.412538e+06	1.866144e+00,	1.853152e-02	
316	1.445440e+06	1.866155e+00,	1.896306e-02	
317	1.479108e+06	1.866166e+00,	1.940465e-02	
318	1.513561e+06	1.866178e+00,	1.985651e-02	
319	1.548817e+06	1.866190e+00,	2.031889e-02	
320	1.584893e+06	1.866203e+00,	2.079202e-02	
321	1.621810e+06	1.866216e+00,	2.127617e-02	
322	1.659587e+06	1.866230e+00,	2.177159e-02	
323	1.698244e+06	1.866245e+00,	2.227853e-02	
324	1.737801e+06	1.866260e+00,	2.279727e-02	
325	1.778279e+06	1.866277e+00,	2.332807e-02	
326	1.819701e+06	1.866294e+00,	2.387123e-02	
327	1.862087e+06	1.866311e+00,	2.442702e-02	
328	1.905461e+06	1.866330e+00,	2.499573e-02	
329	1.949845e+06	1.866349e+00,	2.557768e-02	
330	1.995262e+06	1.866370e+00,	2.617316e-02	
331	2.041738e+06	1.866391e+00,	2.678250e-02	
332	2.089296e+06	1.866413e+00,	2.740600e-02	
333	2.137962e+06	1.866437e+00,	2.804400e-02	
334	2.187762e+06	1.866461e+00,	2.869684e-02	
335	2.238721e+06	1.866487e+00,	2.936485e-02	
336	2.290868e+06	1.866514e+00,	3.004839e-02	
337	2.344229e+06	1.866542e+00,	3.074783e-02	
338	2.398833e+06	1.866571e+00,	3.146352e-02	
339	2.454709e+06	1.866602e+00,	3.219584e-02	
340	2.511886e+06	1.866634e+00,	3.294519e-02	
341	2.570396e+06	1.866668e+00,	3.371194e-02	
342	2.630268e+06	1.866703e+00,	3.449651e-02	
343	2.691535e+06	1.866740e+00,	3.529930e-02	
344	2.754229e+06	1.866779e+00,	3.612075e-02	

Index   frequency       vop                             
--------------------------------------------------------------------------------
345	2.818383e+06	1.866820e+00,	3.696127e-02	
346	2.884032e+06	1.866862e+00,	3.782131e-02	
347	2.951209e+06	1.866907e+00,	3.870131e-02	
348	3.019952e+06	1.866953e+00,	3.960175e-02	
349	3.090295e+06	1.867002e+00,	4.052309e-02	
350	3.162278e+06	1.867053e+00,	4.146580e-02	
351	3.235937e+06	1.867107e+00,	4.243040e-02	
352	3.311311e+06	1.867163e+00,	4.341736e-02	
353	3.388442e+06	1.867222e+00,	4.442723e-02	
354	3.467369e+06	1.867283e+00,	4.546051e-02	
355	3.548134e+06	1.867347e+00,	4.651774e-02	
356	3.630781e+06	1.867415e+00,	4.759948e-02	
357	3.715352e+06	1.867485e+00,	4.870630e-02	
358	3.801894e+06	1.867559e+00,	4.983875e-02	
359	3.890451e+06	1.867636e+00,	5.099744e-02	
360	3.981072e+06	1.867717e+00,	5.218295e-02	
361	4.073803e+06	1.867802e+00,	5.339592e-02	
362	4.168694e+06	1.867891e+00,	5.463695e-02	
363	4.265795e+06	1.867984e+00,	5.590670e-02	
364	4.365158e+06	1.868081e+00,	5.720582e-02	
365	4.466836e+06	1.868183e+00,	5.853497e-02	
366	4.570882e+06	1.868290e+00,	5.989485e-02	
367	4.677351e+06	1.868401e+00,	6.128614e-02	
368	4.786301e+06	1.868518e+00,	6.270957e-02	
369	4.897788e+06	1.868641e+00,	6.416587e-02	
370	5.011872e+06	1.868769e+00,	6.565577e-02	
371	5.128614e+06	1.868903e+00,	6.718003e-02	
372	5.248075e+06	1.869044e+00,	6.873944e-02	
373	5.370318e+06	1.869191e+00,	7.033479e-02	
374	5.495409e+06	1.869345e+00,	7.196688e-02	
375	5.623413e+06	1.869506e+00,	7.363655e-02	
376	5.754399e+06	1.869675e+00,	7.534463e-02	
377	5.888437e+06	1.869852e+00,	7.709199e-02	
378	6.025596e+06	1.870037e+00,	7.887951e-02	
379	6.165950e+06	1.870231e+00,	8.070808e-02	
380	6.309573e+06	1.870434e+00,	8.257861e-02	
381	6.456542e+06	1.870646e+00,	8.449205e-02	
382	6.606934e+06	1.870868e+00,	8.644933e-02	
383	6.760830e+06	1.871101e+00,	8.845144e-02	
384	6.918310e+06	1.871345e+00,	9.049936e-02	
385	7.079458e+06	1.871600e+00,	9.259410e-02	
386	7.244360e+06	1.871867e+00,	9.473668e-02	
387	7.413102e+06	1.872147e+00,	9.692816e-02	
388	7.585776e+06	1.872439e+00,	9.916960e-02	
389	7.762471e+06	1.872746e+00,	1.014621e-01	
390	7.943282e+06	1.873067e+00,	1.038067e-01	
391	8.128305e+06	1.873402e+00,	1.062047e-01	
392	8.317638e+06	1.873754e+00,	1.086570e-01	
393	8.511380e+06	1.874122e+00,	1.111649e-01	
394	8.709636e+06	1.874507e+00,	1.137297e-01	
395	8.912509e+06	1.874910e+00,	1.163524e-01	
396	9.120108e+06	1.875332e+00,	1.190343e-01	
397	9.332543e+06	1.875774e+00,	1.217767e-01	
398	9.549926e+06	1.876237e+00,	1.245808e-01	
399	9.772372e+06	1.876720e+00,	1.274479e-01	
400	1.000000e+07	1.877227e+00,	1.303793e-01	
401	1.023293e+07	1.877757e+00,	1.333764e-01	
402	1.047129e+07	1.878312e+00,	1.364404e-01	

Index   frequency       vop                             
--------------------------------------------------------------------------------
403	1.071519e+07	1.878893e+00,	1.395728e-01	
404	1.096478e+07	1.879501e+00,	1.427749e-01	
405	1.122018e+07	1.880137e+00,	1.460481e-01	
406	1.148154e+07	1.880802e+00,	1.493938e-01	
407	1.174898e+07	1.881499e+00,	1.528135e-01	
408	1.202264e+07	1.882228e+00,	1.563085e-01	
409	1.230269e+07	1.882991e+00,	1.598804e-01	
410	1.258925e+07	1.883789e+00,	1.635306e-01	
411	1.288250e+07	1.884624e+00,	1.672606e-01	
412	1.318257e+07	1.885498e+00,	1.710719e-01	
413	1.348963e+07	1.886412e+00,	1.749659e-01	
414	1.380384e+07	1.887368e+00,	1.789443e-01	
415	1.412538e+07	1.888369e+00,	1.830084e-01	
416	1.445440e+07	1.889416e+00,	1.871599e-01	
