** sch_path: /home/andylithia/openmpw/project-reisen-chip1/xschem/ota_wideband.sch
AC Analysis  Sun Oct 30 17:11:03  2022
--------------------------------------------------------------------------------
Index   frequency       vop                             
--------------------------------------------------------------------------------
0	1.000000e+03	3.060190e+00,	1.964166e-07	
1	1.023293e+03	3.060190e+00,	2.009918e-07	
2	1.047129e+03	3.060190e+00,	2.056735e-07	
3	1.071519e+03	3.060190e+00,	2.104642e-07	
4	1.096478e+03	3.060190e+00,	2.153666e-07	
5	1.122018e+03	3.060190e+00,	2.203831e-07	
6	1.148154e+03	3.060190e+00,	2.255165e-07	
7	1.174898e+03	3.060190e+00,	2.307694e-07	
8	1.202264e+03	3.060190e+00,	2.361447e-07	
9	1.230269e+03	3.060190e+00,	2.416453e-07	
10	1.258925e+03	3.060190e+00,	2.472739e-07	
11	1.288250e+03	3.060190e+00,	2.530336e-07	
12	1.318257e+03	3.060190e+00,	2.589276e-07	
13	1.348963e+03	3.060190e+00,	2.649588e-07	
14	1.380384e+03	3.060190e+00,	2.711304e-07	
15	1.412538e+03	3.060190e+00,	2.774459e-07	
16	1.445440e+03	3.060190e+00,	2.839084e-07	
17	1.479108e+03	3.060190e+00,	2.905215e-07	
18	1.513561e+03	3.060190e+00,	2.972886e-07	
19	1.548817e+03	3.060190e+00,	3.042134e-07	
20	1.584893e+03	3.060190e+00,	3.112994e-07	
21	1.621810e+03	3.060190e+00,	3.185505e-07	
22	1.659587e+03	3.060190e+00,	3.259705e-07	
23	1.698244e+03	3.060190e+00,	3.335633e-07	
24	1.737801e+03	3.060190e+00,	3.413330e-07	
25	1.778279e+03	3.060190e+00,	3.492837e-07	
26	1.819701e+03	3.060190e+00,	3.574195e-07	
27	1.862087e+03	3.060190e+00,	3.657449e-07	
28	1.905461e+03	3.060190e+00,	3.742642e-07	
29	1.949845e+03	3.060190e+00,	3.829819e-07	
30	1.995262e+03	3.060190e+00,	3.919027e-07	
31	2.041738e+03	3.060190e+00,	4.010313e-07	
32	2.089296e+03	3.060190e+00,	4.103725e-07	
33	2.137962e+03	3.060190e+00,	4.199313e-07	
34	2.187762e+03	3.060190e+00,	4.297128e-07	
35	2.238721e+03	3.060190e+00,	4.397221e-07	
36	2.290868e+03	3.060190e+00,	4.499645e-07	
37	2.344229e+03	3.060190e+00,	4.604455e-07	
38	2.398833e+03	3.060190e+00,	4.711707e-07	
39	2.454709e+03	3.060190e+00,	4.821457e-07	
40	2.511886e+03	3.060190e+00,	4.933763e-07	
41	2.570396e+03	3.060190e+00,	5.048685e-07	
42	2.630268e+03	3.060190e+00,	5.166284e-07	
43	2.691535e+03	3.060190e+00,	5.286622e-07	
44	2.754229e+03	3.060190e+00,	5.409764e-07	
45	2.818383e+03	3.060190e+00,	5.535773e-07	
46	2.884032e+03	3.060190e+00,	5.664718e-07	
47	2.951209e+03	3.060190e+00,	5.796666e-07	
48	3.019952e+03	3.060190e+00,	5.931688e-07	
49	3.090295e+03	3.060190e+00,	6.069854e-07	
50	3.162278e+03	3.060190e+00,	6.211240e-07	
51	3.235937e+03	3.060190e+00,	6.355918e-07	
52	3.311311e+03	3.060190e+00,	6.503966e-07	
53	3.388442e+03	3.060190e+00,	6.655463e-07	
54	3.467369e+03	3.060190e+00,	6.810489e-07	

Index   frequency       vop                             
--------------------------------------------------------------------------------
55	3.548134e+03	3.060190e+00,	6.969125e-07	
56	3.630781e+03	3.060190e+00,	7.131457e-07	
57	3.715352e+03	3.060190e+00,	7.297570e-07	
58	3.801894e+03	3.060190e+00,	7.467552e-07	
59	3.890451e+03	3.060190e+00,	7.641494e-07	
60	3.981072e+03	3.060190e+00,	7.819487e-07	
61	4.073803e+03	3.060190e+00,	8.001627e-07	
62	4.168694e+03	3.060190e+00,	8.188008e-07	
63	4.265795e+03	3.060190e+00,	8.378732e-07	
64	4.365158e+03	3.060190e+00,	8.573897e-07	
65	4.466836e+03	3.060190e+00,	8.773609e-07	
66	4.570882e+03	3.060190e+00,	8.977973e-07	
67	4.677351e+03	3.060190e+00,	9.187097e-07	
68	4.786301e+03	3.060190e+00,	9.401091e-07	
69	4.897788e+03	3.060190e+00,	9.620071e-07	
70	5.011872e+03	3.060190e+00,	9.844151e-07	
71	5.128614e+03	3.060190e+00,	1.007345e-06	
72	5.248075e+03	3.060190e+00,	1.030809e-06	
73	5.370318e+03	3.060190e+00,	1.054820e-06	
74	5.495409e+03	3.060190e+00,	1.079390e-06	
75	5.623413e+03	3.060190e+00,	1.104532e-06	
76	5.754399e+03	3.060190e+00,	1.130260e-06	
77	5.888437e+03	3.060190e+00,	1.156587e-06	
78	6.025596e+03	3.060190e+00,	1.183527e-06	
79	6.165950e+03	3.060190e+00,	1.211095e-06	
80	6.309573e+03	3.060190e+00,	1.239305e-06	
81	6.456542e+03	3.060190e+00,	1.268172e-06	
82	6.606934e+03	3.060190e+00,	1.297712e-06	
83	6.760830e+03	3.060190e+00,	1.327939e-06	
84	6.918310e+03	3.060190e+00,	1.358871e-06	
85	7.079458e+03	3.060190e+00,	1.390523e-06	
86	7.244360e+03	3.060190e+00,	1.422913e-06	
87	7.413102e+03	3.060190e+00,	1.456057e-06	
88	7.585776e+03	3.060190e+00,	1.489973e-06	
89	7.762471e+03	3.060190e+00,	1.524679e-06	
90	7.943282e+03	3.060190e+00,	1.560193e-06	
91	8.128305e+03	3.060190e+00,	1.596534e-06	
92	8.317638e+03	3.060190e+00,	1.633722e-06	
93	8.511380e+03	3.060190e+00,	1.671777e-06	
94	8.709636e+03	3.060190e+00,	1.710717e-06	
95	8.912509e+03	3.060190e+00,	1.750565e-06	
96	9.120108e+03	3.060190e+00,	1.791341e-06	
97	9.332543e+03	3.060190e+00,	1.833067e-06	
98	9.549926e+03	3.060190e+00,	1.875764e-06	
99	9.772372e+03	3.060190e+00,	1.919457e-06	
100	1.000000e+04	3.060190e+00,	1.964166e-06	
101	1.023293e+04	3.060190e+00,	2.009918e-06	
102	1.047129e+04	3.060190e+00,	2.056735e-06	
103	1.071519e+04	3.060190e+00,	2.104642e-06	
104	1.096478e+04	3.060190e+00,	2.153666e-06	
105	1.122018e+04	3.060190e+00,	2.203831e-06	
106	1.148154e+04	3.060190e+00,	2.255165e-06	
107	1.174898e+04	3.060190e+00,	2.307694e-06	
108	1.202264e+04	3.060190e+00,	2.361447e-06	
109	1.230269e+04	3.060190e+00,	2.416453e-06	
110	1.258925e+04	3.060190e+00,	2.472739e-06	
111	1.288250e+04	3.060190e+00,	2.530336e-06	
112	1.318257e+04	3.060190e+00,	2.589276e-06	

Index   frequency       vop                             
--------------------------------------------------------------------------------
113	1.348963e+04	3.060190e+00,	2.649588e-06	
114	1.380384e+04	3.060190e+00,	2.711304e-06	
115	1.412538e+04	3.060190e+00,	2.774459e-06	
116	1.445440e+04	3.060190e+00,	2.839084e-06	
117	1.479108e+04	3.060190e+00,	2.905215e-06	
118	1.513561e+04	3.060190e+00,	2.972886e-06	
119	1.548817e+04	3.060190e+00,	3.042134e-06	
120	1.584893e+04	3.060190e+00,	3.112994e-06	
121	1.621810e+04	3.060190e+00,	3.185505e-06	
122	1.659587e+04	3.060190e+00,	3.259705e-06	
123	1.698244e+04	3.060190e+00,	3.335633e-06	
124	1.737801e+04	3.060190e+00,	3.413330e-06	
125	1.778279e+04	3.060190e+00,	3.492837e-06	
126	1.819701e+04	3.060190e+00,	3.574195e-06	
127	1.862087e+04	3.060190e+00,	3.657449e-06	
128	1.905461e+04	3.060190e+00,	3.742642e-06	
129	1.949845e+04	3.060190e+00,	3.829819e-06	
130	1.995262e+04	3.060190e+00,	3.919027e-06	
131	2.041738e+04	3.060190e+00,	4.010313e-06	
132	2.089296e+04	3.060190e+00,	4.103725e-06	
133	2.137962e+04	3.060190e+00,	4.199313e-06	
134	2.187762e+04	3.060190e+00,	4.297128e-06	
135	2.238721e+04	3.060190e+00,	4.397221e-06	
136	2.290868e+04	3.060190e+00,	4.499645e-06	
137	2.344229e+04	3.060190e+00,	4.604455e-06	
138	2.398833e+04	3.060190e+00,	4.711707e-06	
139	2.454709e+04	3.060190e+00,	4.821457e-06	
140	2.511886e+04	3.060190e+00,	4.933763e-06	
141	2.570396e+04	3.060190e+00,	5.048685e-06	
142	2.630268e+04	3.060190e+00,	5.166284e-06	
143	2.691535e+04	3.060190e+00,	5.286622e-06	
144	2.754229e+04	3.060190e+00,	5.409763e-06	
145	2.818383e+04	3.060190e+00,	5.535773e-06	
146	2.884032e+04	3.060190e+00,	5.664718e-06	
147	2.951209e+04	3.060190e+00,	5.796666e-06	
148	3.019952e+04	3.060190e+00,	5.931687e-06	
149	3.090295e+04	3.060190e+00,	6.069854e-06	
150	3.162278e+04	3.060190e+00,	6.211239e-06	
151	3.235937e+04	3.060190e+00,	6.355918e-06	
152	3.311311e+04	3.060190e+00,	6.503966e-06	
153	3.388442e+04	3.060190e+00,	6.655463e-06	
154	3.467369e+04	3.060190e+00,	6.810488e-06	
155	3.548134e+04	3.060190e+00,	6.969125e-06	
156	3.630781e+04	3.060190e+00,	7.131457e-06	
157	3.715352e+04	3.060190e+00,	7.297570e-06	
158	3.801894e+04	3.060190e+00,	7.467552e-06	
159	3.890451e+04	3.060190e+00,	7.641494e-06	
160	3.981072e+04	3.060190e+00,	7.819487e-06	
161	4.073803e+04	3.060190e+00,	8.001626e-06	
162	4.168694e+04	3.060190e+00,	8.188008e-06	
163	4.265795e+04	3.060190e+00,	8.378731e-06	
164	4.365158e+04	3.060190e+00,	8.573897e-06	
165	4.466836e+04	3.060190e+00,	8.773608e-06	
166	4.570882e+04	3.060190e+00,	8.977972e-06	
167	4.677351e+04	3.060190e+00,	9.187096e-06	
168	4.786301e+04	3.060190e+00,	9.401091e-06	
169	4.897788e+04	3.060190e+00,	9.620070e-06	
170	5.011872e+04	3.060190e+00,	9.844150e-06	

Index   frequency       vop                             
--------------------------------------------------------------------------------
171	5.128614e+04	3.060190e+00,	1.007345e-05	
172	5.248075e+04	3.060190e+00,	1.030809e-05	
173	5.370318e+04	3.060190e+00,	1.054820e-05	
174	5.495409e+04	3.060190e+00,	1.079390e-05	
175	5.623413e+04	3.060190e+00,	1.104532e-05	
176	5.754399e+04	3.060190e+00,	1.130260e-05	
177	5.888437e+04	3.060190e+00,	1.156587e-05	
178	6.025596e+04	3.060190e+00,	1.183527e-05	
179	6.165950e+04	3.060190e+00,	1.211095e-05	
180	6.309573e+04	3.060190e+00,	1.239305e-05	
181	6.456542e+04	3.060190e+00,	1.268172e-05	
182	6.606934e+04	3.060190e+00,	1.297712e-05	
183	6.760830e+04	3.060190e+00,	1.327939e-05	
184	6.918310e+04	3.060190e+00,	1.358871e-05	
185	7.079458e+04	3.060190e+00,	1.390523e-05	
186	7.244360e+04	3.060190e+00,	1.422912e-05	
187	7.413102e+04	3.060190e+00,	1.456056e-05	
188	7.585776e+04	3.060190e+00,	1.489972e-05	
189	7.762471e+04	3.060190e+00,	1.524678e-05	
190	7.943282e+04	3.060190e+00,	1.560192e-05	
191	8.128305e+04	3.060190e+00,	1.596534e-05	
192	8.317638e+04	3.060190e+00,	1.633722e-05	
193	8.511380e+04	3.060190e+00,	1.671776e-05	
194	8.709636e+04	3.060190e+00,	1.710717e-05	
195	8.912509e+04	3.060190e+00,	1.750565e-05	
196	9.120108e+04	3.060190e+00,	1.791340e-05	
197	9.332543e+04	3.060190e+00,	1.833066e-05	
198	9.549926e+04	3.060190e+00,	1.875764e-05	
199	9.772372e+04	3.060190e+00,	1.919456e-05	
200	1.000000e+05	3.060190e+00,	1.964165e-05	
201	1.023293e+05	3.060190e+00,	2.009917e-05	
202	1.047129e+05	3.060190e+00,	2.056734e-05	
203	1.071519e+05	3.060190e+00,	2.104641e-05	
204	1.096478e+05	3.060190e+00,	2.153664e-05	
205	1.122018e+05	3.060190e+00,	2.203830e-05	
206	1.148154e+05	3.060190e+00,	2.255163e-05	
207	1.174898e+05	3.060190e+00,	2.307693e-05	
208	1.202264e+05	3.060190e+00,	2.361446e-05	
209	1.230269e+05	3.060190e+00,	2.416451e-05	
210	1.258925e+05	3.060190e+00,	2.472737e-05	
211	1.288250e+05	3.060190e+00,	2.530335e-05	
212	1.318257e+05	3.060190e+00,	2.589274e-05	
213	1.348963e+05	3.060190e+00,	2.649585e-05	
214	1.380384e+05	3.060190e+00,	2.711302e-05	
215	1.412538e+05	3.060190e+00,	2.774456e-05	
216	1.445440e+05	3.060190e+00,	2.839081e-05	
217	1.479108e+05	3.060190e+00,	2.905212e-05	
218	1.513561e+05	3.060190e+00,	2.972883e-05	
219	1.548817e+05	3.060190e+00,	3.042130e-05	
220	1.584893e+05	3.060190e+00,	3.112990e-05	
221	1.621810e+05	3.060190e+00,	3.185501e-05	
222	1.659587e+05	3.060190e+00,	3.259701e-05	
223	1.698244e+05	3.060190e+00,	3.335629e-05	
224	1.737801e+05	3.060190e+00,	3.413325e-05	
225	1.778279e+05	3.060190e+00,	3.492832e-05	
226	1.819701e+05	3.060190e+00,	3.574190e-05	
227	1.862087e+05	3.060190e+00,	3.657443e-05	
228	1.905461e+05	3.060190e+00,	3.742636e-05	

Index   frequency       vop                             
--------------------------------------------------------------------------------
229	1.949845e+05	3.060190e+00,	3.829812e-05	
230	1.995262e+05	3.060190e+00,	3.919020e-05	
231	2.041738e+05	3.060190e+00,	4.010305e-05	
232	2.089296e+05	3.060190e+00,	4.103717e-05	
233	2.137962e+05	3.060190e+00,	4.199304e-05	
234	2.187762e+05	3.060190e+00,	4.297118e-05	
235	2.238721e+05	3.060190e+00,	4.397211e-05	
236	2.290868e+05	3.060190e+00,	4.499634e-05	
237	2.344229e+05	3.060190e+00,	4.604444e-05	
238	2.398833e+05	3.060190e+00,	4.711694e-05	
239	2.454709e+05	3.060190e+00,	4.821443e-05	
240	2.511886e+05	3.060190e+00,	4.933748e-05	
241	2.570396e+05	3.060190e+00,	5.048669e-05	
242	2.630268e+05	3.060190e+00,	5.166267e-05	
243	2.691535e+05	3.060190e+00,	5.286604e-05	
244	2.754229e+05	3.060191e+00,	5.409744e-05	
245	2.818383e+05	3.060191e+00,	5.535753e-05	
246	2.884032e+05	3.060191e+00,	5.664696e-05	
247	2.951209e+05	3.060191e+00,	5.796642e-05	
248	3.019952e+05	3.060191e+00,	5.931662e-05	
249	3.090295e+05	3.060191e+00,	6.069827e-05	
250	3.162278e+05	3.060191e+00,	6.211211e-05	
251	3.235937e+05	3.060191e+00,	6.355887e-05	
252	3.311311e+05	3.060191e+00,	6.503933e-05	
253	3.388442e+05	3.060191e+00,	6.655427e-05	
254	3.467369e+05	3.060191e+00,	6.810450e-05	
255	3.548134e+05	3.060191e+00,	6.969084e-05	
256	3.630781e+05	3.060191e+00,	7.131413e-05	
257	3.715352e+05	3.060191e+00,	7.297523e-05	
258	3.801894e+05	3.060191e+00,	7.467502e-05	
259	3.890451e+05	3.060191e+00,	7.641440e-05	
260	3.981072e+05	3.060191e+00,	7.819429e-05	
261	4.073803e+05	3.060191e+00,	8.001565e-05	
262	4.168694e+05	3.060191e+00,	8.187942e-05	
263	4.265795e+05	3.060191e+00,	8.378660e-05	
264	4.365158e+05	3.060191e+00,	8.573821e-05	
265	4.466836e+05	3.060191e+00,	8.773527e-05	
266	4.570882e+05	3.060191e+00,	8.977885e-05	
267	4.677351e+05	3.060191e+00,	9.187003e-05	
268	4.786301e+05	3.060191e+00,	9.400991e-05	
269	4.897788e+05	3.060191e+00,	9.619963e-05	
270	5.011872e+05	3.060192e+00,	9.844036e-05	
271	5.128614e+05	3.060192e+00,	1.007333e-04	
272	5.248075e+05	3.060192e+00,	1.030796e-04	
273	5.370318e+05	3.060192e+00,	1.054806e-04	
274	5.495409e+05	3.060192e+00,	1.079374e-04	
275	5.623413e+05	3.060192e+00,	1.104516e-04	
276	5.754399e+05	3.060192e+00,	1.130242e-04	
277	5.888437e+05	3.060192e+00,	1.156568e-04	
278	6.025596e+05	3.060192e+00,	1.183507e-04	
279	6.165950e+05	3.060192e+00,	1.211074e-04	
280	6.309573e+05	3.060192e+00,	1.239282e-04	
281	6.456542e+05	3.060192e+00,	1.268148e-04	
282	6.606934e+05	3.060193e+00,	1.297685e-04	
283	6.760830e+05	3.060193e+00,	1.327911e-04	
284	6.918310e+05	3.060193e+00,	1.358841e-04	
285	7.079458e+05	3.060193e+00,	1.390491e-04	
286	7.244360e+05	3.060193e+00,	1.422878e-04	

Index   frequency       vop                             
--------------------------------------------------------------------------------
287	7.413102e+05	3.060193e+00,	1.456019e-04	
288	7.585776e+05	3.060193e+00,	1.489933e-04	
289	7.762471e+05	3.060194e+00,	1.524636e-04	
290	7.943282e+05	3.060194e+00,	1.560147e-04	
291	8.128305e+05	3.060194e+00,	1.596485e-04	
292	8.317638e+05	3.060194e+00,	1.633670e-04	
293	8.511380e+05	3.060194e+00,	1.671720e-04	
294	8.709636e+05	3.060194e+00,	1.710657e-04	
295	8.912509e+05	3.060195e+00,	1.750500e-04	
296	9.120108e+05	3.060195e+00,	1.791271e-04	
297	9.332543e+05	3.060195e+00,	1.832992e-04	
298	9.549926e+05	3.060195e+00,	1.875684e-04	
299	9.772372e+05	3.060196e+00,	1.919371e-04	
300	1.000000e+06	3.060196e+00,	1.964075e-04	
301	1.023293e+06	3.060196e+00,	2.009819e-04	
302	1.047129e+06	3.060196e+00,	2.056629e-04	
303	1.071519e+06	3.060197e+00,	2.104529e-04	
304	1.096478e+06	3.060197e+00,	2.153545e-04	
305	1.122018e+06	3.060197e+00,	2.203701e-04	
306	1.148154e+06	3.060198e+00,	2.255026e-04	
307	1.174898e+06	3.060198e+00,	2.307545e-04	
308	1.202264e+06	3.060198e+00,	2.361288e-04	
309	1.230269e+06	3.060199e+00,	2.416282e-04	
310	1.258925e+06	3.060199e+00,	2.472556e-04	
311	1.288250e+06	3.060200e+00,	2.530140e-04	
312	1.318257e+06	3.060200e+00,	2.589065e-04	
313	1.348963e+06	3.060200e+00,	2.649362e-04	
314	1.380384e+06	3.060201e+00,	2.711063e-04	
315	1.412538e+06	3.060201e+00,	2.774200e-04	
316	1.445440e+06	3.060202e+00,	2.838807e-04	
317	1.479108e+06	3.060203e+00,	2.904918e-04	
318	1.513561e+06	3.060203e+00,	2.972568e-04	
319	1.548817e+06	3.060204e+00,	3.041792e-04	
320	1.584893e+06	3.060204e+00,	3.112628e-04	
321	1.621810e+06	3.060205e+00,	3.185113e-04	
322	1.659587e+06	3.060206e+00,	3.259285e-04	
323	1.698244e+06	3.060207e+00,	3.335183e-04	
324	1.737801e+06	3.060207e+00,	3.412848e-04	
325	1.778279e+06	3.060208e+00,	3.492320e-04	
326	1.819701e+06	3.060209e+00,	3.573642e-04	
327	1.862087e+06	3.060210e+00,	3.656856e-04	
328	1.905461e+06	3.060211e+00,	3.742006e-04	
329	1.949845e+06	3.060212e+00,	3.829138e-04	
330	1.995262e+06	3.060213e+00,	3.918297e-04	
331	2.041738e+06	3.060214e+00,	4.009531e-04	
332	2.089296e+06	3.060215e+00,	4.102887e-04	
333	2.137962e+06	3.060216e+00,	4.198415e-04	
334	2.187762e+06	3.060217e+00,	4.296165e-04	
335	2.238721e+06	3.060219e+00,	4.396189e-04	
336	2.290868e+06	3.060220e+00,	4.498540e-04	
337	2.344229e+06	3.060221e+00,	4.603271e-04	
338	2.398833e+06	3.060223e+00,	4.710438e-04	
339	2.454709e+06	3.060224e+00,	4.820097e-04	
340	2.511886e+06	3.060226e+00,	4.932305e-04	
341	2.570396e+06	3.060228e+00,	5.047123e-04	
342	2.630268e+06	3.060230e+00,	5.164610e-04	
343	2.691535e+06	3.060231e+00,	5.284828e-04	
344	2.754229e+06	3.060233e+00,	5.407841e-04	

Index   frequency       vop                             
--------------------------------------------------------------------------------
345	2.818383e+06	3.060235e+00,	5.533713e-04	
346	2.884032e+06	3.060238e+00,	5.662510e-04	
347	2.951209e+06	3.060240e+00,	5.794300e-04	
348	3.019952e+06	3.060242e+00,	5.929152e-04	
349	3.090295e+06	3.060245e+00,	6.067138e-04	
350	3.162278e+06	3.060247e+00,	6.208328e-04	
351	3.235937e+06	3.060250e+00,	6.352798e-04	
352	3.311311e+06	3.060253e+00,	6.500622e-04	
353	3.388442e+06	3.060256e+00,	6.651879e-04	
354	3.467369e+06	3.060259e+00,	6.806648e-04	
355	3.548134e+06	3.060262e+00,	6.965009e-04	
356	3.630781e+06	3.060265e+00,	7.127046e-04	
357	3.715352e+06	3.060269e+00,	7.292842e-04	
358	3.801894e+06	3.060273e+00,	7.462486e-04	
359	3.890451e+06	3.060277e+00,	7.636064e-04	
360	3.981072e+06	3.060281e+00,	7.813667e-04	
361	4.073803e+06	3.060285e+00,	7.995389e-04	
362	4.168694e+06	3.060289e+00,	8.181323e-04	
363	4.265795e+06	3.060294e+00,	8.371566e-04	
364	4.365158e+06	3.060299e+00,	8.566217e-04	
365	4.466836e+06	3.060304e+00,	8.765378e-04	
366	4.570882e+06	3.060309e+00,	8.969150e-04	
367	4.677351e+06	3.060315e+00,	9.177640e-04	
368	4.786301e+06	3.060321e+00,	9.390955e-04	
369	4.897788e+06	3.060327e+00,	9.609207e-04	
370	5.011872e+06	3.060334e+00,	9.832506e-04	
371	5.128614e+06	3.060340e+00,	1.006097e-03	
372	5.248075e+06	3.060347e+00,	1.029471e-03	
373	5.370318e+06	3.060355e+00,	1.053385e-03	
374	5.495409e+06	3.060363e+00,	1.077852e-03	
375	5.623413e+06	3.060371e+00,	1.102884e-03	
376	5.754399e+06	3.060379e+00,	1.128493e-03	
377	5.888437e+06	3.060388e+00,	1.154693e-03	
378	6.025596e+06	3.060398e+00,	1.181497e-03	
379	6.165950e+06	3.060407e+00,	1.208918e-03	
380	6.309573e+06	3.060418e+00,	1.236971e-03	
381	6.456542e+06	3.060428e+00,	1.265670e-03	
382	6.606934e+06	3.060440e+00,	1.295029e-03	
383	6.760830e+06	3.060451e+00,	1.325063e-03	
384	6.918310e+06	3.060464e+00,	1.355787e-03	
385	7.079458e+06	3.060477e+00,	1.387216e-03	
386	7.244360e+06	3.060490e+00,	1.419367e-03	
387	7.413102e+06	3.060504e+00,	1.452254e-03	
388	7.585776e+06	3.060519e+00,	1.485895e-03	
389	7.762471e+06	3.060535e+00,	1.520306e-03	
390	7.943282e+06	3.060551e+00,	1.555504e-03	
391	8.128305e+06	3.060568e+00,	1.591505e-03	
392	8.317638e+06	3.060586e+00,	1.628329e-03	
393	8.511380e+06	3.060604e+00,	1.665992e-03	
394	8.709636e+06	3.060624e+00,	1.704512e-03	
395	8.912509e+06	3.060645e+00,	1.743909e-03	
396	9.120108e+06	3.060666e+00,	1.784202e-03	
397	9.332543e+06	3.060688e+00,	1.825408e-03	
398	9.549926e+06	3.060712e+00,	1.867548e-03	
399	9.772372e+06	3.060737e+00,	1.910642e-03	
400	1.000000e+07	3.060762e+00,	1.954709e-03	
401	1.023293e+07	3.060789e+00,	1.999770e-03	
402	1.047129e+07	3.060818e+00,	2.045846e-03	

Index   frequency       vop                             
--------------------------------------------------------------------------------
403	1.071519e+07	3.060847e+00,	2.092957e-03	
404	1.096478e+07	3.060879e+00,	2.141126e-03	
405	1.122018e+07	3.060911e+00,	2.190373e-03	
406	1.148154e+07	3.060945e+00,	2.240720e-03	
407	1.174898e+07	3.060981e+00,	2.292190e-03	
408	1.202264e+07	3.061018e+00,	2.344804e-03	
409	1.230269e+07	3.061057e+00,	2.398585e-03	
410	1.258925e+07	3.061098e+00,	2.453556e-03	
411	1.288250e+07	3.061141e+00,	2.509739e-03	
412	1.318257e+07	3.061186e+00,	2.567158e-03	
413	1.348963e+07	3.061233e+00,	2.625835e-03	
414	1.380384e+07	3.061283e+00,	2.685794e-03	
415	1.412538e+07	3.061335e+00,	2.747059e-03	
416	1.445440e+07	3.061389e+00,	2.809651e-03	
