** sch_path: /home/andylithia/openmpw/project-reisen-chip1/xschem/ota_wideband.sch
AC Analysis  Sun Oct 30 17:11:03  2022
--------------------------------------------------------------------------------
Index   frequency       vop                             
--------------------------------------------------------------------------------
0	1.000000e+03	3.336625e+00,	-1.24168e-06	
1	1.023293e+03	3.336625e+00,	-1.27060e-06	
2	1.047129e+03	3.336625e+00,	-1.30020e-06	
3	1.071519e+03	3.336625e+00,	-1.33048e-06	
4	1.096478e+03	3.336625e+00,	-1.36147e-06	
5	1.122018e+03	3.336625e+00,	-1.39319e-06	
6	1.148154e+03	3.336625e+00,	-1.42564e-06	
7	1.174898e+03	3.336625e+00,	-1.45885e-06	
8	1.202264e+03	3.336625e+00,	-1.49283e-06	
9	1.230269e+03	3.336625e+00,	-1.52760e-06	
10	1.258925e+03	3.336625e+00,	-1.56318e-06	
11	1.288250e+03	3.336625e+00,	-1.59959e-06	
12	1.318257e+03	3.336625e+00,	-1.63685e-06	
13	1.348963e+03	3.336625e+00,	-1.67498e-06	
14	1.380384e+03	3.336625e+00,	-1.71399e-06	
15	1.412538e+03	3.336625e+00,	-1.75392e-06	
16	1.445440e+03	3.336625e+00,	-1.79477e-06	
17	1.479108e+03	3.336625e+00,	-1.83658e-06	
18	1.513561e+03	3.336625e+00,	-1.87936e-06	
19	1.548817e+03	3.336625e+00,	-1.92313e-06	
20	1.584893e+03	3.336625e+00,	-1.96793e-06	
21	1.621810e+03	3.336625e+00,	-2.01377e-06	
22	1.659587e+03	3.336625e+00,	-2.06068e-06	
23	1.698244e+03	3.336625e+00,	-2.10867e-06	
24	1.737801e+03	3.336625e+00,	-2.15779e-06	
25	1.778279e+03	3.336625e+00,	-2.20805e-06	
26	1.819701e+03	3.336625e+00,	-2.25949e-06	
27	1.862087e+03	3.336625e+00,	-2.31212e-06	
28	1.905461e+03	3.336625e+00,	-2.36597e-06	
29	1.949845e+03	3.336625e+00,	-2.42108e-06	
30	1.995262e+03	3.336625e+00,	-2.47748e-06	
31	2.041738e+03	3.336625e+00,	-2.53518e-06	
32	2.089296e+03	3.336625e+00,	-2.59424e-06	
33	2.137962e+03	3.336625e+00,	-2.65466e-06	
34	2.187762e+03	3.336625e+00,	-2.71650e-06	
35	2.238721e+03	3.336625e+00,	-2.77977e-06	
36	2.290868e+03	3.336625e+00,	-2.84452e-06	
37	2.344229e+03	3.336625e+00,	-2.91078e-06	
38	2.398833e+03	3.336625e+00,	-2.97858e-06	
39	2.454709e+03	3.336625e+00,	-3.04796e-06	
40	2.511886e+03	3.336625e+00,	-3.11896e-06	
41	2.570396e+03	3.336625e+00,	-3.19161e-06	
42	2.630268e+03	3.336625e+00,	-3.26595e-06	
43	2.691535e+03	3.336625e+00,	-3.34202e-06	
44	2.754229e+03	3.336625e+00,	-3.41987e-06	
45	2.818383e+03	3.336625e+00,	-3.49953e-06	
46	2.884032e+03	3.336625e+00,	-3.58104e-06	
47	2.951209e+03	3.336625e+00,	-3.66446e-06	
48	3.019952e+03	3.336625e+00,	-3.74981e-06	
49	3.090295e+03	3.336625e+00,	-3.83716e-06	
50	3.162278e+03	3.336625e+00,	-3.92654e-06	
51	3.235937e+03	3.336625e+00,	-4.01800e-06	
52	3.311311e+03	3.336625e+00,	-4.11159e-06	
53	3.388442e+03	3.336625e+00,	-4.20736e-06	
54	3.467369e+03	3.336625e+00,	-4.30536e-06	

Index   frequency       vop                             
--------------------------------------------------------------------------------
55	3.548134e+03	3.336625e+00,	-4.40565e-06	
56	3.630781e+03	3.336625e+00,	-4.50827e-06	
57	3.715352e+03	3.336625e+00,	-4.61328e-06	
58	3.801894e+03	3.336625e+00,	-4.72073e-06	
59	3.890451e+03	3.336625e+00,	-4.83069e-06	
60	3.981072e+03	3.336625e+00,	-4.94322e-06	
61	4.073803e+03	3.336625e+00,	-5.05836e-06	
62	4.168694e+03	3.336625e+00,	-5.17618e-06	
63	4.265795e+03	3.336625e+00,	-5.29675e-06	
64	4.365158e+03	3.336625e+00,	-5.42013e-06	
65	4.466836e+03	3.336625e+00,	-5.54638e-06	
66	4.570882e+03	3.336625e+00,	-5.67557e-06	
67	4.677351e+03	3.336625e+00,	-5.80777e-06	
68	4.786301e+03	3.336625e+00,	-5.94305e-06	
69	4.897788e+03	3.336625e+00,	-6.08148e-06	
70	5.011872e+03	3.336625e+00,	-6.22314e-06	
71	5.128614e+03	3.336625e+00,	-6.36809e-06	
72	5.248075e+03	3.336625e+00,	-6.51643e-06	
73	5.370318e+03	3.336625e+00,	-6.66821e-06	
74	5.495409e+03	3.336625e+00,	-6.82354e-06	
75	5.623413e+03	3.336625e+00,	-6.98248e-06	
76	5.754399e+03	3.336625e+00,	-7.14512e-06	
77	5.888437e+03	3.336625e+00,	-7.31155e-06	
78	6.025596e+03	3.336625e+00,	-7.48186e-06	
79	6.165950e+03	3.336625e+00,	-7.65613e-06	
80	6.309573e+03	3.336625e+00,	-7.83447e-06	
81	6.456542e+03	3.336625e+00,	-8.01696e-06	
82	6.606934e+03	3.336625e+00,	-8.20369e-06	
83	6.760830e+03	3.336625e+00,	-8.39478e-06	
84	6.918310e+03	3.336625e+00,	-8.59032e-06	
85	7.079458e+03	3.336625e+00,	-8.79042e-06	
86	7.244360e+03	3.336625e+00,	-8.99517e-06	
87	7.413102e+03	3.336625e+00,	-9.20470e-06	
88	7.585776e+03	3.336625e+00,	-9.41910e-06	
89	7.762471e+03	3.336625e+00,	-9.63850e-06	
90	7.943282e+03	3.336625e+00,	-9.86301e-06	
91	8.128305e+03	3.336625e+00,	-1.00927e-05	
92	8.317638e+03	3.336625e+00,	-1.03278e-05	
93	8.511380e+03	3.336625e+00,	-1.05684e-05	
94	8.709636e+03	3.336625e+00,	-1.08146e-05	
95	8.912509e+03	3.336625e+00,	-1.10665e-05	
96	9.120108e+03	3.336625e+00,	-1.13243e-05	
97	9.332543e+03	3.336625e+00,	-1.15880e-05	
98	9.549926e+03	3.336625e+00,	-1.18579e-05	
99	9.772372e+03	3.336625e+00,	-1.21342e-05	
100	1.000000e+04	3.336625e+00,	-1.24168e-05	
101	1.023293e+04	3.336625e+00,	-1.27060e-05	
102	1.047129e+04	3.336625e+00,	-1.30020e-05	
103	1.071519e+04	3.336625e+00,	-1.33048e-05	
104	1.096478e+04	3.336625e+00,	-1.36147e-05	
105	1.122018e+04	3.336625e+00,	-1.39319e-05	
106	1.148154e+04	3.336625e+00,	-1.42564e-05	
107	1.174898e+04	3.336625e+00,	-1.45885e-05	
108	1.202264e+04	3.336625e+00,	-1.49283e-05	
109	1.230269e+04	3.336625e+00,	-1.52760e-05	
110	1.258925e+04	3.336625e+00,	-1.56318e-05	
111	1.288250e+04	3.336625e+00,	-1.59959e-05	
112	1.318257e+04	3.336625e+00,	-1.63685e-05	

Index   frequency       vop                             
--------------------------------------------------------------------------------
113	1.348963e+04	3.336625e+00,	-1.67498e-05	
114	1.380384e+04	3.336625e+00,	-1.71399e-05	
115	1.412538e+04	3.336625e+00,	-1.75392e-05	
116	1.445440e+04	3.336625e+00,	-1.79477e-05	
117	1.479108e+04	3.336625e+00,	-1.83658e-05	
118	1.513561e+04	3.336625e+00,	-1.87936e-05	
119	1.548817e+04	3.336625e+00,	-1.92313e-05	
120	1.584893e+04	3.336625e+00,	-1.96793e-05	
121	1.621810e+04	3.336625e+00,	-2.01377e-05	
122	1.659587e+04	3.336625e+00,	-2.06068e-05	
123	1.698244e+04	3.336625e+00,	-2.10867e-05	
124	1.737801e+04	3.336625e+00,	-2.15779e-05	
125	1.778279e+04	3.336625e+00,	-2.20805e-05	
126	1.819701e+04	3.336625e+00,	-2.25949e-05	
127	1.862087e+04	3.336625e+00,	-2.31212e-05	
128	1.905461e+04	3.336625e+00,	-2.36597e-05	
129	1.949845e+04	3.336625e+00,	-2.42108e-05	
130	1.995262e+04	3.336625e+00,	-2.47748e-05	
131	2.041738e+04	3.336625e+00,	-2.53518e-05	
132	2.089296e+04	3.336625e+00,	-2.59424e-05	
133	2.137962e+04	3.336625e+00,	-2.65466e-05	
134	2.187762e+04	3.336625e+00,	-2.71650e-05	
135	2.238721e+04	3.336625e+00,	-2.77977e-05	
136	2.290868e+04	3.336625e+00,	-2.84452e-05	
137	2.344229e+04	3.336625e+00,	-2.91078e-05	
138	2.398833e+04	3.336625e+00,	-2.97858e-05	
139	2.454709e+04	3.336625e+00,	-3.04796e-05	
140	2.511886e+04	3.336625e+00,	-3.11896e-05	
141	2.570396e+04	3.336625e+00,	-3.19161e-05	
142	2.630268e+04	3.336625e+00,	-3.26595e-05	
143	2.691535e+04	3.336625e+00,	-3.34202e-05	
144	2.754229e+04	3.336625e+00,	-3.41987e-05	
145	2.818383e+04	3.336625e+00,	-3.49953e-05	
146	2.884032e+04	3.336625e+00,	-3.58104e-05	
147	2.951209e+04	3.336625e+00,	-3.66446e-05	
148	3.019952e+04	3.336625e+00,	-3.74981e-05	
149	3.090295e+04	3.336625e+00,	-3.83716e-05	
150	3.162278e+04	3.336625e+00,	-3.92654e-05	
151	3.235937e+04	3.336625e+00,	-4.01800e-05	
152	3.311311e+04	3.336625e+00,	-4.11159e-05	
153	3.388442e+04	3.336625e+00,	-4.20736e-05	
154	3.467369e+04	3.336625e+00,	-4.30536e-05	
155	3.548134e+04	3.336625e+00,	-4.40565e-05	
156	3.630781e+04	3.336625e+00,	-4.50827e-05	
157	3.715352e+04	3.336625e+00,	-4.61328e-05	
158	3.801894e+04	3.336625e+00,	-4.72073e-05	
159	3.890451e+04	3.336625e+00,	-4.83069e-05	
160	3.981072e+04	3.336625e+00,	-4.94322e-05	
161	4.073803e+04	3.336625e+00,	-5.05836e-05	
162	4.168694e+04	3.336625e+00,	-5.17618e-05	
163	4.265795e+04	3.336625e+00,	-5.29675e-05	
164	4.365158e+04	3.336625e+00,	-5.42013e-05	
165	4.466836e+04	3.336625e+00,	-5.54638e-05	
166	4.570882e+04	3.336625e+00,	-5.67557e-05	
167	4.677351e+04	3.336625e+00,	-5.80777e-05	
168	4.786301e+04	3.336625e+00,	-5.94305e-05	
169	4.897788e+04	3.336625e+00,	-6.08148e-05	
170	5.011872e+04	3.336625e+00,	-6.22314e-05	

Index   frequency       vop                             
--------------------------------------------------------------------------------
171	5.128614e+04	3.336625e+00,	-6.36809e-05	
172	5.248075e+04	3.336625e+00,	-6.51643e-05	
173	5.370318e+04	3.336625e+00,	-6.66821e-05	
174	5.495409e+04	3.336625e+00,	-6.82354e-05	
175	5.623413e+04	3.336625e+00,	-6.98248e-05	
176	5.754399e+04	3.336625e+00,	-7.14512e-05	
177	5.888437e+04	3.336625e+00,	-7.31155e-05	
178	6.025596e+04	3.336625e+00,	-7.48186e-05	
179	6.165950e+04	3.336625e+00,	-7.65613e-05	
180	6.309573e+04	3.336625e+00,	-7.83447e-05	
181	6.456542e+04	3.336625e+00,	-8.01696e-05	
182	6.606934e+04	3.336625e+00,	-8.20369e-05	
183	6.760830e+04	3.336625e+00,	-8.39478e-05	
184	6.918310e+04	3.336625e+00,	-8.59032e-05	
185	7.079458e+04	3.336625e+00,	-8.79042e-05	
186	7.244360e+04	3.336625e+00,	-8.99517e-05	
187	7.413102e+04	3.336625e+00,	-9.20470e-05	
188	7.585776e+04	3.336625e+00,	-9.41910e-05	
189	7.762471e+04	3.336625e+00,	-9.63850e-05	
190	7.943282e+04	3.336625e+00,	-9.86301e-05	
191	8.128305e+04	3.336625e+00,	-1.00927e-04	
192	8.317638e+04	3.336625e+00,	-1.03278e-04	
193	8.511380e+04	3.336625e+00,	-1.05684e-04	
194	8.709636e+04	3.336625e+00,	-1.08146e-04	
195	8.912509e+04	3.336625e+00,	-1.10665e-04	
196	9.120108e+04	3.336625e+00,	-1.13243e-04	
197	9.332543e+04	3.336625e+00,	-1.15880e-04	
198	9.549926e+04	3.336625e+00,	-1.18579e-04	
199	9.772372e+04	3.336625e+00,	-1.21342e-04	
200	1.000000e+05	3.336625e+00,	-1.24168e-04	
201	1.023293e+05	3.336625e+00,	-1.27060e-04	
202	1.047129e+05	3.336625e+00,	-1.30020e-04	
203	1.071519e+05	3.336625e+00,	-1.33048e-04	
204	1.096478e+05	3.336625e+00,	-1.36147e-04	
205	1.122018e+05	3.336625e+00,	-1.39319e-04	
206	1.148154e+05	3.336625e+00,	-1.42564e-04	
207	1.174898e+05	3.336625e+00,	-1.45885e-04	
208	1.202264e+05	3.336625e+00,	-1.49283e-04	
209	1.230269e+05	3.336625e+00,	-1.52760e-04	
210	1.258925e+05	3.336625e+00,	-1.56318e-04	
211	1.288250e+05	3.336625e+00,	-1.59959e-04	
212	1.318257e+05	3.336625e+00,	-1.63685e-04	
213	1.348963e+05	3.336625e+00,	-1.67498e-04	
214	1.380384e+05	3.336625e+00,	-1.71399e-04	
215	1.412538e+05	3.336625e+00,	-1.75392e-04	
216	1.445440e+05	3.336625e+00,	-1.79477e-04	
217	1.479108e+05	3.336625e+00,	-1.83658e-04	
218	1.513561e+05	3.336625e+00,	-1.87936e-04	
219	1.548817e+05	3.336625e+00,	-1.92313e-04	
220	1.584893e+05	3.336625e+00,	-1.96793e-04	
221	1.621810e+05	3.336625e+00,	-2.01377e-04	
222	1.659587e+05	3.336625e+00,	-2.06067e-04	
223	1.698244e+05	3.336625e+00,	-2.10867e-04	
224	1.737801e+05	3.336625e+00,	-2.15779e-04	
225	1.778279e+05	3.336625e+00,	-2.20805e-04	
226	1.819701e+05	3.336625e+00,	-2.25948e-04	
227	1.862087e+05	3.336625e+00,	-2.31212e-04	
228	1.905461e+05	3.336625e+00,	-2.36597e-04	

Index   frequency       vop                             
--------------------------------------------------------------------------------
229	1.949845e+05	3.336625e+00,	-2.42108e-04	
230	1.995262e+05	3.336625e+00,	-2.47748e-04	
231	2.041738e+05	3.336625e+00,	-2.53518e-04	
232	2.089296e+05	3.336625e+00,	-2.59424e-04	
233	2.137962e+05	3.336625e+00,	-2.65466e-04	
234	2.187762e+05	3.336625e+00,	-2.71650e-04	
235	2.238721e+05	3.336625e+00,	-2.77977e-04	
236	2.290868e+05	3.336625e+00,	-2.84452e-04	
237	2.344229e+05	3.336625e+00,	-2.91078e-04	
238	2.398833e+05	3.336625e+00,	-2.97858e-04	
239	2.454709e+05	3.336625e+00,	-3.04796e-04	
240	2.511886e+05	3.336625e+00,	-3.11896e-04	
241	2.570396e+05	3.336625e+00,	-3.19161e-04	
242	2.630268e+05	3.336625e+00,	-3.26595e-04	
243	2.691535e+05	3.336625e+00,	-3.34202e-04	
244	2.754229e+05	3.336625e+00,	-3.41987e-04	
245	2.818383e+05	3.336625e+00,	-3.49953e-04	
246	2.884032e+05	3.336625e+00,	-3.58104e-04	
247	2.951209e+05	3.336625e+00,	-3.66445e-04	
248	3.019952e+05	3.336625e+00,	-3.74981e-04	
249	3.090295e+05	3.336625e+00,	-3.83716e-04	
250	3.162278e+05	3.336625e+00,	-3.92653e-04	
251	3.235937e+05	3.336625e+00,	-4.01799e-04	
252	3.311311e+05	3.336625e+00,	-4.11159e-04	
253	3.388442e+05	3.336625e+00,	-4.20736e-04	
254	3.467369e+05	3.336625e+00,	-4.30536e-04	
255	3.548134e+05	3.336625e+00,	-4.40564e-04	
256	3.630781e+05	3.336625e+00,	-4.50826e-04	
257	3.715352e+05	3.336625e+00,	-4.61327e-04	
258	3.801894e+05	3.336625e+00,	-4.72073e-04	
259	3.890451e+05	3.336625e+00,	-4.83069e-04	
260	3.981072e+05	3.336625e+00,	-4.94321e-04	
261	4.073803e+05	3.336625e+00,	-5.05835e-04	
262	4.168694e+05	3.336625e+00,	-5.17618e-04	
263	4.265795e+05	3.336625e+00,	-5.29675e-04	
264	4.365158e+05	3.336625e+00,	-5.42012e-04	
265	4.466836e+05	3.336625e+00,	-5.54637e-04	
266	4.570882e+05	3.336625e+00,	-5.67557e-04	
267	4.677351e+05	3.336625e+00,	-5.80777e-04	
268	4.786301e+05	3.336625e+00,	-5.94305e-04	
269	4.897788e+05	3.336625e+00,	-6.08148e-04	
270	5.011872e+05	3.336625e+00,	-6.22313e-04	
271	5.128614e+05	3.336625e+00,	-6.36809e-04	
272	5.248075e+05	3.336625e+00,	-6.51642e-04	
273	5.370318e+05	3.336625e+00,	-6.66821e-04	
274	5.495409e+05	3.336625e+00,	-6.82353e-04	
275	5.623413e+05	3.336625e+00,	-6.98247e-04	
276	5.754399e+05	3.336625e+00,	-7.14511e-04	
277	5.888437e+05	3.336625e+00,	-7.31154e-04	
278	6.025596e+05	3.336625e+00,	-7.48185e-04	
279	6.165950e+05	3.336625e+00,	-7.65612e-04	
280	6.309573e+05	3.336625e+00,	-7.83446e-04	
281	6.456542e+05	3.336625e+00,	-8.01695e-04	
282	6.606934e+05	3.336625e+00,	-8.20368e-04	
283	6.760830e+05	3.336625e+00,	-8.39477e-04	
284	6.918310e+05	3.336625e+00,	-8.59031e-04	
285	7.079458e+05	3.336625e+00,	-8.79040e-04	
286	7.244360e+05	3.336625e+00,	-8.99516e-04	

Index   frequency       vop                             
--------------------------------------------------------------------------------
287	7.413102e+05	3.336625e+00,	-9.20468e-04	
288	7.585776e+05	3.336625e+00,	-9.41908e-04	
289	7.762471e+05	3.336625e+00,	-9.63848e-04	
290	7.943282e+05	3.336625e+00,	-9.86299e-04	
291	8.128305e+05	3.336625e+00,	-1.00927e-03	
292	8.317638e+05	3.336625e+00,	-1.03278e-03	
293	8.511380e+05	3.336625e+00,	-1.05684e-03	
294	8.709636e+05	3.336625e+00,	-1.08145e-03	
295	8.912509e+05	3.336625e+00,	-1.10665e-03	
296	9.120108e+05	3.336625e+00,	-1.13242e-03	
297	9.332543e+05	3.336625e+00,	-1.15880e-03	
298	9.549926e+05	3.336625e+00,	-1.18579e-03	
299	9.772372e+05	3.336625e+00,	-1.21341e-03	
300	1.000000e+06	3.336625e+00,	-1.24168e-03	
301	1.023293e+06	3.336625e+00,	-1.27060e-03	
302	1.047129e+06	3.336625e+00,	-1.30019e-03	
303	1.071519e+06	3.336625e+00,	-1.33048e-03	
304	1.096478e+06	3.336625e+00,	-1.36147e-03	
305	1.122018e+06	3.336625e+00,	-1.39318e-03	
306	1.148154e+06	3.336625e+00,	-1.42563e-03	
307	1.174898e+06	3.336625e+00,	-1.45884e-03	
308	1.202264e+06	3.336626e+00,	-1.49282e-03	
309	1.230269e+06	3.336626e+00,	-1.52759e-03	
310	1.258925e+06	3.336626e+00,	-1.56317e-03	
311	1.288250e+06	3.336626e+00,	-1.59958e-03	
312	1.318257e+06	3.336626e+00,	-1.63684e-03	
313	1.348963e+06	3.336626e+00,	-1.67497e-03	
314	1.380384e+06	3.336626e+00,	-1.71398e-03	
315	1.412538e+06	3.336626e+00,	-1.75391e-03	
316	1.445440e+06	3.336626e+00,	-1.79476e-03	
317	1.479108e+06	3.336626e+00,	-1.83657e-03	
318	1.513561e+06	3.336626e+00,	-1.87934e-03	
319	1.548817e+06	3.336626e+00,	-1.92312e-03	
320	1.584893e+06	3.336626e+00,	-1.96791e-03	
321	1.621810e+06	3.336626e+00,	-2.01375e-03	
322	1.659587e+06	3.336626e+00,	-2.06066e-03	
323	1.698244e+06	3.336626e+00,	-2.10865e-03	
324	1.737801e+06	3.336626e+00,	-2.15777e-03	
325	1.778279e+06	3.336626e+00,	-2.20803e-03	
326	1.819701e+06	3.336626e+00,	-2.25946e-03	
327	1.862087e+06	3.336626e+00,	-2.31209e-03	
328	1.905461e+06	3.336627e+00,	-2.36594e-03	
329	1.949845e+06	3.336627e+00,	-2.42105e-03	
330	1.995262e+06	3.336627e+00,	-2.47744e-03	
331	2.041738e+06	3.336627e+00,	-2.53515e-03	
332	2.089296e+06	3.336627e+00,	-2.59420e-03	
333	2.137962e+06	3.336627e+00,	-2.65462e-03	
334	2.187762e+06	3.336627e+00,	-2.71646e-03	
335	2.238721e+06	3.336627e+00,	-2.77973e-03	
336	2.290868e+06	3.336627e+00,	-2.84447e-03	
337	2.344229e+06	3.336627e+00,	-2.91073e-03	
338	2.398833e+06	3.336628e+00,	-2.97853e-03	
339	2.454709e+06	3.336628e+00,	-3.04790e-03	
340	2.511886e+06	3.336628e+00,	-3.11889e-03	
341	2.570396e+06	3.336628e+00,	-3.19154e-03	
342	2.630268e+06	3.336628e+00,	-3.26588e-03	
343	2.691535e+06	3.336628e+00,	-3.34194e-03	
344	2.754229e+06	3.336629e+00,	-3.41978e-03	

Index   frequency       vop                             
--------------------------------------------------------------------------------
345	2.818383e+06	3.336629e+00,	-3.49944e-03	
346	2.884032e+06	3.336629e+00,	-3.58095e-03	
347	2.951209e+06	3.336629e+00,	-3.66435e-03	
348	3.019952e+06	3.336629e+00,	-3.74970e-03	
349	3.090295e+06	3.336629e+00,	-3.83704e-03	
350	3.162278e+06	3.336630e+00,	-3.92641e-03	
351	3.235937e+06	3.336630e+00,	-4.01786e-03	
352	3.311311e+06	3.336630e+00,	-4.11144e-03	
353	3.388442e+06	3.336630e+00,	-4.20720e-03	
354	3.467369e+06	3.336631e+00,	-4.30519e-03	
355	3.548134e+06	3.336631e+00,	-4.40547e-03	
356	3.630781e+06	3.336631e+00,	-4.50807e-03	
357	3.715352e+06	3.336632e+00,	-4.61307e-03	
358	3.801894e+06	3.336632e+00,	-4.72051e-03	
359	3.890451e+06	3.336632e+00,	-4.83046e-03	
360	3.981072e+06	3.336633e+00,	-4.94296e-03	
361	4.073803e+06	3.336633e+00,	-5.05809e-03	
362	4.168694e+06	3.336633e+00,	-5.17589e-03	
363	4.265795e+06	3.336634e+00,	-5.29644e-03	
364	4.365158e+06	3.336634e+00,	-5.41979e-03	
365	4.466836e+06	3.336635e+00,	-5.54602e-03	
366	4.570882e+06	3.336635e+00,	-5.67519e-03	
367	4.677351e+06	3.336636e+00,	-5.80736e-03	
368	4.786301e+06	3.336636e+00,	-5.94261e-03	
369	4.897788e+06	3.336637e+00,	-6.08101e-03	
370	5.011872e+06	3.336637e+00,	-6.22263e-03	
371	5.128614e+06	3.336638e+00,	-6.36755e-03	
372	5.248075e+06	3.336638e+00,	-6.51585e-03	
373	5.370318e+06	3.336639e+00,	-6.66759e-03	
374	5.495409e+06	3.336640e+00,	-6.82287e-03	
375	5.623413e+06	3.336640e+00,	-6.98177e-03	
376	5.754399e+06	3.336641e+00,	-7.14436e-03	
377	5.888437e+06	3.336642e+00,	-7.31074e-03	
378	6.025596e+06	3.336643e+00,	-7.48099e-03	
379	6.165950e+06	3.336644e+00,	-7.65520e-03	
380	6.309573e+06	3.336644e+00,	-7.83347e-03	
381	6.456542e+06	3.336645e+00,	-8.01588e-03	
382	6.606934e+06	3.336646e+00,	-8.20255e-03	
383	6.760830e+06	3.336647e+00,	-8.39356e-03	
384	6.918310e+06	3.336649e+00,	-8.58901e-03	
385	7.079458e+06	3.336650e+00,	-8.78901e-03	
386	7.244360e+06	3.336651e+00,	-8.99367e-03	
387	7.413102e+06	3.336652e+00,	-9.20309e-03	
388	7.585776e+06	3.336653e+00,	-9.41738e-03	
389	7.762471e+06	3.336655e+00,	-9.63665e-03	
390	7.943282e+06	3.336656e+00,	-9.86103e-03	
391	8.128305e+06	3.336658e+00,	-1.00906e-02	
392	8.317638e+06	3.336659e+00,	-1.03256e-02	
393	8.511380e+06	3.336661e+00,	-1.05660e-02	
394	8.709636e+06	3.336663e+00,	-1.08120e-02	
395	8.912509e+06	3.336664e+00,	-1.10637e-02	
396	9.120108e+06	3.336666e+00,	-1.13213e-02	
397	9.332543e+06	3.336668e+00,	-1.15849e-02	
398	9.549926e+06	3.336670e+00,	-1.18546e-02	
399	9.772372e+06	3.336673e+00,	-1.21305e-02	
400	1.000000e+07	3.336675e+00,	-1.24129e-02	
401	1.023293e+07	3.336677e+00,	-1.27019e-02	
402	1.047129e+07	3.336680e+00,	-1.29975e-02	

Index   frequency       vop                             
--------------------------------------------------------------------------------
403	1.071519e+07	3.336682e+00,	-1.33001e-02	
404	1.096478e+07	3.336685e+00,	-1.36097e-02	
405	1.122018e+07	3.336688e+00,	-1.39264e-02	
406	1.148154e+07	3.336691e+00,	-1.42506e-02	
407	1.174898e+07	3.336694e+00,	-1.45823e-02	
408	1.202264e+07	3.336698e+00,	-1.49217e-02	
409	1.230269e+07	3.336701e+00,	-1.52689e-02	
410	1.258925e+07	3.336705e+00,	-1.56243e-02	
411	1.288250e+07	3.336709e+00,	-1.59879e-02	
412	1.318257e+07	3.336713e+00,	-1.63599e-02	
413	1.348963e+07	3.336717e+00,	-1.67406e-02	
414	1.380384e+07	3.336722e+00,	-1.71301e-02	
415	1.412538e+07	3.336727e+00,	-1.75287e-02	
416	1.445440e+07	3.336732e+00,	-1.79365e-02	
