** sch_path: /home/andylithia/openmpw/project-reisen-chip1/xschem/ota_wideband.sch
AC Analysis  Sun Oct 30 17:11:03  2022
--------------------------------------------------------------------------------
Index   frequency       vop                             
--------------------------------------------------------------------------------
0	1.000000e+03	2.965043e+00,	8.265829e-07	
1	1.023293e+03	2.965043e+00,	8.458365e-07	
2	1.047129e+03	2.965043e+00,	8.655386e-07	
3	1.071519e+03	2.965043e+00,	8.856996e-07	
4	1.096478e+03	2.965043e+00,	9.063301e-07	
5	1.122018e+03	2.965043e+00,	9.274413e-07	
6	1.148154e+03	2.965043e+00,	9.490442e-07	
7	1.174898e+03	2.965043e+00,	9.711502e-07	
8	1.202264e+03	2.965043e+00,	9.937712e-07	
9	1.230269e+03	2.965043e+00,	1.016919e-06	
10	1.258925e+03	2.965043e+00,	1.040606e-06	
11	1.288250e+03	2.965043e+00,	1.064845e-06	
12	1.318257e+03	2.965043e+00,	1.089648e-06	
13	1.348963e+03	2.965043e+00,	1.115030e-06	
14	1.380384e+03	2.965043e+00,	1.141002e-06	
15	1.412538e+03	2.965043e+00,	1.167579e-06	
16	1.445440e+03	2.965043e+00,	1.194776e-06	
17	1.479108e+03	2.965043e+00,	1.222606e-06	
18	1.513561e+03	2.965043e+00,	1.251084e-06	
19	1.548817e+03	2.965043e+00,	1.280225e-06	
20	1.584893e+03	2.965043e+00,	1.310046e-06	
21	1.621810e+03	2.965043e+00,	1.340561e-06	
22	1.659587e+03	2.965043e+00,	1.371786e-06	
23	1.698244e+03	2.965043e+00,	1.403739e-06	
24	1.737801e+03	2.965043e+00,	1.436436e-06	
25	1.778279e+03	2.965043e+00,	1.469895e-06	
26	1.819701e+03	2.965043e+00,	1.504134e-06	
27	1.862087e+03	2.965043e+00,	1.539169e-06	
28	1.905461e+03	2.965043e+00,	1.575021e-06	
29	1.949845e+03	2.965043e+00,	1.611708e-06	
30	1.995262e+03	2.965043e+00,	1.649250e-06	
31	2.041738e+03	2.965043e+00,	1.687666e-06	
32	2.089296e+03	2.965043e+00,	1.726976e-06	
33	2.137962e+03	2.965043e+00,	1.767203e-06	
34	2.187762e+03	2.965043e+00,	1.808366e-06	
35	2.238721e+03	2.965043e+00,	1.850489e-06	
36	2.290868e+03	2.965043e+00,	1.893592e-06	
37	2.344229e+03	2.965043e+00,	1.937699e-06	
38	2.398833e+03	2.965043e+00,	1.982834e-06	
39	2.454709e+03	2.965043e+00,	2.029020e-06	
40	2.511886e+03	2.965043e+00,	2.076282e-06	
41	2.570396e+03	2.965043e+00,	2.124645e-06	
42	2.630268e+03	2.965043e+00,	2.174135e-06	
43	2.691535e+03	2.965043e+00,	2.224777e-06	
44	2.754229e+03	2.965043e+00,	2.276598e-06	
45	2.818383e+03	2.965043e+00,	2.329627e-06	
46	2.884032e+03	2.965043e+00,	2.383891e-06	
47	2.951209e+03	2.965043e+00,	2.439419e-06	
48	3.019952e+03	2.965043e+00,	2.496240e-06	
49	3.090295e+03	2.965043e+00,	2.554385e-06	
50	3.162278e+03	2.965043e+00,	2.613885e-06	
51	3.235937e+03	2.965043e+00,	2.674770e-06	
52	3.311311e+03	2.965043e+00,	2.737073e-06	
53	3.388442e+03	2.965043e+00,	2.800828e-06	
54	3.467369e+03	2.965043e+00,	2.866068e-06	

Index   frequency       vop                             
--------------------------------------------------------------------------------
55	3.548134e+03	2.965043e+00,	2.932827e-06	
56	3.630781e+03	2.965043e+00,	3.001141e-06	
57	3.715352e+03	2.965043e+00,	3.071047e-06	
58	3.801894e+03	2.965043e+00,	3.142581e-06	
59	3.890451e+03	2.965043e+00,	3.215781e-06	
60	3.981072e+03	2.965043e+00,	3.290686e-06	
61	4.073803e+03	2.965043e+00,	3.367336e-06	
62	4.168694e+03	2.965043e+00,	3.445771e-06	
63	4.265795e+03	2.965043e+00,	3.526033e-06	
64	4.365158e+03	2.965043e+00,	3.608165e-06	
65	4.466836e+03	2.965043e+00,	3.692210e-06	
66	4.570882e+03	2.965043e+00,	3.778213e-06	
67	4.677351e+03	2.965043e+00,	3.866219e-06	
68	4.786301e+03	2.965043e+00,	3.956275e-06	
69	4.897788e+03	2.965043e+00,	4.048428e-06	
70	5.011872e+03	2.965043e+00,	4.142728e-06	
71	5.128614e+03	2.965043e+00,	4.239225e-06	
72	5.248075e+03	2.965043e+00,	4.337969e-06	
73	5.370318e+03	2.965043e+00,	4.439013e-06	
74	5.495409e+03	2.965043e+00,	4.542411e-06	
75	5.623413e+03	2.965043e+00,	4.648217e-06	
76	5.754399e+03	2.965043e+00,	4.756488e-06	
77	5.888437e+03	2.965043e+00,	4.867281e-06	
78	6.025596e+03	2.965043e+00,	4.980655e-06	
79	6.165950e+03	2.965043e+00,	5.096669e-06	
80	6.309573e+03	2.965043e+00,	5.215386e-06	
81	6.456542e+03	2.965043e+00,	5.336868e-06	
82	6.606934e+03	2.965043e+00,	5.461179e-06	
83	6.760830e+03	2.965043e+00,	5.588386e-06	
84	6.918310e+03	2.965043e+00,	5.718557e-06	
85	7.079458e+03	2.965043e+00,	5.851759e-06	
86	7.244360e+03	2.965043e+00,	5.988064e-06	
87	7.413102e+03	2.965043e+00,	6.127544e-06	
88	7.585776e+03	2.965043e+00,	6.270273e-06	
89	7.762471e+03	2.965043e+00,	6.416326e-06	
90	7.943282e+03	2.965043e+00,	6.565781e-06	
91	8.128305e+03	2.965043e+00,	6.718718e-06	
92	8.317638e+03	2.965043e+00,	6.875217e-06	
93	8.511380e+03	2.965043e+00,	7.035362e-06	
94	8.709636e+03	2.965043e+00,	7.199236e-06	
95	8.912509e+03	2.965043e+00,	7.366928e-06	
96	9.120108e+03	2.965043e+00,	7.538526e-06	
97	9.332543e+03	2.965043e+00,	7.714121e-06	
98	9.549926e+03	2.965043e+00,	7.893806e-06	
99	9.772372e+03	2.965043e+00,	8.077676e-06	
100	1.000000e+04	2.965043e+00,	8.265829e-06	
101	1.023293e+04	2.965043e+00,	8.458365e-06	
102	1.047129e+04	2.965043e+00,	8.655386e-06	
103	1.071519e+04	2.965043e+00,	8.856995e-06	
104	1.096478e+04	2.965043e+00,	9.063301e-06	
105	1.122018e+04	2.965043e+00,	9.274413e-06	
106	1.148154e+04	2.965043e+00,	9.490442e-06	
107	1.174898e+04	2.965043e+00,	9.711502e-06	
108	1.202264e+04	2.965043e+00,	9.937712e-06	
109	1.230269e+04	2.965043e+00,	1.016919e-05	
110	1.258925e+04	2.965043e+00,	1.040606e-05	
111	1.288250e+04	2.965043e+00,	1.064845e-05	
112	1.318257e+04	2.965043e+00,	1.089648e-05	

Index   frequency       vop                             
--------------------------------------------------------------------------------
113	1.348963e+04	2.965043e+00,	1.115030e-05	
114	1.380384e+04	2.965043e+00,	1.141002e-05	
115	1.412538e+04	2.965043e+00,	1.167579e-05	
116	1.445440e+04	2.965043e+00,	1.194776e-05	
117	1.479108e+04	2.965043e+00,	1.222606e-05	
118	1.513561e+04	2.965043e+00,	1.251084e-05	
119	1.548817e+04	2.965043e+00,	1.280225e-05	
120	1.584893e+04	2.965043e+00,	1.310046e-05	
121	1.621810e+04	2.965043e+00,	1.340561e-05	
122	1.659587e+04	2.965043e+00,	1.371786e-05	
123	1.698244e+04	2.965043e+00,	1.403739e-05	
124	1.737801e+04	2.965043e+00,	1.436436e-05	
125	1.778279e+04	2.965043e+00,	1.469895e-05	
126	1.819701e+04	2.965043e+00,	1.504134e-05	
127	1.862087e+04	2.965043e+00,	1.539169e-05	
128	1.905461e+04	2.965043e+00,	1.575021e-05	
129	1.949845e+04	2.965043e+00,	1.611708e-05	
130	1.995262e+04	2.965043e+00,	1.649250e-05	
131	2.041738e+04	2.965043e+00,	1.687666e-05	
132	2.089296e+04	2.965043e+00,	1.726976e-05	
133	2.137962e+04	2.965043e+00,	1.767203e-05	
134	2.187762e+04	2.965043e+00,	1.808366e-05	
135	2.238721e+04	2.965043e+00,	1.850489e-05	
136	2.290868e+04	2.965043e+00,	1.893592e-05	
137	2.344229e+04	2.965043e+00,	1.937699e-05	
138	2.398833e+04	2.965043e+00,	1.982834e-05	
139	2.454709e+04	2.965043e+00,	2.029020e-05	
140	2.511886e+04	2.965043e+00,	2.076282e-05	
141	2.570396e+04	2.965043e+00,	2.124645e-05	
142	2.630268e+04	2.965043e+00,	2.174135e-05	
143	2.691535e+04	2.965043e+00,	2.224777e-05	
144	2.754229e+04	2.965043e+00,	2.276598e-05	
145	2.818383e+04	2.965043e+00,	2.329627e-05	
146	2.884032e+04	2.965043e+00,	2.383891e-05	
147	2.951209e+04	2.965043e+00,	2.439419e-05	
148	3.019952e+04	2.965043e+00,	2.496240e-05	
149	3.090295e+04	2.965043e+00,	2.554385e-05	
150	3.162278e+04	2.965043e+00,	2.613885e-05	
151	3.235937e+04	2.965043e+00,	2.674770e-05	
152	3.311311e+04	2.965043e+00,	2.737073e-05	
153	3.388442e+04	2.965043e+00,	2.800828e-05	
154	3.467369e+04	2.965043e+00,	2.866067e-05	
155	3.548134e+04	2.965043e+00,	2.932827e-05	
156	3.630781e+04	2.965043e+00,	3.001141e-05	
157	3.715352e+04	2.965043e+00,	3.071047e-05	
158	3.801894e+04	2.965043e+00,	3.142580e-05	
159	3.890451e+04	2.965043e+00,	3.215781e-05	
160	3.981072e+04	2.965043e+00,	3.290686e-05	
161	4.073803e+04	2.965043e+00,	3.367336e-05	
162	4.168694e+04	2.965043e+00,	3.445771e-05	
163	4.265795e+04	2.965043e+00,	3.526033e-05	
164	4.365158e+04	2.965043e+00,	3.608165e-05	
165	4.466836e+04	2.965043e+00,	3.692210e-05	
166	4.570882e+04	2.965043e+00,	3.778213e-05	
167	4.677351e+04	2.965043e+00,	3.866219e-05	
168	4.786301e+04	2.965043e+00,	3.956274e-05	
169	4.897788e+04	2.965043e+00,	4.048428e-05	
170	5.011872e+04	2.965043e+00,	4.142728e-05	

Index   frequency       vop                             
--------------------------------------------------------------------------------
171	5.128614e+04	2.965043e+00,	4.239224e-05	
172	5.248075e+04	2.965043e+00,	4.337969e-05	
173	5.370318e+04	2.965043e+00,	4.439013e-05	
174	5.495409e+04	2.965043e+00,	4.542411e-05	
175	5.623413e+04	2.965043e+00,	4.648217e-05	
176	5.754399e+04	2.965043e+00,	4.756488e-05	
177	5.888437e+04	2.965043e+00,	4.867281e-05	
178	6.025596e+04	2.965043e+00,	4.980654e-05	
179	6.165950e+04	2.965043e+00,	5.096668e-05	
180	6.309573e+04	2.965043e+00,	5.215385e-05	
181	6.456542e+04	2.965043e+00,	5.336867e-05	
182	6.606934e+04	2.965043e+00,	5.461179e-05	
183	6.760830e+04	2.965043e+00,	5.588386e-05	
184	6.918310e+04	2.965043e+00,	5.718556e-05	
185	7.079458e+04	2.965043e+00,	5.851758e-05	
186	7.244360e+04	2.965043e+00,	5.988063e-05	
187	7.413102e+04	2.965043e+00,	6.127543e-05	
188	7.585776e+04	2.965043e+00,	6.270272e-05	
189	7.762471e+04	2.965043e+00,	6.416325e-05	
190	7.943282e+04	2.965043e+00,	6.565780e-05	
191	8.128305e+04	2.965043e+00,	6.718717e-05	
192	8.317638e+04	2.965043e+00,	6.875216e-05	
193	8.511380e+04	2.965043e+00,	7.035360e-05	
194	8.709636e+04	2.965043e+00,	7.199235e-05	
195	8.912509e+04	2.965043e+00,	7.366927e-05	
196	9.120108e+04	2.965043e+00,	7.538524e-05	
197	9.332543e+04	2.965043e+00,	7.714119e-05	
198	9.549926e+04	2.965043e+00,	7.893804e-05	
199	9.772372e+04	2.965043e+00,	8.077674e-05	
200	1.000000e+05	2.965043e+00,	8.265827e-05	
201	1.023293e+05	2.965043e+00,	8.458363e-05	
202	1.047129e+05	2.965043e+00,	8.655383e-05	
203	1.071519e+05	2.965043e+00,	8.856993e-05	
204	1.096478e+05	2.965043e+00,	9.063299e-05	
205	1.122018e+05	2.965043e+00,	9.274410e-05	
206	1.148154e+05	2.965043e+00,	9.490439e-05	
207	1.174898e+05	2.965043e+00,	9.711499e-05	
208	1.202264e+05	2.965043e+00,	9.937709e-05	
209	1.230269e+05	2.965043e+00,	1.016919e-04	
210	1.258925e+05	2.965043e+00,	1.040606e-04	
211	1.288250e+05	2.965043e+00,	1.064845e-04	
212	1.318257e+05	2.965044e+00,	1.089648e-04	
213	1.348963e+05	2.965044e+00,	1.115029e-04	
214	1.380384e+05	2.965044e+00,	1.141002e-04	
215	1.412538e+05	2.965044e+00,	1.167579e-04	
216	1.445440e+05	2.965044e+00,	1.194775e-04	
217	1.479108e+05	2.965044e+00,	1.222605e-04	
218	1.513561e+05	2.965044e+00,	1.251083e-04	
219	1.548817e+05	2.965044e+00,	1.280225e-04	
220	1.584893e+05	2.965044e+00,	1.310045e-04	
221	1.621810e+05	2.965044e+00,	1.340560e-04	
222	1.659587e+05	2.965044e+00,	1.371785e-04	
223	1.698244e+05	2.965044e+00,	1.403738e-04	
224	1.737801e+05	2.965044e+00,	1.436435e-04	
225	1.778279e+05	2.965044e+00,	1.469894e-04	
226	1.819701e+05	2.965044e+00,	1.504132e-04	
227	1.862087e+05	2.965044e+00,	1.539168e-04	
228	1.905461e+05	2.965044e+00,	1.575020e-04	

Index   frequency       vop                             
--------------------------------------------------------------------------------
229	1.949845e+05	2.965044e+00,	1.611707e-04	
230	1.995262e+05	2.965044e+00,	1.649248e-04	
231	2.041738e+05	2.965044e+00,	1.687664e-04	
232	2.089296e+05	2.965044e+00,	1.726975e-04	
233	2.137962e+05	2.965044e+00,	1.767201e-04	
234	2.187762e+05	2.965044e+00,	1.808364e-04	
235	2.238721e+05	2.965044e+00,	1.850486e-04	
236	2.290868e+05	2.965044e+00,	1.893590e-04	
237	2.344229e+05	2.965044e+00,	1.937697e-04	
238	2.398833e+05	2.965044e+00,	1.982832e-04	
239	2.454709e+05	2.965044e+00,	2.029017e-04	
240	2.511886e+05	2.965044e+00,	2.076279e-04	
241	2.570396e+05	2.965044e+00,	2.124642e-04	
242	2.630268e+05	2.965044e+00,	2.174131e-04	
243	2.691535e+05	2.965044e+00,	2.224773e-04	
244	2.754229e+05	2.965044e+00,	2.276594e-04	
245	2.818383e+05	2.965044e+00,	2.329623e-04	
246	2.884032e+05	2.965044e+00,	2.383886e-04	
247	2.951209e+05	2.965044e+00,	2.439414e-04	
248	3.019952e+05	2.965044e+00,	2.496235e-04	
249	3.090295e+05	2.965044e+00,	2.554379e-04	
250	3.162278e+05	2.965044e+00,	2.613878e-04	
251	3.235937e+05	2.965044e+00,	2.674763e-04	
252	3.311311e+05	2.965044e+00,	2.737066e-04	
253	3.388442e+05	2.965044e+00,	2.800820e-04	
254	3.467369e+05	2.965044e+00,	2.866059e-04	
255	3.548134e+05	2.965044e+00,	2.932818e-04	
256	3.630781e+05	2.965044e+00,	3.001132e-04	
257	3.715352e+05	2.965045e+00,	3.071036e-04	
258	3.801894e+05	2.965045e+00,	3.142570e-04	
259	3.890451e+05	2.965045e+00,	3.215769e-04	
260	3.981072e+05	2.965045e+00,	3.290673e-04	
261	4.073803e+05	2.965045e+00,	3.367322e-04	
262	4.168694e+05	2.965045e+00,	3.445757e-04	
263	4.265795e+05	2.965045e+00,	3.526018e-04	
264	4.365158e+05	2.965045e+00,	3.608149e-04	
265	4.466836e+05	2.965045e+00,	3.692192e-04	
266	4.570882e+05	2.965045e+00,	3.778194e-04	
267	4.677351e+05	2.965045e+00,	3.866198e-04	
268	4.786301e+05	2.965045e+00,	3.956253e-04	
269	4.897788e+05	2.965045e+00,	4.048404e-04	
270	5.011872e+05	2.965046e+00,	4.142703e-04	
271	5.128614e+05	2.965046e+00,	4.239198e-04	
272	5.248075e+05	2.965046e+00,	4.337940e-04	
273	5.370318e+05	2.965046e+00,	4.438982e-04	
274	5.495409e+05	2.965046e+00,	4.542378e-04	
275	5.623413e+05	2.965046e+00,	4.648182e-04	
276	5.754399e+05	2.965046e+00,	4.756450e-04	
277	5.888437e+05	2.965046e+00,	4.867240e-04	
278	6.025596e+05	2.965046e+00,	4.980611e-04	
279	6.165950e+05	2.965047e+00,	5.096622e-04	
280	6.309573e+05	2.965047e+00,	5.215335e-04	
281	6.456542e+05	2.965047e+00,	5.336814e-04	
282	6.606934e+05	2.965047e+00,	5.461121e-04	
283	6.760830e+05	2.965047e+00,	5.588324e-04	
284	6.918310e+05	2.965047e+00,	5.718490e-04	
285	7.079458e+05	2.965048e+00,	5.851688e-04	
286	7.244360e+05	2.965048e+00,	5.987988e-04	

Index   frequency       vop                             
--------------------------------------------------------------------------------
287	7.413102e+05	2.965048e+00,	6.127462e-04	
288	7.585776e+05	2.965048e+00,	6.270185e-04	
289	7.762471e+05	2.965049e+00,	6.416232e-04	
290	7.943282e+05	2.965049e+00,	6.565681e-04	
291	8.128305e+05	2.965049e+00,	6.718610e-04	
292	8.317638e+05	2.965049e+00,	6.875102e-04	
293	8.511380e+05	2.965050e+00,	7.035238e-04	
294	8.709636e+05	2.965050e+00,	7.199104e-04	
295	8.912509e+05	2.965050e+00,	7.366786e-04	
296	9.120108e+05	2.965051e+00,	7.538374e-04	
297	9.332543e+05	2.965051e+00,	7.713958e-04	
298	9.549926e+05	2.965051e+00,	7.893631e-04	
299	9.772372e+05	2.965052e+00,	8.077489e-04	
300	1.000000e+06	2.965052e+00,	8.265629e-04	
301	1.023293e+06	2.965052e+00,	8.458150e-04	
302	1.047129e+06	2.965053e+00,	8.655155e-04	
303	1.071519e+06	2.965053e+00,	8.856749e-04	
304	1.096478e+06	2.965054e+00,	9.063037e-04	
305	1.122018e+06	2.965054e+00,	9.274129e-04	
306	1.148154e+06	2.965055e+00,	9.490138e-04	
307	1.174898e+06	2.965055e+00,	9.711177e-04	
308	1.202264e+06	2.965056e+00,	9.937364e-04	
309	1.230269e+06	2.965056e+00,	1.016882e-03	
310	1.258925e+06	2.965057e+00,	1.040566e-03	
311	1.288250e+06	2.965058e+00,	1.064802e-03	
312	1.318257e+06	2.965058e+00,	1.089603e-03	
313	1.348963e+06	2.965059e+00,	1.114980e-03	
314	1.380384e+06	2.965060e+00,	1.140949e-03	
315	1.412538e+06	2.965061e+00,	1.167523e-03	
316	1.445440e+06	2.965061e+00,	1.194715e-03	
317	1.479108e+06	2.965062e+00,	1.222541e-03	
318	1.513561e+06	2.965063e+00,	1.251014e-03	
319	1.548817e+06	2.965064e+00,	1.280151e-03	
320	1.584893e+06	2.965065e+00,	1.309966e-03	
321	1.621810e+06	2.965066e+00,	1.340475e-03	
322	1.659587e+06	2.965067e+00,	1.371694e-03	
323	1.698244e+06	2.965068e+00,	1.403641e-03	
324	1.737801e+06	2.965070e+00,	1.436331e-03	
325	1.778279e+06	2.965071e+00,	1.469783e-03	
326	1.819701e+06	2.965072e+00,	1.504013e-03	
327	1.862087e+06	2.965073e+00,	1.539040e-03	
328	1.905461e+06	2.965075e+00,	1.574882e-03	
329	1.949845e+06	2.965076e+00,	1.611559e-03	
330	1.995262e+06	2.965078e+00,	1.649090e-03	
331	2.041738e+06	2.965079e+00,	1.687495e-03	
332	2.089296e+06	2.965081e+00,	1.726793e-03	
333	2.137962e+06	2.965083e+00,	1.767007e-03	
334	2.187762e+06	2.965085e+00,	1.808156e-03	
335	2.238721e+06	2.965087e+00,	1.850263e-03	
336	2.290868e+06	2.965089e+00,	1.893351e-03	
337	2.344229e+06	2.965091e+00,	1.937441e-03	
338	2.398833e+06	2.965093e+00,	1.982557e-03	
339	2.454709e+06	2.965096e+00,	2.028724e-03	
340	2.511886e+06	2.965098e+00,	2.075964e-03	
341	2.570396e+06	2.965101e+00,	2.124304e-03	
342	2.630268e+06	2.965103e+00,	2.173769e-03	
343	2.691535e+06	2.965106e+00,	2.224385e-03	
344	2.754229e+06	2.965109e+00,	2.276179e-03	

Index   frequency       vop                             
--------------------------------------------------------------------------------
345	2.818383e+06	2.965112e+00,	2.329178e-03	
346	2.884032e+06	2.965115e+00,	2.383409e-03	
347	2.951209e+06	2.965119e+00,	2.438903e-03	
348	3.019952e+06	2.965122e+00,	2.495687e-03	
349	3.090295e+06	2.965126e+00,	2.553793e-03	
350	3.162278e+06	2.965130e+00,	2.613249e-03	
351	3.235937e+06	2.965134e+00,	2.674089e-03	
352	3.311311e+06	2.965138e+00,	2.736344e-03	
353	3.388442e+06	2.965143e+00,	2.800046e-03	
354	3.467369e+06	2.965147e+00,	2.865230e-03	
355	3.548134e+06	2.965152e+00,	2.931929e-03	
356	3.630781e+06	2.965158e+00,	3.000179e-03	
357	3.715352e+06	2.965163e+00,	3.070016e-03	
358	3.801894e+06	2.965169e+00,	3.141476e-03	
359	3.890451e+06	2.965174e+00,	3.214597e-03	
360	3.981072e+06	2.965181e+00,	3.289417e-03	
361	4.073803e+06	2.965187e+00,	3.365976e-03	
362	4.168694e+06	2.965194e+00,	3.444314e-03	
363	4.265795e+06	2.965201e+00,	3.524472e-03	
364	4.365158e+06	2.965208e+00,	3.606492e-03	
365	4.466836e+06	2.965216e+00,	3.690417e-03	
366	4.570882e+06	2.965224e+00,	3.776291e-03	
367	4.677351e+06	2.965233e+00,	3.864159e-03	
368	4.786301e+06	2.965242e+00,	3.954068e-03	
369	4.897788e+06	2.965251e+00,	4.046063e-03	
370	5.011872e+06	2.965261e+00,	4.140193e-03	
371	5.128614e+06	2.965271e+00,	4.236508e-03	
372	5.248075e+06	2.965282e+00,	4.335057e-03	
373	5.370318e+06	2.965293e+00,	4.435893e-03	
374	5.495409e+06	2.965305e+00,	4.539067e-03	
375	5.623413e+06	2.965317e+00,	4.644633e-03	
376	5.754399e+06	2.965330e+00,	4.752647e-03	
377	5.888437e+06	2.965344e+00,	4.863164e-03	
378	6.025596e+06	2.965358e+00,	4.976242e-03	
379	6.165950e+06	2.965373e+00,	5.091939e-03	
380	6.309573e+06	2.965388e+00,	5.210316e-03	
381	6.456542e+06	2.965405e+00,	5.331434e-03	
382	6.606934e+06	2.965422e+00,	5.455355e-03	
383	6.760830e+06	2.965439e+00,	5.582144e-03	
384	6.918310e+06	2.965458e+00,	5.711866e-03	
385	7.079458e+06	2.965478e+00,	5.844587e-03	
386	7.244360e+06	2.965498e+00,	5.980376e-03	
387	7.413102e+06	2.965520e+00,	6.119303e-03	
388	7.585776e+06	2.965542e+00,	6.261439e-03	
389	7.762471e+06	2.965566e+00,	6.406857e-03	
390	7.943282e+06	2.965590e+00,	6.555631e-03	
391	8.128305e+06	2.965616e+00,	6.707836e-03	
392	8.317638e+06	2.965643e+00,	6.863552e-03	
393	8.511380e+06	2.965671e+00,	7.022855e-03	
394	8.709636e+06	2.965701e+00,	7.185829e-03	
395	8.912509e+06	2.965732e+00,	7.352554e-03	
396	9.120108e+06	2.965764e+00,	7.523115e-03	
397	9.332543e+06	2.965798e+00,	7.697598e-03	
398	9.549926e+06	2.965834e+00,	7.876090e-03	
399	9.772372e+06	2.965871e+00,	8.058681e-03	
400	1.000000e+07	2.965910e+00,	8.245463e-03	
401	1.023293e+07	2.965951e+00,	8.436527e-03	
402	1.047129e+07	2.965994e+00,	8.631968e-03	

Index   frequency       vop                             
--------------------------------------------------------------------------------
403	1.071519e+07	2.966039e+00,	8.831884e-03	
404	1.096478e+07	2.966086e+00,	9.036373e-03	
405	1.122018e+07	2.966135e+00,	9.245534e-03	
406	1.148154e+07	2.966187e+00,	9.459471e-03	
407	1.174898e+07	2.966241e+00,	9.678287e-03	
408	1.202264e+07	2.966297e+00,	9.902088e-03	
409	1.230269e+07	2.966356e+00,	1.013098e-02	
410	1.258925e+07	2.966418e+00,	1.036508e-02	
411	1.288250e+07	2.966483e+00,	1.060449e-02	
412	1.318257e+07	2.966551e+00,	1.084933e-02	
413	1.348963e+07	2.966623e+00,	1.109971e-02	
414	1.380384e+07	2.966697e+00,	1.135575e-02	
415	1.412538e+07	2.966775e+00,	1.161756e-02	
416	1.445440e+07	2.966857e+00,	1.188528e-02	
