** sch_path: /home/andylithia/openmpw/project-reisen-chip1/xschem/ota_wideband.sch
AC Analysis  Sun Oct 30 17:11:03  2022
--------------------------------------------------------------------------------
Index   frequency       vop                             
--------------------------------------------------------------------------------
0	1.000000e+03	2.592195e+00,	3.964872e-06	
1	1.023293e+03	2.592195e+00,	4.057225e-06	
2	1.047129e+03	2.592195e+00,	4.151730e-06	
3	1.071519e+03	2.592195e+00,	4.248436e-06	
4	1.096478e+03	2.592195e+00,	4.347395e-06	
5	1.122018e+03	2.592195e+00,	4.448659e-06	
6	1.148154e+03	2.592195e+00,	4.552282e-06	
7	1.174898e+03	2.592195e+00,	4.658318e-06	
8	1.202264e+03	2.592195e+00,	4.766824e-06	
9	1.230269e+03	2.592195e+00,	4.877858e-06	
10	1.258925e+03	2.592195e+00,	4.991478e-06	
11	1.288250e+03	2.592195e+00,	5.107744e-06	
12	1.318257e+03	2.592195e+00,	5.226719e-06	
13	1.348963e+03	2.592195e+00,	5.348465e-06	
14	1.380384e+03	2.592195e+00,	5.473046e-06	
15	1.412538e+03	2.592195e+00,	5.600530e-06	
16	1.445440e+03	2.592195e+00,	5.730983e-06	
17	1.479108e+03	2.592195e+00,	5.864475e-06	
18	1.513561e+03	2.592195e+00,	6.001076e-06	
19	1.548817e+03	2.592195e+00,	6.140859e-06	
20	1.584893e+03	2.592195e+00,	6.283898e-06	
21	1.621810e+03	2.592195e+00,	6.430269e-06	
22	1.659587e+03	2.592195e+00,	6.580049e-06	
23	1.698244e+03	2.592195e+00,	6.733318e-06	
24	1.737801e+03	2.592195e+00,	6.890157e-06	
25	1.778279e+03	2.592195e+00,	7.050649e-06	
26	1.819701e+03	2.592195e+00,	7.214880e-06	
27	1.862087e+03	2.592195e+00,	7.382936e-06	
28	1.905461e+03	2.592195e+00,	7.554907e-06	
29	1.949845e+03	2.592195e+00,	7.730883e-06	
30	1.995262e+03	2.592195e+00,	7.910959e-06	
31	2.041738e+03	2.592195e+00,	8.095229e-06	
32	2.089296e+03	2.592195e+00,	8.283791e-06	
33	2.137962e+03	2.592195e+00,	8.476745e-06	
34	2.187762e+03	2.592195e+00,	8.674194e-06	
35	2.238721e+03	2.592195e+00,	8.876242e-06	
36	2.290868e+03	2.592195e+00,	9.082996e-06	
37	2.344229e+03	2.592195e+00,	9.294566e-06	
38	2.398833e+03	2.592195e+00,	9.511064e-06	
39	2.454709e+03	2.592195e+00,	9.732606e-06	
40	2.511886e+03	2.592195e+00,	9.959307e-06	
41	2.570396e+03	2.592195e+00,	1.019129e-05	
42	2.630268e+03	2.592195e+00,	1.042867e-05	
43	2.691535e+03	2.592195e+00,	1.067159e-05	
44	2.754229e+03	2.592195e+00,	1.092016e-05	
45	2.818383e+03	2.592195e+00,	1.117453e-05	
46	2.884032e+03	2.592195e+00,	1.143481e-05	
47	2.951209e+03	2.592195e+00,	1.170117e-05	
48	3.019952e+03	2.592195e+00,	1.197372e-05	
49	3.090295e+03	2.592195e+00,	1.225262e-05	
50	3.162278e+03	2.592195e+00,	1.253802e-05	
51	3.235937e+03	2.592195e+00,	1.283007e-05	
52	3.311311e+03	2.592195e+00,	1.312892e-05	
53	3.388442e+03	2.592195e+00,	1.343474e-05	
54	3.467369e+03	2.592195e+00,	1.374767e-05	

Index   frequency       vop                             
--------------------------------------------------------------------------------
55	3.548134e+03	2.592195e+00,	1.406790e-05	
56	3.630781e+03	2.592195e+00,	1.439558e-05	
57	3.715352e+03	2.592195e+00,	1.473089e-05	
58	3.801894e+03	2.592195e+00,	1.507402e-05	
59	3.890451e+03	2.592195e+00,	1.542514e-05	
60	3.981072e+03	2.592195e+00,	1.578444e-05	
61	4.073803e+03	2.592195e+00,	1.615210e-05	
62	4.168694e+03	2.592195e+00,	1.652834e-05	
63	4.265795e+03	2.592195e+00,	1.691333e-05	
64	4.365158e+03	2.592195e+00,	1.730729e-05	
65	4.466836e+03	2.592195e+00,	1.771043e-05	
66	4.570882e+03	2.592195e+00,	1.812296e-05	
67	4.677351e+03	2.592195e+00,	1.854510e-05	
68	4.786301e+03	2.592195e+00,	1.897707e-05	
69	4.897788e+03	2.592195e+00,	1.941910e-05	
70	5.011872e+03	2.592195e+00,	1.987143e-05	
71	5.128614e+03	2.592195e+00,	2.033430e-05	
72	5.248075e+03	2.592195e+00,	2.080794e-05	
73	5.370318e+03	2.592195e+00,	2.129262e-05	
74	5.495409e+03	2.592195e+00,	2.178859e-05	
75	5.623413e+03	2.592195e+00,	2.229611e-05	
76	5.754399e+03	2.592195e+00,	2.281545e-05	
77	5.888437e+03	2.592195e+00,	2.334689e-05	
78	6.025596e+03	2.592195e+00,	2.389071e-05	
79	6.165950e+03	2.592195e+00,	2.444720e-05	
80	6.309573e+03	2.592195e+00,	2.501665e-05	
81	6.456542e+03	2.592195e+00,	2.559936e-05	
82	6.606934e+03	2.592195e+00,	2.619565e-05	
83	6.760830e+03	2.592195e+00,	2.680582e-05	
84	6.918310e+03	2.592195e+00,	2.743021e-05	
85	7.079458e+03	2.592195e+00,	2.806914e-05	
86	7.244360e+03	2.592195e+00,	2.872296e-05	
87	7.413102e+03	2.592195e+00,	2.939200e-05	
88	7.585776e+03	2.592195e+00,	3.007663e-05	
89	7.762471e+03	2.592195e+00,	3.077720e-05	
90	7.943282e+03	2.592195e+00,	3.149409e-05	
91	8.128305e+03	2.592195e+00,	3.222769e-05	
92	8.317638e+03	2.592195e+00,	3.297837e-05	
93	8.511380e+03	2.592195e+00,	3.374653e-05	
94	8.709636e+03	2.592195e+00,	3.453259e-05	
95	8.912509e+03	2.592195e+00,	3.533695e-05	
96	9.120108e+03	2.592195e+00,	3.616006e-05	
97	9.332543e+03	2.592195e+00,	3.700233e-05	
98	9.549926e+03	2.592195e+00,	3.786423e-05	
99	9.772372e+03	2.592195e+00,	3.874620e-05	
100	1.000000e+04	2.592195e+00,	3.964872e-05	
101	1.023293e+04	2.592195e+00,	4.057225e-05	
102	1.047129e+04	2.592195e+00,	4.151730e-05	
103	1.071519e+04	2.592195e+00,	4.248436e-05	
104	1.096478e+04	2.592195e+00,	4.347395e-05	
105	1.122018e+04	2.592195e+00,	4.448659e-05	
106	1.148154e+04	2.592195e+00,	4.552282e-05	
107	1.174898e+04	2.592195e+00,	4.658318e-05	
108	1.202264e+04	2.592195e+00,	4.766824e-05	
109	1.230269e+04	2.592195e+00,	4.877858e-05	
110	1.258925e+04	2.592195e+00,	4.991478e-05	
111	1.288250e+04	2.592195e+00,	5.107744e-05	
112	1.318257e+04	2.592195e+00,	5.226719e-05	

Index   frequency       vop                             
--------------------------------------------------------------------------------
113	1.348963e+04	2.592195e+00,	5.348465e-05	
114	1.380384e+04	2.592195e+00,	5.473046e-05	
115	1.412538e+04	2.592195e+00,	5.600530e-05	
116	1.445440e+04	2.592195e+00,	5.730983e-05	
117	1.479108e+04	2.592195e+00,	5.864475e-05	
118	1.513561e+04	2.592195e+00,	6.001076e-05	
119	1.548817e+04	2.592195e+00,	6.140859e-05	
120	1.584893e+04	2.592195e+00,	6.283898e-05	
121	1.621810e+04	2.592195e+00,	6.430269e-05	
122	1.659587e+04	2.592195e+00,	6.580049e-05	
123	1.698244e+04	2.592195e+00,	6.733318e-05	
124	1.737801e+04	2.592195e+00,	6.890157e-05	
125	1.778279e+04	2.592195e+00,	7.050649e-05	
126	1.819701e+04	2.592195e+00,	7.214880e-05	
127	1.862087e+04	2.592195e+00,	7.382936e-05	
128	1.905461e+04	2.592195e+00,	7.554907e-05	
129	1.949845e+04	2.592195e+00,	7.730883e-05	
130	1.995262e+04	2.592195e+00,	7.910959e-05	
131	2.041738e+04	2.592195e+00,	8.095229e-05	
132	2.089296e+04	2.592195e+00,	8.283791e-05	
133	2.137962e+04	2.592195e+00,	8.476745e-05	
134	2.187762e+04	2.592195e+00,	8.674194e-05	
135	2.238721e+04	2.592195e+00,	8.876242e-05	
136	2.290868e+04	2.592195e+00,	9.082996e-05	
137	2.344229e+04	2.592195e+00,	9.294566e-05	
138	2.398833e+04	2.592195e+00,	9.511064e-05	
139	2.454709e+04	2.592195e+00,	9.732605e-05	
140	2.511886e+04	2.592195e+00,	9.959307e-05	
141	2.570396e+04	2.592195e+00,	1.019129e-04	
142	2.630268e+04	2.592195e+00,	1.042867e-04	
143	2.691535e+04	2.592195e+00,	1.067159e-04	
144	2.754229e+04	2.592195e+00,	1.092016e-04	
145	2.818383e+04	2.592195e+00,	1.117453e-04	
146	2.884032e+04	2.592195e+00,	1.143481e-04	
147	2.951209e+04	2.592195e+00,	1.170117e-04	
148	3.019952e+04	2.592195e+00,	1.197372e-04	
149	3.090295e+04	2.592195e+00,	1.225262e-04	
150	3.162278e+04	2.592195e+00,	1.253802e-04	
151	3.235937e+04	2.592195e+00,	1.283007e-04	
152	3.311311e+04	2.592195e+00,	1.312892e-04	
153	3.388442e+04	2.592195e+00,	1.343474e-04	
154	3.467369e+04	2.592195e+00,	1.374767e-04	
155	3.548134e+04	2.592195e+00,	1.406789e-04	
156	3.630781e+04	2.592195e+00,	1.439558e-04	
157	3.715352e+04	2.592195e+00,	1.473089e-04	
158	3.801894e+04	2.592195e+00,	1.507402e-04	
159	3.890451e+04	2.592195e+00,	1.542514e-04	
160	3.981072e+04	2.592195e+00,	1.578444e-04	
161	4.073803e+04	2.592195e+00,	1.615210e-04	
162	4.168694e+04	2.592195e+00,	1.652833e-04	
163	4.265795e+04	2.592195e+00,	1.691333e-04	
164	4.365158e+04	2.592195e+00,	1.730729e-04	
165	4.466836e+04	2.592195e+00,	1.771043e-04	
166	4.570882e+04	2.592195e+00,	1.812296e-04	
167	4.677351e+04	2.592195e+00,	1.854510e-04	
168	4.786301e+04	2.592195e+00,	1.897707e-04	
169	4.897788e+04	2.592195e+00,	1.941910e-04	
170	5.011872e+04	2.592195e+00,	1.987143e-04	

Index   frequency       vop                             
--------------------------------------------------------------------------------
171	5.128614e+04	2.592195e+00,	2.033429e-04	
172	5.248075e+04	2.592195e+00,	2.080794e-04	
173	5.370318e+04	2.592195e+00,	2.129262e-04	
174	5.495409e+04	2.592195e+00,	2.178859e-04	
175	5.623413e+04	2.592195e+00,	2.229611e-04	
176	5.754399e+04	2.592195e+00,	2.281545e-04	
177	5.888437e+04	2.592195e+00,	2.334689e-04	
178	6.025596e+04	2.592195e+00,	2.389071e-04	
179	6.165950e+04	2.592195e+00,	2.444720e-04	
180	6.309573e+04	2.592195e+00,	2.501665e-04	
181	6.456542e+04	2.592195e+00,	2.559936e-04	
182	6.606934e+04	2.592195e+00,	2.619564e-04	
183	6.760830e+04	2.592195e+00,	2.680582e-04	
184	6.918310e+04	2.592195e+00,	2.743021e-04	
185	7.079458e+04	2.592195e+00,	2.806914e-04	
186	7.244360e+04	2.592195e+00,	2.872295e-04	
187	7.413102e+04	2.592195e+00,	2.939199e-04	
188	7.585776e+04	2.592195e+00,	3.007662e-04	
189	7.762471e+04	2.592195e+00,	3.077720e-04	
190	7.943282e+04	2.592195e+00,	3.149409e-04	
191	8.128305e+04	2.592195e+00,	3.222768e-04	
192	8.317638e+04	2.592195e+00,	3.297836e-04	
193	8.511380e+04	2.592195e+00,	3.374652e-04	
194	8.709636e+04	2.592195e+00,	3.453258e-04	
195	8.912509e+04	2.592195e+00,	3.533695e-04	
196	9.120108e+04	2.592195e+00,	3.616005e-04	
197	9.332543e+04	2.592195e+00,	3.700232e-04	
198	9.549926e+04	2.592195e+00,	3.786422e-04	
199	9.772372e+04	2.592195e+00,	3.874619e-04	
200	1.000000e+05	2.592195e+00,	3.964870e-04	
201	1.023293e+05	2.592195e+00,	4.057224e-04	
202	1.047129e+05	2.592195e+00,	4.151729e-04	
203	1.071519e+05	2.592195e+00,	4.248435e-04	
204	1.096478e+05	2.592195e+00,	4.347394e-04	
205	1.122018e+05	2.592195e+00,	4.448657e-04	
206	1.148154e+05	2.592196e+00,	4.552280e-04	
207	1.174898e+05	2.592196e+00,	4.658316e-04	
208	1.202264e+05	2.592196e+00,	4.766822e-04	
209	1.230269e+05	2.592196e+00,	4.877855e-04	
210	1.258925e+05	2.592196e+00,	4.991475e-04	
211	1.288250e+05	2.592196e+00,	5.107741e-04	
212	1.318257e+05	2.592196e+00,	5.226716e-04	
213	1.348963e+05	2.592196e+00,	5.348462e-04	
214	1.380384e+05	2.592196e+00,	5.473043e-04	
215	1.412538e+05	2.592196e+00,	5.600527e-04	
216	1.445440e+05	2.592196e+00,	5.730979e-04	
217	1.479108e+05	2.592196e+00,	5.864471e-04	
218	1.513561e+05	2.592196e+00,	6.001072e-04	
219	1.548817e+05	2.592196e+00,	6.140855e-04	
220	1.584893e+05	2.592196e+00,	6.283893e-04	
221	1.621810e+05	2.592196e+00,	6.430264e-04	
222	1.659587e+05	2.592196e+00,	6.580043e-04	
223	1.698244e+05	2.592196e+00,	6.733312e-04	
224	1.737801e+05	2.592196e+00,	6.890151e-04	
225	1.778279e+05	2.592196e+00,	7.050643e-04	
226	1.819701e+05	2.592196e+00,	7.214873e-04	
227	1.862087e+05	2.592196e+00,	7.382929e-04	
228	1.905461e+05	2.592196e+00,	7.554899e-04	

Index   frequency       vop                             
--------------------------------------------------------------------------------
229	1.949845e+05	2.592196e+00,	7.730875e-04	
230	1.995262e+05	2.592196e+00,	7.910949e-04	
231	2.041738e+05	2.592196e+00,	8.095219e-04	
232	2.089296e+05	2.592196e+00,	8.283780e-04	
233	2.137962e+05	2.592196e+00,	8.476733e-04	
234	2.187762e+05	2.592196e+00,	8.674181e-04	
235	2.238721e+05	2.592197e+00,	8.876228e-04	
236	2.290868e+05	2.592197e+00,	9.082982e-04	
237	2.344229e+05	2.592197e+00,	9.294551e-04	
238	2.398833e+05	2.592197e+00,	9.511048e-04	
239	2.454709e+05	2.592197e+00,	9.732588e-04	
240	2.511886e+05	2.592197e+00,	9.959288e-04	
241	2.570396e+05	2.592197e+00,	1.019127e-03	
242	2.630268e+05	2.592197e+00,	1.042865e-03	
243	2.691535e+05	2.592197e+00,	1.067157e-03	
244	2.754229e+05	2.592197e+00,	1.092014e-03	
245	2.818383e+05	2.592197e+00,	1.117450e-03	
246	2.884032e+05	2.592197e+00,	1.143479e-03	
247	2.951209e+05	2.592198e+00,	1.170113e-03	
248	3.019952e+05	2.592198e+00,	1.197369e-03	
249	3.090295e+05	2.592198e+00,	1.225259e-03	
250	3.162278e+05	2.592198e+00,	1.253799e-03	
251	3.235937e+05	2.592198e+00,	1.283003e-03	
252	3.311311e+05	2.592198e+00,	1.312888e-03	
253	3.388442e+05	2.592198e+00,	1.343469e-03	
254	3.467369e+05	2.592198e+00,	1.374762e-03	
255	3.548134e+05	2.592199e+00,	1.406784e-03	
256	3.630781e+05	2.592199e+00,	1.439552e-03	
257	3.715352e+05	2.592199e+00,	1.473083e-03	
258	3.801894e+05	2.592199e+00,	1.507396e-03	
259	3.890451e+05	2.592199e+00,	1.542507e-03	
260	3.981072e+05	2.592200e+00,	1.578436e-03	
261	4.073803e+05	2.592200e+00,	1.615202e-03	
262	4.168694e+05	2.592200e+00,	1.652825e-03	
263	4.265795e+05	2.592200e+00,	1.691324e-03	
264	4.365158e+05	2.592200e+00,	1.730719e-03	
265	4.466836e+05	2.592201e+00,	1.771032e-03	
266	4.570882e+05	2.592201e+00,	1.812285e-03	
267	4.677351e+05	2.592201e+00,	1.854498e-03	
268	4.786301e+05	2.592202e+00,	1.897694e-03	
269	4.897788e+05	2.592202e+00,	1.941896e-03	
270	5.011872e+05	2.592202e+00,	1.987128e-03	
271	5.128614e+05	2.592202e+00,	2.033413e-03	
272	5.248075e+05	2.592203e+00,	2.080777e-03	
273	5.370318e+05	2.592203e+00,	2.129244e-03	
274	5.495409e+05	2.592204e+00,	2.178839e-03	
275	5.623413e+05	2.592204e+00,	2.229590e-03	
276	5.754399e+05	2.592204e+00,	2.281523e-03	
277	5.888437e+05	2.592205e+00,	2.334665e-03	
278	6.025596e+05	2.592205e+00,	2.389045e-03	
279	6.165950e+05	2.592206e+00,	2.444692e-03	
280	6.309573e+05	2.592206e+00,	2.501635e-03	
281	6.456542e+05	2.592207e+00,	2.559904e-03	
282	6.606934e+05	2.592207e+00,	2.619530e-03	
283	6.760830e+05	2.592208e+00,	2.680545e-03	
284	6.918310e+05	2.592208e+00,	2.742981e-03	
285	7.079458e+05	2.592209e+00,	2.806872e-03	
286	7.244360e+05	2.592210e+00,	2.872250e-03	

Index   frequency       vop                             
--------------------------------------------------------------------------------
287	7.413102e+05	2.592210e+00,	2.939151e-03	
288	7.585776e+05	2.592211e+00,	3.007610e-03	
289	7.762471e+05	2.592212e+00,	3.077664e-03	
290	7.943282e+05	2.592213e+00,	3.149350e-03	
291	8.128305e+05	2.592214e+00,	3.222704e-03	
292	8.317638e+05	2.592214e+00,	3.297768e-03	
293	8.511380e+05	2.592215e+00,	3.374579e-03	
294	8.709636e+05	2.592216e+00,	3.453180e-03	
295	8.912509e+05	2.592217e+00,	3.533611e-03	
296	9.120108e+05	2.592218e+00,	3.615915e-03	
297	9.332543e+05	2.592219e+00,	3.700136e-03	
298	9.549926e+05	2.592221e+00,	3.786319e-03	
299	9.772372e+05	2.592222e+00,	3.874509e-03	
300	1.000000e+06	2.592223e+00,	3.964752e-03	
301	1.023293e+06	2.592224e+00,	4.057097e-03	
302	1.047129e+06	2.592226e+00,	4.151593e-03	
303	1.071519e+06	2.592227e+00,	4.248289e-03	
304	1.096478e+06	2.592229e+00,	4.347238e-03	
305	1.122018e+06	2.592230e+00,	4.448490e-03	
306	1.148154e+06	2.592232e+00,	4.552101e-03	
307	1.174898e+06	2.592234e+00,	4.658124e-03	
308	1.202264e+06	2.592235e+00,	4.766616e-03	
309	1.230269e+06	2.592237e+00,	4.877635e-03	
310	1.258925e+06	2.592239e+00,	4.991239e-03	
311	1.288250e+06	2.592241e+00,	5.107489e-03	
312	1.318257e+06	2.592243e+00,	5.226445e-03	
313	1.348963e+06	2.592246e+00,	5.348171e-03	
314	1.380384e+06	2.592248e+00,	5.472732e-03	
315	1.412538e+06	2.592251e+00,	5.600193e-03	
316	1.445440e+06	2.592253e+00,	5.730622e-03	
317	1.479108e+06	2.592256e+00,	5.864088e-03	
318	1.513561e+06	2.592259e+00,	6.000662e-03	
319	1.548817e+06	2.592262e+00,	6.140415e-03	
320	1.584893e+06	2.592265e+00,	6.283422e-03	
321	1.621810e+06	2.592268e+00,	6.429759e-03	
322	1.659587e+06	2.592272e+00,	6.579503e-03	
323	1.698244e+06	2.592275e+00,	6.732733e-03	
324	1.737801e+06	2.592279e+00,	6.889530e-03	
325	1.778279e+06	2.592283e+00,	7.049977e-03	
326	1.819701e+06	2.592287e+00,	7.214160e-03	
327	1.862087e+06	2.592292e+00,	7.382165e-03	
328	1.905461e+06	2.592296e+00,	7.554080e-03	
329	1.949845e+06	2.592301e+00,	7.729997e-03	
330	1.995262e+06	2.592306e+00,	7.910010e-03	
331	2.041738e+06	2.592311e+00,	8.094212e-03	
332	2.089296e+06	2.592317e+00,	8.282701e-03	
333	2.137962e+06	2.592322e+00,	8.475577e-03	
334	2.187762e+06	2.592328e+00,	8.672942e-03	
335	2.238721e+06	2.592335e+00,	8.874901e-03	
336	2.290868e+06	2.592341e+00,	9.081559e-03	
337	2.344229e+06	2.592348e+00,	9.293027e-03	
338	2.398833e+06	2.592355e+00,	9.509415e-03	
339	2.454709e+06	2.592363e+00,	9.730838e-03	
340	2.511886e+06	2.592371e+00,	9.957413e-03	
341	2.570396e+06	2.592379e+00,	1.018926e-02	
342	2.630268e+06	2.592388e+00,	1.042650e-02	
343	2.691535e+06	2.592397e+00,	1.066926e-02	
344	2.754229e+06	2.592406e+00,	1.091767e-02	

Index   frequency       vop                             
--------------------------------------------------------------------------------
345	2.818383e+06	2.592416e+00,	1.117185e-02	
346	2.884032e+06	2.592427e+00,	1.143195e-02	
347	2.951209e+06	2.592437e+00,	1.169809e-02	
348	3.019952e+06	2.592449e+00,	1.197043e-02	
349	3.090295e+06	2.592461e+00,	1.224910e-02	
350	3.162278e+06	2.592473e+00,	1.253425e-02	
351	3.235937e+06	2.592486e+00,	1.282602e-02	
352	3.311311e+06	2.592500e+00,	1.312458e-02	
353	3.388442e+06	2.592515e+00,	1.343009e-02	
354	3.467369e+06	2.592530e+00,	1.374269e-02	
355	3.548134e+06	2.592545e+00,	1.406256e-02	
356	3.630781e+06	2.592562e+00,	1.438986e-02	
357	3.715352e+06	2.592579e+00,	1.472476e-02	
358	3.801894e+06	2.592597e+00,	1.506745e-02	
359	3.890451e+06	2.592616e+00,	1.541810e-02	
360	3.981072e+06	2.592636e+00,	1.577690e-02	
361	4.073803e+06	2.592657e+00,	1.614402e-02	
362	4.168694e+06	2.592679e+00,	1.651968e-02	
363	4.265795e+06	2.592701e+00,	1.690405e-02	
364	4.365158e+06	2.592725e+00,	1.729735e-02	
365	4.466836e+06	2.592750e+00,	1.769978e-02	
366	4.570882e+06	2.592776e+00,	1.811154e-02	
367	4.677351e+06	2.592804e+00,	1.853286e-02	
368	4.786301e+06	2.592832e+00,	1.896396e-02	
369	4.897788e+06	2.592862e+00,	1.940505e-02	
370	5.011872e+06	2.592894e+00,	1.985638e-02	
371	5.128614e+06	2.592927e+00,	2.031817e-02	
372	5.248075e+06	2.592961e+00,	2.079066e-02	
373	5.370318e+06	2.592997e+00,	2.127410e-02	
374	5.495409e+06	2.593035e+00,	2.176875e-02	
375	5.623413e+06	2.593075e+00,	2.227485e-02	
376	5.754399e+06	2.593116e+00,	2.279267e-02	
377	5.888437e+06	2.593159e+00,	2.332248e-02	
378	6.025596e+06	2.593205e+00,	2.386455e-02	
379	6.165950e+06	2.593252e+00,	2.441916e-02	
380	6.309573e+06	2.593302e+00,	2.498661e-02	
381	6.456542e+06	2.593354e+00,	2.556717e-02	
382	6.606934e+06	2.593409e+00,	2.616115e-02	
383	6.760830e+06	2.593466e+00,	2.676886e-02	
384	6.918310e+06	2.593526e+00,	2.739060e-02	
385	7.079458e+06	2.593589e+00,	2.802670e-02	
386	7.244360e+06	2.593654e+00,	2.867747e-02	
387	7.413102e+06	2.593723e+00,	2.934326e-02	
388	7.585776e+06	2.593795e+00,	3.002440e-02	
389	7.762471e+06	2.593870e+00,	3.072123e-02	
390	7.943282e+06	2.593949e+00,	3.143412e-02	
391	8.128305e+06	2.594032e+00,	3.216342e-02	
392	8.317638e+06	2.594118e+00,	3.290950e-02	
393	8.511380e+06	2.594209e+00,	3.367273e-02	
394	8.709636e+06	2.594304e+00,	3.445351e-02	
395	8.912509e+06	2.594403e+00,	3.525221e-02	
396	9.120108e+06	2.594507e+00,	3.606925e-02	
397	9.332543e+06	2.594616e+00,	3.690502e-02	
398	9.549926e+06	2.594730e+00,	3.775994e-02	
399	9.772372e+06	2.594849e+00,	3.863445e-02	
400	1.000000e+07	2.594974e+00,	3.952896e-02	
401	1.023293e+07	2.595105e+00,	4.044392e-02	
402	1.047129e+07	2.595242e+00,	4.137977e-02	

Index   frequency       vop                             
--------------------------------------------------------------------------------
403	1.071519e+07	2.595385e+00,	4.233698e-02	
404	1.096478e+07	2.595536e+00,	4.331601e-02	
405	1.122018e+07	2.595693e+00,	4.431734e-02	
406	1.148154e+07	2.595857e+00,	4.534144e-02	
407	1.174898e+07	2.596030e+00,	4.638880e-02	
408	1.202264e+07	2.596210e+00,	4.745994e-02	
409	1.230269e+07	2.596399e+00,	4.855534e-02	
410	1.258925e+07	2.596597e+00,	4.967554e-02	
411	1.288250e+07	2.596804e+00,	5.082106e-02	
412	1.318257e+07	2.597021e+00,	5.199243e-02	
413	1.348963e+07	2.597248e+00,	5.319019e-02	
414	1.380384e+07	2.597485e+00,	5.441490e-02	
415	1.412538e+07	2.597734e+00,	5.566710e-02	
416	1.445440e+07	2.597994e+00,	5.694738e-02	
