** sch_path: /home/andylithia/openmpw/project-reisen-chip1/xschem/ota_wideband.sch
AC Analysis  Sun Oct 30 17:11:03  2022
--------------------------------------------------------------------------------
Index   frequency       vop                             
--------------------------------------------------------------------------------
0	1.000000e+03	3.436273e+00,	-1.61655e-06	
1	1.023293e+03	3.436273e+00,	-1.65421e-06	
2	1.047129e+03	3.436273e+00,	-1.69274e-06	
3	1.071519e+03	3.436273e+00,	-1.73217e-06	
4	1.096478e+03	3.436273e+00,	-1.77252e-06	
5	1.122018e+03	3.436273e+00,	-1.81380e-06	
6	1.148154e+03	3.436273e+00,	-1.85605e-06	
7	1.174898e+03	3.436273e+00,	-1.89929e-06	
8	1.202264e+03	3.436273e+00,	-1.94353e-06	
9	1.230269e+03	3.436273e+00,	-1.98880e-06	
10	1.258925e+03	3.436273e+00,	-2.03512e-06	
11	1.288250e+03	3.436273e+00,	-2.08253e-06	
12	1.318257e+03	3.436273e+00,	-2.13103e-06	
13	1.348963e+03	3.436273e+00,	-2.18067e-06	
14	1.380384e+03	3.436273e+00,	-2.23147e-06	
15	1.412538e+03	3.436273e+00,	-2.28344e-06	
16	1.445440e+03	3.436273e+00,	-2.33663e-06	
17	1.479108e+03	3.436273e+00,	-2.39106e-06	
18	1.513561e+03	3.436273e+00,	-2.44675e-06	
19	1.548817e+03	3.436273e+00,	-2.50375e-06	
20	1.584893e+03	3.436273e+00,	-2.56207e-06	
21	1.621810e+03	3.436273e+00,	-2.62174e-06	
22	1.659587e+03	3.436273e+00,	-2.68281e-06	
23	1.698244e+03	3.436273e+00,	-2.74530e-06	
24	1.737801e+03	3.436273e+00,	-2.80925e-06	
25	1.778279e+03	3.436273e+00,	-2.87468e-06	
26	1.819701e+03	3.436273e+00,	-2.94164e-06	
27	1.862087e+03	3.436273e+00,	-3.01016e-06	
28	1.905461e+03	3.436273e+00,	-3.08028e-06	
29	1.949845e+03	3.436273e+00,	-3.15203e-06	
30	1.995262e+03	3.436273e+00,	-3.22545e-06	
31	2.041738e+03	3.436273e+00,	-3.30058e-06	
32	2.089296e+03	3.436273e+00,	-3.37746e-06	
33	2.137962e+03	3.436273e+00,	-3.45613e-06	
34	2.187762e+03	3.436273e+00,	-3.53663e-06	
35	2.238721e+03	3.436273e+00,	-3.61901e-06	
36	2.290868e+03	3.436273e+00,	-3.70331e-06	
37	2.344229e+03	3.436273e+00,	-3.78957e-06	
38	2.398833e+03	3.436273e+00,	-3.87784e-06	
39	2.454709e+03	3.436273e+00,	-3.96817e-06	
40	2.511886e+03	3.436273e+00,	-4.06060e-06	
41	2.570396e+03	3.436273e+00,	-4.15518e-06	
42	2.630268e+03	3.436273e+00,	-4.25197e-06	
43	2.691535e+03	3.436273e+00,	-4.35101e-06	
44	2.754229e+03	3.436273e+00,	-4.45236e-06	
45	2.818383e+03	3.436273e+00,	-4.55607e-06	
46	2.884032e+03	3.436273e+00,	-4.66219e-06	
47	2.951209e+03	3.436273e+00,	-4.77079e-06	
48	3.019952e+03	3.436273e+00,	-4.88192e-06	
49	3.090295e+03	3.436273e+00,	-4.99563e-06	
50	3.162278e+03	3.436273e+00,	-5.11199e-06	
51	3.235937e+03	3.436273e+00,	-5.23107e-06	
52	3.311311e+03	3.436273e+00,	-5.35291e-06	
53	3.388442e+03	3.436273e+00,	-5.47760e-06	
54	3.467369e+03	3.436273e+00,	-5.60519e-06	

Index   frequency       vop                             
--------------------------------------------------------------------------------
55	3.548134e+03	3.436273e+00,	-5.73575e-06	
56	3.630781e+03	3.436273e+00,	-5.86935e-06	
57	3.715352e+03	3.436273e+00,	-6.00607e-06	
58	3.801894e+03	3.436273e+00,	-6.14597e-06	
59	3.890451e+03	3.436273e+00,	-6.28913e-06	
60	3.981072e+03	3.436273e+00,	-6.43562e-06	
61	4.073803e+03	3.436273e+00,	-6.58552e-06	
62	4.168694e+03	3.436273e+00,	-6.73892e-06	
63	4.265795e+03	3.436273e+00,	-6.89589e-06	
64	4.365158e+03	3.436273e+00,	-7.05651e-06	
65	4.466836e+03	3.436273e+00,	-7.22088e-06	
66	4.570882e+03	3.436273e+00,	-7.38908e-06	
67	4.677351e+03	3.436273e+00,	-7.56119e-06	
68	4.786301e+03	3.436273e+00,	-7.73731e-06	
69	4.897788e+03	3.436273e+00,	-7.91754e-06	
70	5.011872e+03	3.436273e+00,	-8.10196e-06	
71	5.128614e+03	3.436273e+00,	-8.29068e-06	
72	5.248075e+03	3.436273e+00,	-8.48380e-06	
73	5.370318e+03	3.436273e+00,	-8.68141e-06	
74	5.495409e+03	3.436273e+00,	-8.88363e-06	
75	5.623413e+03	3.436273e+00,	-9.09055e-06	
76	5.754399e+03	3.436273e+00,	-9.30230e-06	
77	5.888437e+03	3.436273e+00,	-9.51898e-06	
78	6.025596e+03	3.436273e+00,	-9.74070e-06	
79	6.165950e+03	3.436273e+00,	-9.96759e-06	
80	6.309573e+03	3.436273e+00,	-1.01998e-05	
81	6.456542e+03	3.436273e+00,	-1.04373e-05	
82	6.606934e+03	3.436273e+00,	-1.06805e-05	
83	6.760830e+03	3.436273e+00,	-1.09292e-05	
84	6.918310e+03	3.436273e+00,	-1.11838e-05	
85	7.079458e+03	3.436273e+00,	-1.14443e-05	
86	7.244360e+03	3.436273e+00,	-1.17109e-05	
87	7.413102e+03	3.436273e+00,	-1.19837e-05	
88	7.585776e+03	3.436273e+00,	-1.22628e-05	
89	7.762471e+03	3.436273e+00,	-1.25485e-05	
90	7.943282e+03	3.436273e+00,	-1.28407e-05	
91	8.128305e+03	3.436273e+00,	-1.31398e-05	
92	8.317638e+03	3.436273e+00,	-1.34459e-05	
93	8.511380e+03	3.436273e+00,	-1.37591e-05	
94	8.709636e+03	3.436273e+00,	-1.40796e-05	
95	8.912509e+03	3.436273e+00,	-1.44076e-05	
96	9.120108e+03	3.436273e+00,	-1.47431e-05	
97	9.332543e+03	3.436273e+00,	-1.50866e-05	
98	9.549926e+03	3.436273e+00,	-1.54380e-05	
99	9.772372e+03	3.436273e+00,	-1.57976e-05	
100	1.000000e+04	3.436273e+00,	-1.61655e-05	
101	1.023293e+04	3.436273e+00,	-1.65421e-05	
102	1.047129e+04	3.436273e+00,	-1.69274e-05	
103	1.071519e+04	3.436273e+00,	-1.73217e-05	
104	1.096478e+04	3.436273e+00,	-1.77252e-05	
105	1.122018e+04	3.436273e+00,	-1.81380e-05	
106	1.148154e+04	3.436273e+00,	-1.85605e-05	
107	1.174898e+04	3.436273e+00,	-1.89929e-05	
108	1.202264e+04	3.436273e+00,	-1.94353e-05	
109	1.230269e+04	3.436273e+00,	-1.98880e-05	
110	1.258925e+04	3.436273e+00,	-2.03512e-05	
111	1.288250e+04	3.436273e+00,	-2.08253e-05	
112	1.318257e+04	3.436273e+00,	-2.13103e-05	

Index   frequency       vop                             
--------------------------------------------------------------------------------
113	1.348963e+04	3.436273e+00,	-2.18067e-05	
114	1.380384e+04	3.436273e+00,	-2.23147e-05	
115	1.412538e+04	3.436273e+00,	-2.28344e-05	
116	1.445440e+04	3.436273e+00,	-2.33663e-05	
117	1.479108e+04	3.436273e+00,	-2.39106e-05	
118	1.513561e+04	3.436273e+00,	-2.44675e-05	
119	1.548817e+04	3.436273e+00,	-2.50375e-05	
120	1.584893e+04	3.436273e+00,	-2.56207e-05	
121	1.621810e+04	3.436273e+00,	-2.62174e-05	
122	1.659587e+04	3.436273e+00,	-2.68281e-05	
123	1.698244e+04	3.436273e+00,	-2.74530e-05	
124	1.737801e+04	3.436273e+00,	-2.80925e-05	
125	1.778279e+04	3.436273e+00,	-2.87468e-05	
126	1.819701e+04	3.436273e+00,	-2.94164e-05	
127	1.862087e+04	3.436273e+00,	-3.01016e-05	
128	1.905461e+04	3.436273e+00,	-3.08028e-05	
129	1.949845e+04	3.436273e+00,	-3.15203e-05	
130	1.995262e+04	3.436273e+00,	-3.22545e-05	
131	2.041738e+04	3.436273e+00,	-3.30058e-05	
132	2.089296e+04	3.436273e+00,	-3.37746e-05	
133	2.137962e+04	3.436273e+00,	-3.45613e-05	
134	2.187762e+04	3.436273e+00,	-3.53663e-05	
135	2.238721e+04	3.436273e+00,	-3.61901e-05	
136	2.290868e+04	3.436273e+00,	-3.70331e-05	
137	2.344229e+04	3.436273e+00,	-3.78957e-05	
138	2.398833e+04	3.436273e+00,	-3.87784e-05	
139	2.454709e+04	3.436273e+00,	-3.96817e-05	
140	2.511886e+04	3.436273e+00,	-4.06060e-05	
141	2.570396e+04	3.436273e+00,	-4.15518e-05	
142	2.630268e+04	3.436273e+00,	-4.25197e-05	
143	2.691535e+04	3.436273e+00,	-4.35101e-05	
144	2.754229e+04	3.436273e+00,	-4.45236e-05	
145	2.818383e+04	3.436273e+00,	-4.55607e-05	
146	2.884032e+04	3.436273e+00,	-4.66219e-05	
147	2.951209e+04	3.436273e+00,	-4.77079e-05	
148	3.019952e+04	3.436273e+00,	-4.88192e-05	
149	3.090295e+04	3.436273e+00,	-4.99563e-05	
150	3.162278e+04	3.436273e+00,	-5.11199e-05	
151	3.235937e+04	3.436273e+00,	-5.23107e-05	
152	3.311311e+04	3.436273e+00,	-5.35291e-05	
153	3.388442e+04	3.436273e+00,	-5.47760e-05	
154	3.467369e+04	3.436273e+00,	-5.60519e-05	
155	3.548134e+04	3.436273e+00,	-5.73575e-05	
156	3.630781e+04	3.436273e+00,	-5.86935e-05	
157	3.715352e+04	3.436273e+00,	-6.00607e-05	
158	3.801894e+04	3.436273e+00,	-6.14597e-05	
159	3.890451e+04	3.436273e+00,	-6.28912e-05	
160	3.981072e+04	3.436273e+00,	-6.43562e-05	
161	4.073803e+04	3.436273e+00,	-6.58552e-05	
162	4.168694e+04	3.436273e+00,	-6.73892e-05	
163	4.265795e+04	3.436273e+00,	-6.89589e-05	
164	4.365158e+04	3.436273e+00,	-7.05651e-05	
165	4.466836e+04	3.436273e+00,	-7.22088e-05	
166	4.570882e+04	3.436273e+00,	-7.38908e-05	
167	4.677351e+04	3.436273e+00,	-7.56119e-05	
168	4.786301e+04	3.436273e+00,	-7.73731e-05	
169	4.897788e+04	3.436273e+00,	-7.91754e-05	
170	5.011872e+04	3.436273e+00,	-8.10196e-05	

Index   frequency       vop                             
--------------------------------------------------------------------------------
171	5.128614e+04	3.436273e+00,	-8.29068e-05	
172	5.248075e+04	3.436273e+00,	-8.48380e-05	
173	5.370318e+04	3.436273e+00,	-8.68141e-05	
174	5.495409e+04	3.436273e+00,	-8.88363e-05	
175	5.623413e+04	3.436273e+00,	-9.09055e-05	
176	5.754399e+04	3.436273e+00,	-9.30230e-05	
177	5.888437e+04	3.436273e+00,	-9.51898e-05	
178	6.025596e+04	3.436273e+00,	-9.74070e-05	
179	6.165950e+04	3.436273e+00,	-9.96759e-05	
180	6.309573e+04	3.436273e+00,	-1.01998e-04	
181	6.456542e+04	3.436273e+00,	-1.04373e-04	
182	6.606934e+04	3.436273e+00,	-1.06805e-04	
183	6.760830e+04	3.436273e+00,	-1.09292e-04	
184	6.918310e+04	3.436273e+00,	-1.11838e-04	
185	7.079458e+04	3.436273e+00,	-1.14443e-04	
186	7.244360e+04	3.436273e+00,	-1.17109e-04	
187	7.413102e+04	3.436273e+00,	-1.19837e-04	
188	7.585776e+04	3.436273e+00,	-1.22628e-04	
189	7.762471e+04	3.436273e+00,	-1.25485e-04	
190	7.943282e+04	3.436273e+00,	-1.28407e-04	
191	8.128305e+04	3.436273e+00,	-1.31398e-04	
192	8.317638e+04	3.436273e+00,	-1.34459e-04	
193	8.511380e+04	3.436273e+00,	-1.37591e-04	
194	8.709636e+04	3.436273e+00,	-1.40796e-04	
195	8.912509e+04	3.436273e+00,	-1.44076e-04	
196	9.120108e+04	3.436273e+00,	-1.47431e-04	
197	9.332543e+04	3.436273e+00,	-1.50866e-04	
198	9.549926e+04	3.436273e+00,	-1.54380e-04	
199	9.772372e+04	3.436273e+00,	-1.57976e-04	
200	1.000000e+05	3.436273e+00,	-1.61655e-04	
201	1.023293e+05	3.436273e+00,	-1.65421e-04	
202	1.047129e+05	3.436273e+00,	-1.69274e-04	
203	1.071519e+05	3.436273e+00,	-1.73217e-04	
204	1.096478e+05	3.436273e+00,	-1.77252e-04	
205	1.122018e+05	3.436273e+00,	-1.81380e-04	
206	1.148154e+05	3.436273e+00,	-1.85605e-04	
207	1.174898e+05	3.436273e+00,	-1.89929e-04	
208	1.202264e+05	3.436273e+00,	-1.94353e-04	
209	1.230269e+05	3.436273e+00,	-1.98880e-04	
210	1.258925e+05	3.436273e+00,	-2.03512e-04	
211	1.288250e+05	3.436273e+00,	-2.08252e-04	
212	1.318257e+05	3.436273e+00,	-2.13103e-04	
213	1.348963e+05	3.436273e+00,	-2.18067e-04	
214	1.380384e+05	3.436273e+00,	-2.23147e-04	
215	1.412538e+05	3.436273e+00,	-2.28344e-04	
216	1.445440e+05	3.436273e+00,	-2.33663e-04	
217	1.479108e+05	3.436273e+00,	-2.39106e-04	
218	1.513561e+05	3.436273e+00,	-2.44675e-04	
219	1.548817e+05	3.436273e+00,	-2.50375e-04	
220	1.584893e+05	3.436273e+00,	-2.56207e-04	
221	1.621810e+05	3.436273e+00,	-2.62174e-04	
222	1.659587e+05	3.436273e+00,	-2.68281e-04	
223	1.698244e+05	3.436273e+00,	-2.74530e-04	
224	1.737801e+05	3.436273e+00,	-2.80925e-04	
225	1.778279e+05	3.436273e+00,	-2.87468e-04	
226	1.819701e+05	3.436273e+00,	-2.94164e-04	
227	1.862087e+05	3.436273e+00,	-3.01016e-04	
228	1.905461e+05	3.436273e+00,	-3.08028e-04	

Index   frequency       vop                             
--------------------------------------------------------------------------------
229	1.949845e+05	3.436273e+00,	-3.15203e-04	
230	1.995262e+05	3.436273e+00,	-3.22545e-04	
231	2.041738e+05	3.436273e+00,	-3.30058e-04	
232	2.089296e+05	3.436273e+00,	-3.37746e-04	
233	2.137962e+05	3.436273e+00,	-3.45613e-04	
234	2.187762e+05	3.436273e+00,	-3.53663e-04	
235	2.238721e+05	3.436273e+00,	-3.61901e-04	
236	2.290868e+05	3.436273e+00,	-3.70331e-04	
237	2.344229e+05	3.436273e+00,	-3.78957e-04	
238	2.398833e+05	3.436273e+00,	-3.87784e-04	
239	2.454709e+05	3.436273e+00,	-3.96817e-04	
240	2.511886e+05	3.436273e+00,	-4.06060e-04	
241	2.570396e+05	3.436273e+00,	-4.15518e-04	
242	2.630268e+05	3.436273e+00,	-4.25197e-04	
243	2.691535e+05	3.436273e+00,	-4.35101e-04	
244	2.754229e+05	3.436273e+00,	-4.45236e-04	
245	2.818383e+05	3.436273e+00,	-4.55607e-04	
246	2.884032e+05	3.436273e+00,	-4.66219e-04	
247	2.951209e+05	3.436273e+00,	-4.77079e-04	
248	3.019952e+05	3.436273e+00,	-4.88191e-04	
249	3.090295e+05	3.436273e+00,	-4.99563e-04	
250	3.162278e+05	3.436273e+00,	-5.11199e-04	
251	3.235937e+05	3.436273e+00,	-5.23106e-04	
252	3.311311e+05	3.436273e+00,	-5.35291e-04	
253	3.388442e+05	3.436273e+00,	-5.47760e-04	
254	3.467369e+05	3.436273e+00,	-5.60519e-04	
255	3.548134e+05	3.436273e+00,	-5.73575e-04	
256	3.630781e+05	3.436273e+00,	-5.86935e-04	
257	3.715352e+05	3.436273e+00,	-6.00607e-04	
258	3.801894e+05	3.436273e+00,	-6.14596e-04	
259	3.890451e+05	3.436273e+00,	-6.28912e-04	
260	3.981072e+05	3.436273e+00,	-6.43561e-04	
261	4.073803e+05	3.436273e+00,	-6.58552e-04	
262	4.168694e+05	3.436273e+00,	-6.73892e-04	
263	4.265795e+05	3.436273e+00,	-6.89588e-04	
264	4.365158e+05	3.436273e+00,	-7.05651e-04	
265	4.466836e+05	3.436273e+00,	-7.22088e-04	
266	4.570882e+05	3.436273e+00,	-7.38907e-04	
267	4.677351e+05	3.436273e+00,	-7.56119e-04	
268	4.786301e+05	3.436273e+00,	-7.73731e-04	
269	4.897788e+05	3.436273e+00,	-7.91753e-04	
270	5.011872e+05	3.436273e+00,	-8.10196e-04	
271	5.128614e+05	3.436273e+00,	-8.29068e-04	
272	5.248075e+05	3.436273e+00,	-8.48379e-04	
273	5.370318e+05	3.436273e+00,	-8.68140e-04	
274	5.495409e+05	3.436273e+00,	-8.88362e-04	
275	5.623413e+05	3.436273e+00,	-9.09054e-04	
276	5.754399e+05	3.436273e+00,	-9.30229e-04	
277	5.888437e+05	3.436273e+00,	-9.51897e-04	
278	6.025596e+05	3.436273e+00,	-9.74069e-04	
279	6.165950e+05	3.436273e+00,	-9.96758e-04	
280	6.309573e+05	3.436273e+00,	-1.01998e-03	
281	6.456542e+05	3.436273e+00,	-1.04373e-03	
282	6.606934e+05	3.436273e+00,	-1.06805e-03	
283	6.760830e+05	3.436273e+00,	-1.09292e-03	
284	6.918310e+05	3.436273e+00,	-1.11838e-03	
285	7.079458e+05	3.436273e+00,	-1.14443e-03	
286	7.244360e+05	3.436273e+00,	-1.17109e-03	

Index   frequency       vop                             
--------------------------------------------------------------------------------
287	7.413102e+05	3.436273e+00,	-1.19837e-03	
288	7.585776e+05	3.436273e+00,	-1.22628e-03	
289	7.762471e+05	3.436273e+00,	-1.25484e-03	
290	7.943282e+05	3.436273e+00,	-1.28407e-03	
291	8.128305e+05	3.436273e+00,	-1.31398e-03	
292	8.317638e+05	3.436273e+00,	-1.34459e-03	
293	8.511380e+05	3.436273e+00,	-1.37591e-03	
294	8.709636e+05	3.436273e+00,	-1.40796e-03	
295	8.912509e+05	3.436273e+00,	-1.44075e-03	
296	9.120108e+05	3.436273e+00,	-1.47431e-03	
297	9.332543e+05	3.436273e+00,	-1.50865e-03	
298	9.549926e+05	3.436273e+00,	-1.54379e-03	
299	9.772372e+05	3.436273e+00,	-1.57975e-03	
300	1.000000e+06	3.436273e+00,	-1.61655e-03	
301	1.023293e+06	3.436273e+00,	-1.65420e-03	
302	1.047129e+06	3.436273e+00,	-1.69273e-03	
303	1.071519e+06	3.436273e+00,	-1.73216e-03	
304	1.096478e+06	3.436273e+00,	-1.77251e-03	
305	1.122018e+06	3.436273e+00,	-1.81380e-03	
306	1.148154e+06	3.436272e+00,	-1.85605e-03	
307	1.174898e+06	3.436272e+00,	-1.89928e-03	
308	1.202264e+06	3.436272e+00,	-1.94352e-03	
309	1.230269e+06	3.436272e+00,	-1.98879e-03	
310	1.258925e+06	3.436272e+00,	-2.03511e-03	
311	1.288250e+06	3.436272e+00,	-2.08251e-03	
312	1.318257e+06	3.436272e+00,	-2.13102e-03	
313	1.348963e+06	3.436272e+00,	-2.18066e-03	
314	1.380384e+06	3.436272e+00,	-2.23145e-03	
315	1.412538e+06	3.436272e+00,	-2.28343e-03	
316	1.445440e+06	3.436272e+00,	-2.33662e-03	
317	1.479108e+06	3.436272e+00,	-2.39104e-03	
318	1.513561e+06	3.436272e+00,	-2.44674e-03	
319	1.548817e+06	3.436272e+00,	-2.50373e-03	
320	1.584893e+06	3.436272e+00,	-2.56205e-03	
321	1.621810e+06	3.436272e+00,	-2.62172e-03	
322	1.659587e+06	3.436272e+00,	-2.68279e-03	
323	1.698244e+06	3.436272e+00,	-2.74528e-03	
324	1.737801e+06	3.436272e+00,	-2.80922e-03	
325	1.778279e+06	3.436272e+00,	-2.87466e-03	
326	1.819701e+06	3.436272e+00,	-2.94162e-03	
327	1.862087e+06	3.436272e+00,	-3.01013e-03	
328	1.905461e+06	3.436271e+00,	-3.08025e-03	
329	1.949845e+06	3.436271e+00,	-3.15199e-03	
330	1.995262e+06	3.436271e+00,	-3.22541e-03	
331	2.041738e+06	3.436271e+00,	-3.30054e-03	
332	2.089296e+06	3.436271e+00,	-3.37742e-03	
333	2.137962e+06	3.436271e+00,	-3.45609e-03	
334	2.187762e+06	3.436271e+00,	-3.53659e-03	
335	2.238721e+06	3.436271e+00,	-3.61896e-03	
336	2.290868e+06	3.436271e+00,	-3.70325e-03	
337	2.344229e+06	3.436271e+00,	-3.78951e-03	
338	2.398833e+06	3.436271e+00,	-3.87778e-03	
339	2.454709e+06	3.436270e+00,	-3.96810e-03	
340	2.511886e+06	3.436270e+00,	-4.06053e-03	
341	2.570396e+06	3.436270e+00,	-4.15510e-03	
342	2.630268e+06	3.436270e+00,	-4.25188e-03	
343	2.691535e+06	3.436270e+00,	-4.35092e-03	
344	2.754229e+06	3.436270e+00,	-4.45226e-03	

Index   frequency       vop                             
--------------------------------------------------------------------------------
345	2.818383e+06	3.436270e+00,	-4.55596e-03	
346	2.884032e+06	3.436269e+00,	-4.66208e-03	
347	2.951209e+06	3.436269e+00,	-4.77067e-03	
348	3.019952e+06	3.436269e+00,	-4.88179e-03	
349	3.090295e+06	3.436269e+00,	-4.99549e-03	
350	3.162278e+06	3.436269e+00,	-5.11184e-03	
351	3.235937e+06	3.436269e+00,	-5.23091e-03	
352	3.311311e+06	3.436268e+00,	-5.35274e-03	
353	3.388442e+06	3.436268e+00,	-5.47742e-03	
354	3.467369e+06	3.436268e+00,	-5.60499e-03	
355	3.548134e+06	3.436268e+00,	-5.73554e-03	
356	3.630781e+06	3.436267e+00,	-5.86913e-03	
357	3.715352e+06	3.436267e+00,	-6.00583e-03	
358	3.801894e+06	3.436267e+00,	-6.14571e-03	
359	3.890451e+06	3.436267e+00,	-6.28885e-03	
360	3.981072e+06	3.436266e+00,	-6.43532e-03	
361	4.073803e+06	3.436266e+00,	-6.58521e-03	
362	4.168694e+06	3.436266e+00,	-6.73858e-03	
363	4.265795e+06	3.436265e+00,	-6.89552e-03	
364	4.365158e+06	3.436265e+00,	-7.05612e-03	
365	4.466836e+06	3.436265e+00,	-7.22046e-03	
366	4.570882e+06	3.436264e+00,	-7.38863e-03	
367	4.677351e+06	3.436264e+00,	-7.56071e-03	
368	4.786301e+06	3.436263e+00,	-7.73680e-03	
369	4.897788e+06	3.436263e+00,	-7.91699e-03	
370	5.011872e+06	3.436262e+00,	-8.10137e-03	
371	5.128614e+06	3.436262e+00,	-8.29005e-03	
372	5.248075e+06	3.436261e+00,	-8.48312e-03	
373	5.370318e+06	3.436261e+00,	-8.68069e-03	
374	5.495409e+06	3.436260e+00,	-8.88285e-03	
375	5.623413e+06	3.436260e+00,	-9.08972e-03	
376	5.754399e+06	3.436259e+00,	-9.30141e-03	
377	5.888437e+06	3.436258e+00,	-9.51802e-03	
378	6.025596e+06	3.436258e+00,	-9.73968e-03	
379	6.165950e+06	3.436257e+00,	-9.96650e-03	
380	6.309573e+06	3.436256e+00,	-1.01986e-02	
381	6.456542e+06	3.436255e+00,	-1.04361e-02	
382	6.606934e+06	3.436254e+00,	-1.06791e-02	
383	6.760830e+06	3.436254e+00,	-1.09278e-02	
384	6.918310e+06	3.436253e+00,	-1.11823e-02	
385	7.079458e+06	3.436252e+00,	-1.14427e-02	
386	7.244360e+06	3.436251e+00,	-1.17091e-02	
387	7.413102e+06	3.436250e+00,	-1.19818e-02	
388	7.585776e+06	3.436249e+00,	-1.22608e-02	
389	7.762471e+06	3.436248e+00,	-1.25463e-02	
390	7.943282e+06	3.436246e+00,	-1.28384e-02	
391	8.128305e+06	3.436245e+00,	-1.31374e-02	
392	8.317638e+06	3.436244e+00,	-1.34433e-02	
393	8.511380e+06	3.436242e+00,	-1.37563e-02	
394	8.709636e+06	3.436241e+00,	-1.40766e-02	
395	8.912509e+06	3.436240e+00,	-1.44043e-02	
396	9.120108e+06	3.436238e+00,	-1.47397e-02	
397	9.332543e+06	3.436236e+00,	-1.50828e-02	
398	9.549926e+06	3.436235e+00,	-1.54340e-02	
399	9.772372e+06	3.436233e+00,	-1.57933e-02	
400	1.000000e+07	3.436231e+00,	-1.61610e-02	
401	1.023293e+07	3.436229e+00,	-1.65372e-02	
402	1.047129e+07	3.436227e+00,	-1.69222e-02	

Index   frequency       vop                             
--------------------------------------------------------------------------------
403	1.071519e+07	3.436225e+00,	-1.73161e-02	
404	1.096478e+07	3.436223e+00,	-1.77192e-02	
405	1.122018e+07	3.436220e+00,	-1.81316e-02	
406	1.148154e+07	3.436218e+00,	-1.85537e-02	
407	1.174898e+07	3.436215e+00,	-1.89855e-02	
408	1.202264e+07	3.436213e+00,	-1.94274e-02	
409	1.230269e+07	3.436210e+00,	-1.98796e-02	
410	1.258925e+07	3.436207e+00,	-2.03422e-02	
411	1.288250e+07	3.436204e+00,	-2.08156e-02	
412	1.318257e+07	3.436201e+00,	-2.13001e-02	
413	1.348963e+07	3.436198e+00,	-2.17957e-02	
414	1.380384e+07	3.436194e+00,	-2.23029e-02	
415	1.412538e+07	3.436191e+00,	-2.28219e-02	
416	1.445440e+07	3.436187e+00,	-2.33529e-02	
