** sch_path: /home/andylithia/openmpw/project-reisen-chip1/xschem/ota_wideband.sch
AC Analysis  Sun Oct 30 16:54:48  2022
--------------------------------------------------------------------------------
Index   frequency       vop                             
--------------------------------------------------------------------------------
0	1.000000e+03	1.834310e+00,	1.374259e-05	
1	1.023293e+03	1.834310e+00,	1.406269e-05	
2	1.047129e+03	1.834310e+00,	1.439025e-05	
3	1.071519e+03	1.834310e+00,	1.472545e-05	
4	1.096478e+03	1.834310e+00,	1.506845e-05	
5	1.122018e+03	1.834310e+00,	1.541944e-05	
6	1.148154e+03	1.834310e+00,	1.577860e-05	
7	1.174898e+03	1.834310e+00,	1.614613e-05	
8	1.202264e+03	1.834310e+00,	1.652222e-05	
9	1.230269e+03	1.834310e+00,	1.690707e-05	
10	1.258925e+03	1.834310e+00,	1.730089e-05	
11	1.288250e+03	1.834310e+00,	1.770388e-05	
12	1.318257e+03	1.834310e+00,	1.811626e-05	
13	1.348963e+03	1.834310e+00,	1.853824e-05	
14	1.380384e+03	1.834310e+00,	1.897005e-05	
15	1.412538e+03	1.834310e+00,	1.941192e-05	
16	1.445440e+03	1.834310e+00,	1.986408e-05	
17	1.479108e+03	1.834310e+00,	2.032677e-05	
18	1.513561e+03	1.834310e+00,	2.080025e-05	
19	1.548817e+03	1.834310e+00,	2.128475e-05	
20	1.584893e+03	1.834310e+00,	2.178053e-05	
21	1.621810e+03	1.834310e+00,	2.228787e-05	
22	1.659587e+03	1.834310e+00,	2.280702e-05	
23	1.698244e+03	1.834310e+00,	2.333826e-05	
24	1.737801e+03	1.834310e+00,	2.388188e-05	
25	1.778279e+03	1.834310e+00,	2.443816e-05	
26	1.819701e+03	1.834310e+00,	2.500740e-05	
27	1.862087e+03	1.834310e+00,	2.558989e-05	
28	1.905461e+03	1.834310e+00,	2.618596e-05	
29	1.949845e+03	1.834310e+00,	2.679591e-05	
30	1.995262e+03	1.834310e+00,	2.742006e-05	
31	2.041738e+03	1.834310e+00,	2.805876e-05	
32	2.089296e+03	1.834310e+00,	2.871233e-05	
33	2.137962e+03	1.834310e+00,	2.938113e-05	
34	2.187762e+03	1.834310e+00,	3.006550e-05	
35	2.238721e+03	1.834310e+00,	3.076582e-05	
36	2.290868e+03	1.834310e+00,	3.148245e-05	
37	2.344229e+03	1.834310e+00,	3.221577e-05	
38	2.398833e+03	1.834310e+00,	3.296617e-05	
39	2.454709e+03	1.834310e+00,	3.373405e-05	
40	2.511886e+03	1.834310e+00,	3.451982e-05	
41	2.570396e+03	1.834310e+00,	3.532389e-05	
42	2.630268e+03	1.834310e+00,	3.614668e-05	
43	2.691535e+03	1.834310e+00,	3.698865e-05	
44	2.754229e+03	1.834310e+00,	3.785023e-05	
45	2.818383e+03	1.834310e+00,	3.873187e-05	
46	2.884032e+03	1.834310e+00,	3.963405e-05	
47	2.951209e+03	1.834310e+00,	4.055725e-05	
48	3.019952e+03	1.834310e+00,	4.150195e-05	
49	3.090295e+03	1.834310e+00,	4.246865e-05	
50	3.162278e+03	1.834310e+00,	4.345787e-05	
51	3.235937e+03	1.834310e+00,	4.447014e-05	
52	3.311311e+03	1.834310e+00,	4.550598e-05	
53	3.388442e+03	1.834310e+00,	4.656595e-05	
54	3.467369e+03	1.834310e+00,	4.765061e-05	

Index   frequency       vop                             
--------------------------------------------------------------------------------
55	3.548134e+03	1.834310e+00,	4.876054e-05	
56	3.630781e+03	1.834310e+00,	4.989632e-05	
57	3.715352e+03	1.834310e+00,	5.105855e-05	
58	3.801894e+03	1.834310e+00,	5.224786e-05	
59	3.890451e+03	1.834310e+00,	5.346486e-05	
60	3.981072e+03	1.834310e+00,	5.471022e-05	
61	4.073803e+03	1.834310e+00,	5.598459e-05	
62	4.168694e+03	1.834310e+00,	5.728863e-05	
63	4.265795e+03	1.834310e+00,	5.862306e-05	
64	4.365158e+03	1.834310e+00,	5.998857e-05	
65	4.466836e+03	1.834310e+00,	6.138588e-05	
66	4.570882e+03	1.834310e+00,	6.281574e-05	
67	4.677351e+03	1.834310e+00,	6.427891e-05	
68	4.786301e+03	1.834310e+00,	6.577615e-05	
69	4.897788e+03	1.834310e+00,	6.730828e-05	
70	5.011872e+03	1.834310e+00,	6.887609e-05	
71	5.128614e+03	1.834310e+00,	7.048042e-05	
72	5.248075e+03	1.834310e+00,	7.212212e-05	
73	5.370318e+03	1.834310e+00,	7.380206e-05	
74	5.495409e+03	1.834310e+00,	7.552113e-05	
75	5.623413e+03	1.834310e+00,	7.728024e-05	
76	5.754399e+03	1.834310e+00,	7.908033e-05	
77	5.888437e+03	1.834310e+00,	8.092235e-05	
78	6.025596e+03	1.834310e+00,	8.280727e-05	
79	6.165950e+03	1.834310e+00,	8.473610e-05	
80	6.309573e+03	1.834310e+00,	8.670986e-05	
81	6.456542e+03	1.834310e+00,	8.872959e-05	
82	6.606934e+03	1.834310e+00,	9.079637e-05	
83	6.760830e+03	1.834310e+00,	9.291129e-05	
84	6.918310e+03	1.834310e+00,	9.507547e-05	
85	7.079458e+03	1.834310e+00,	9.729006e-05	
86	7.244360e+03	1.834310e+00,	9.955624e-05	
87	7.413102e+03	1.834310e+00,	1.018752e-04	
88	7.585776e+03	1.834310e+00,	1.042482e-04	
89	7.762471e+03	1.834310e+00,	1.066764e-04	
90	7.943282e+03	1.834310e+00,	1.091612e-04	
91	8.128305e+03	1.834310e+00,	1.117039e-04	
92	8.317638e+03	1.834310e+00,	1.143059e-04	
93	8.511380e+03	1.834310e+00,	1.169684e-04	
94	8.709636e+03	1.834310e+00,	1.196929e-04	
95	8.912509e+03	1.834310e+00,	1.224809e-04	
96	9.120108e+03	1.834310e+00,	1.253339e-04	
97	9.332543e+03	1.834310e+00,	1.282533e-04	
98	9.549926e+03	1.834310e+00,	1.312407e-04	
99	9.772372e+03	1.834310e+00,	1.342977e-04	
100	1.000000e+04	1.834310e+00,	1.374259e-04	
101	1.023293e+04	1.834310e+00,	1.406269e-04	
102	1.047129e+04	1.834310e+00,	1.439025e-04	
103	1.071519e+04	1.834310e+00,	1.472545e-04	
104	1.096478e+04	1.834310e+00,	1.506845e-04	
105	1.122018e+04	1.834310e+00,	1.541944e-04	
106	1.148154e+04	1.834310e+00,	1.577860e-04	
107	1.174898e+04	1.834310e+00,	1.614613e-04	
108	1.202264e+04	1.834310e+00,	1.652222e-04	
109	1.230269e+04	1.834310e+00,	1.690707e-04	
110	1.258925e+04	1.834310e+00,	1.730089e-04	
111	1.288250e+04	1.834310e+00,	1.770388e-04	
112	1.318257e+04	1.834310e+00,	1.811626e-04	

Index   frequency       vop                             
--------------------------------------------------------------------------------
113	1.348963e+04	1.834310e+00,	1.853824e-04	
114	1.380384e+04	1.834310e+00,	1.897005e-04	
115	1.412538e+04	1.834310e+00,	1.941192e-04	
116	1.445440e+04	1.834310e+00,	1.986408e-04	
117	1.479108e+04	1.834310e+00,	2.032677e-04	
118	1.513561e+04	1.834310e+00,	2.080025e-04	
119	1.548817e+04	1.834310e+00,	2.128475e-04	
120	1.584893e+04	1.834310e+00,	2.178053e-04	
121	1.621810e+04	1.834310e+00,	2.228786e-04	
122	1.659587e+04	1.834310e+00,	2.280702e-04	
123	1.698244e+04	1.834310e+00,	2.333826e-04	
124	1.737801e+04	1.834310e+00,	2.388188e-04	
125	1.778279e+04	1.834310e+00,	2.443816e-04	
126	1.819701e+04	1.834310e+00,	2.500740e-04	
127	1.862087e+04	1.834310e+00,	2.558989e-04	
128	1.905461e+04	1.834310e+00,	2.618596e-04	
129	1.949845e+04	1.834310e+00,	2.679591e-04	
130	1.995262e+04	1.834310e+00,	2.742006e-04	
131	2.041738e+04	1.834310e+00,	2.805876e-04	
132	2.089296e+04	1.834310e+00,	2.871233e-04	
133	2.137962e+04	1.834310e+00,	2.938113e-04	
134	2.187762e+04	1.834310e+00,	3.006550e-04	
135	2.238721e+04	1.834310e+00,	3.076582e-04	
136	2.290868e+04	1.834310e+00,	3.148245e-04	
137	2.344229e+04	1.834310e+00,	3.221577e-04	
138	2.398833e+04	1.834310e+00,	3.296617e-04	
139	2.454709e+04	1.834310e+00,	3.373405e-04	
140	2.511886e+04	1.834310e+00,	3.451981e-04	
141	2.570396e+04	1.834310e+00,	3.532388e-04	
142	2.630268e+04	1.834310e+00,	3.614668e-04	
143	2.691535e+04	1.834310e+00,	3.698865e-04	
144	2.754229e+04	1.834310e+00,	3.785022e-04	
145	2.818383e+04	1.834310e+00,	3.873187e-04	
146	2.884032e+04	1.834310e+00,	3.963405e-04	
147	2.951209e+04	1.834310e+00,	4.055725e-04	
148	3.019952e+04	1.834310e+00,	4.150194e-04	
149	3.090295e+04	1.834310e+00,	4.246865e-04	
150	3.162278e+04	1.834310e+00,	4.345787e-04	
151	3.235937e+04	1.834310e+00,	4.447013e-04	
152	3.311311e+04	1.834310e+00,	4.550598e-04	
153	3.388442e+04	1.834310e+00,	4.656595e-04	
154	3.467369e+04	1.834310e+00,	4.765061e-04	
155	3.548134e+04	1.834310e+00,	4.876053e-04	
156	3.630781e+04	1.834311e+00,	4.989631e-04	
157	3.715352e+04	1.834311e+00,	5.105854e-04	
158	3.801894e+04	1.834311e+00,	5.224785e-04	
159	3.890451e+04	1.834311e+00,	5.346486e-04	
160	3.981072e+04	1.834311e+00,	5.471022e-04	
161	4.073803e+04	1.834311e+00,	5.598458e-04	
162	4.168694e+04	1.834311e+00,	5.728863e-04	
163	4.265795e+04	1.834311e+00,	5.862305e-04	
164	4.365158e+04	1.834311e+00,	5.998856e-04	
165	4.466836e+04	1.834311e+00,	6.138587e-04	
166	4.570882e+04	1.834311e+00,	6.281573e-04	
167	4.677351e+04	1.834311e+00,	6.427890e-04	
168	4.786301e+04	1.834311e+00,	6.577614e-04	
169	4.897788e+04	1.834311e+00,	6.730827e-04	
170	5.011872e+04	1.834311e+00,	6.887608e-04	

Index   frequency       vop                             
--------------------------------------------------------------------------------
171	5.128614e+04	1.834311e+00,	7.048041e-04	
172	5.248075e+04	1.834311e+00,	7.212210e-04	
173	5.370318e+04	1.834311e+00,	7.380204e-04	
174	5.495409e+04	1.834311e+00,	7.552111e-04	
175	5.623413e+04	1.834311e+00,	7.728023e-04	
176	5.754399e+04	1.834311e+00,	7.908031e-04	
177	5.888437e+04	1.834311e+00,	8.092233e-04	
178	6.025596e+04	1.834311e+00,	8.280725e-04	
179	6.165950e+04	1.834311e+00,	8.473608e-04	
180	6.309573e+04	1.834311e+00,	8.670983e-04	
181	6.456542e+04	1.834311e+00,	8.872956e-04	
182	6.606934e+04	1.834311e+00,	9.079634e-04	
183	6.760830e+04	1.834311e+00,	9.291126e-04	
184	6.918310e+04	1.834311e+00,	9.507544e-04	
185	7.079458e+04	1.834311e+00,	9.729003e-04	
186	7.244360e+04	1.834311e+00,	9.955620e-04	
187	7.413102e+04	1.834311e+00,	1.018752e-03	
188	7.585776e+04	1.834311e+00,	1.042481e-03	
189	7.762471e+04	1.834311e+00,	1.066764e-03	
190	7.943282e+04	1.834311e+00,	1.091612e-03	
191	8.128305e+04	1.834311e+00,	1.117039e-03	
192	8.317638e+04	1.834311e+00,	1.143058e-03	
193	8.511380e+04	1.834311e+00,	1.169683e-03	
194	8.709636e+04	1.834311e+00,	1.196929e-03	
195	8.912509e+04	1.834311e+00,	1.224809e-03	
196	9.120108e+04	1.834311e+00,	1.253338e-03	
197	9.332543e+04	1.834311e+00,	1.282532e-03	
198	9.549926e+04	1.834311e+00,	1.312406e-03	
199	9.772372e+04	1.834312e+00,	1.342976e-03	
200	1.000000e+05	1.834312e+00,	1.374258e-03	
201	1.023293e+05	1.834312e+00,	1.406268e-03	
202	1.047129e+05	1.834312e+00,	1.439024e-03	
203	1.071519e+05	1.834312e+00,	1.472543e-03	
204	1.096478e+05	1.834312e+00,	1.506843e-03	
205	1.122018e+05	1.834312e+00,	1.541942e-03	
206	1.148154e+05	1.834312e+00,	1.577859e-03	
207	1.174898e+05	1.834312e+00,	1.614612e-03	
208	1.202264e+05	1.834312e+00,	1.652221e-03	
209	1.230269e+05	1.834312e+00,	1.690706e-03	
210	1.258925e+05	1.834312e+00,	1.730087e-03	
211	1.288250e+05	1.834312e+00,	1.770386e-03	
212	1.318257e+05	1.834312e+00,	1.811624e-03	
213	1.348963e+05	1.834313e+00,	1.853822e-03	
214	1.380384e+05	1.834313e+00,	1.897002e-03	
215	1.412538e+05	1.834313e+00,	1.941189e-03	
216	1.445440e+05	1.834313e+00,	1.986405e-03	
217	1.479108e+05	1.834313e+00,	2.032674e-03	
218	1.513561e+05	1.834313e+00,	2.080021e-03	
219	1.548817e+05	1.834313e+00,	2.128471e-03	
220	1.584893e+05	1.834313e+00,	2.178049e-03	
221	1.621810e+05	1.834314e+00,	2.228782e-03	
222	1.659587e+05	1.834314e+00,	2.280697e-03	
223	1.698244e+05	1.834314e+00,	2.333821e-03	
224	1.737801e+05	1.834314e+00,	2.388183e-03	
225	1.778279e+05	1.834314e+00,	2.443810e-03	
226	1.819701e+05	1.834314e+00,	2.500734e-03	
227	1.862087e+05	1.834315e+00,	2.558983e-03	
228	1.905461e+05	1.834315e+00,	2.618589e-03	

Index   frequency       vop                             
--------------------------------------------------------------------------------
229	1.949845e+05	1.834315e+00,	2.679584e-03	
230	1.995262e+05	1.834315e+00,	2.741999e-03	
231	2.041738e+05	1.834315e+00,	2.805868e-03	
232	2.089296e+05	1.834316e+00,	2.871225e-03	
233	2.137962e+05	1.834316e+00,	2.938104e-03	
234	2.187762e+05	1.834316e+00,	3.006540e-03	
235	2.238721e+05	1.834316e+00,	3.076571e-03	
236	2.290868e+05	1.834317e+00,	3.148233e-03	
237	2.344229e+05	1.834317e+00,	3.221564e-03	
238	2.398833e+05	1.834317e+00,	3.296604e-03	
239	2.454709e+05	1.834318e+00,	3.373391e-03	
240	2.511886e+05	1.834318e+00,	3.451967e-03	
241	2.570396e+05	1.834318e+00,	3.532372e-03	
242	2.630268e+05	1.834319e+00,	3.614651e-03	
243	2.691535e+05	1.834319e+00,	3.698846e-03	
244	2.754229e+05	1.834320e+00,	3.785003e-03	
245	2.818383e+05	1.834320e+00,	3.873166e-03	
246	2.884032e+05	1.834321e+00,	3.963382e-03	
247	2.951209e+05	1.834321e+00,	4.055700e-03	
248	3.019952e+05	1.834322e+00,	4.150168e-03	
249	3.090295e+05	1.834322e+00,	4.246837e-03	
250	3.162278e+05	1.834323e+00,	4.345757e-03	
251	3.235937e+05	1.834323e+00,	4.446981e-03	
252	3.311311e+05	1.834324e+00,	4.550563e-03	
253	3.388442e+05	1.834324e+00,	4.656558e-03	
254	3.467369e+05	1.834325e+00,	4.765021e-03	
255	3.548134e+05	1.834326e+00,	4.876011e-03	
256	3.630781e+05	1.834327e+00,	4.989586e-03	
257	3.715352e+05	1.834327e+00,	5.105806e-03	
258	3.801894e+05	1.834328e+00,	5.224733e-03	
259	3.890451e+05	1.834329e+00,	5.346430e-03	
260	3.981072e+05	1.834330e+00,	5.470962e-03	
261	4.073803e+05	1.834331e+00,	5.598394e-03	
262	4.168694e+05	1.834332e+00,	5.728794e-03	
263	4.265795e+05	1.834333e+00,	5.862232e-03	
264	4.365158e+05	1.834334e+00,	5.998777e-03	
265	4.466836e+05	1.834335e+00,	6.138503e-03	
266	4.570882e+05	1.834336e+00,	6.281483e-03	
267	4.677351e+05	1.834337e+00,	6.427793e-03	
268	4.786301e+05	1.834338e+00,	6.577511e-03	
269	4.897788e+05	1.834340e+00,	6.730716e-03	
270	5.011872e+05	1.834341e+00,	6.887489e-03	
271	5.128614e+05	1.834343e+00,	7.047913e-03	
272	5.248075e+05	1.834344e+00,	7.212074e-03	
273	5.370318e+05	1.834346e+00,	7.380058e-03	
274	5.495409e+05	1.834347e+00,	7.551955e-03	
275	5.623413e+05	1.834349e+00,	7.727855e-03	
276	5.754399e+05	1.834351e+00,	7.907852e-03	
277	5.888437e+05	1.834353e+00,	8.092040e-03	
278	6.025596e+05	1.834355e+00,	8.280519e-03	
279	6.165950e+05	1.834357e+00,	8.473387e-03	
280	6.309573e+05	1.834359e+00,	8.670747e-03	
281	6.456542e+05	1.834361e+00,	8.872703e-03	
282	6.606934e+05	1.834364e+00,	9.079362e-03	
283	6.760830e+05	1.834366e+00,	9.290834e-03	
284	6.918310e+05	1.834369e+00,	9.507231e-03	
285	7.079458e+05	1.834372e+00,	9.728668e-03	
286	7.244360e+05	1.834375e+00,	9.955262e-03	

Index   frequency       vop                             
--------------------------------------------------------------------------------
287	7.413102e+05	1.834378e+00,	1.018713e-02	
288	7.585776e+05	1.834381e+00,	1.042440e-02	
289	7.762471e+05	1.834384e+00,	1.066720e-02	
290	7.943282e+05	1.834388e+00,	1.091565e-02	
291	8.128305e+05	1.834391e+00,	1.116988e-02	
292	8.317638e+05	1.834395e+00,	1.143004e-02	
293	8.511380e+05	1.834399e+00,	1.169625e-02	
294	8.709636e+05	1.834403e+00,	1.196866e-02	
295	8.912509e+05	1.834408e+00,	1.224742e-02	
296	9.120108e+05	1.834412e+00,	1.253267e-02	
297	9.332543e+05	1.834417e+00,	1.282455e-02	
298	9.549926e+05	1.834422e+00,	1.312324e-02	
299	9.772372e+05	1.834427e+00,	1.342888e-02	
300	1.000000e+06	1.834433e+00,	1.374163e-02	
301	1.023293e+06	1.834439e+00,	1.406167e-02	
302	1.047129e+06	1.834445e+00,	1.438916e-02	
303	1.071519e+06	1.834451e+00,	1.472427e-02	
304	1.096478e+06	1.834458e+00,	1.506719e-02	
305	1.122018e+06	1.834465e+00,	1.541809e-02	
306	1.148154e+06	1.834472e+00,	1.577716e-02	
307	1.174898e+06	1.834480e+00,	1.614459e-02	
308	1.202264e+06	1.834488e+00,	1.652057e-02	
309	1.230269e+06	1.834496e+00,	1.690530e-02	
310	1.258925e+06	1.834505e+00,	1.729899e-02	
311	1.288250e+06	1.834514e+00,	1.770184e-02	
312	1.318257e+06	1.834523e+00,	1.811408e-02	
313	1.348963e+06	1.834533e+00,	1.853590e-02	
314	1.380384e+06	1.834544e+00,	1.896755e-02	
315	1.412538e+06	1.834555e+00,	1.940924e-02	
316	1.445440e+06	1.834566e+00,	1.986120e-02	
317	1.479108e+06	1.834578e+00,	2.032369e-02	
318	1.513561e+06	1.834591e+00,	2.079694e-02	
319	1.548817e+06	1.834604e+00,	2.128121e-02	
320	1.584893e+06	1.834618e+00,	2.177674e-02	
321	1.621810e+06	1.834633e+00,	2.228380e-02	
322	1.659587e+06	1.834648e+00,	2.280266e-02	
323	1.698244e+06	1.834664e+00,	2.333360e-02	
324	1.737801e+06	1.834680e+00,	2.387688e-02	
325	1.778279e+06	1.834698e+00,	2.443280e-02	
326	1.819701e+06	1.834716e+00,	2.500166e-02	
327	1.862087e+06	1.834735e+00,	2.558375e-02	
328	1.905461e+06	1.834755e+00,	2.617937e-02	
329	1.949845e+06	1.834776e+00,	2.678885e-02	
330	1.995262e+06	1.834798e+00,	2.741250e-02	
331	2.041738e+06	1.834821e+00,	2.805066e-02	
332	2.089296e+06	1.834845e+00,	2.870365e-02	
333	2.137962e+06	1.834871e+00,	2.937182e-02	
334	2.187762e+06	1.834897e+00,	3.005553e-02	
335	2.238721e+06	1.834925e+00,	3.075514e-02	
336	2.290868e+06	1.834953e+00,	3.147100e-02	
337	2.344229e+06	1.834984e+00,	3.220350e-02	
338	2.398833e+06	1.835015e+00,	3.295303e-02	
339	2.454709e+06	1.835049e+00,	3.371997e-02	
340	2.511886e+06	1.835083e+00,	3.450473e-02	
341	2.570396e+06	1.835120e+00,	3.530772e-02	
342	2.630268e+06	1.835158e+00,	3.612936e-02	
343	2.691535e+06	1.835198e+00,	3.697009e-02	
344	2.754229e+06	1.835240e+00,	3.783034e-02	

Index   frequency       vop                             
--------------------------------------------------------------------------------
345	2.818383e+06	1.835284e+00,	3.871056e-02	
346	2.884032e+06	1.835329e+00,	3.961122e-02	
347	2.951209e+06	1.835377e+00,	4.053278e-02	
348	3.019952e+06	1.835428e+00,	4.147573e-02	
349	3.090295e+06	1.835480e+00,	4.244056e-02	
350	3.162278e+06	1.835535e+00,	4.342777e-02	
351	3.235937e+06	1.835593e+00,	4.443789e-02	
352	3.311311e+06	1.835654e+00,	4.547142e-02	
353	3.388442e+06	1.835717e+00,	4.652892e-02	
354	3.467369e+06	1.835783e+00,	4.761094e-02	
355	3.548134e+06	1.835852e+00,	4.871803e-02	
356	3.630781e+06	1.835925e+00,	4.985077e-02	
357	3.715352e+06	1.836001e+00,	5.100974e-02	
358	3.801894e+06	1.836081e+00,	5.219556e-02	
359	3.890451e+06	1.836164e+00,	5.340883e-02	
360	3.981072e+06	1.836251e+00,	5.465019e-02	
361	4.073803e+06	1.836343e+00,	5.592026e-02	
362	4.168694e+06	1.836438e+00,	5.721971e-02	
363	4.265795e+06	1.836539e+00,	5.854921e-02	
364	4.365158e+06	1.836643e+00,	5.990944e-02	
365	4.466836e+06	1.836753e+00,	6.130110e-02	
366	4.570882e+06	1.836868e+00,	6.272490e-02	
367	4.677351e+06	1.836989e+00,	6.418157e-02	
368	4.786301e+06	1.837115e+00,	6.567187e-02	
369	4.897788e+06	1.837247e+00,	6.719654e-02	
370	5.011872e+06	1.837385e+00,	6.875637e-02	
371	5.128614e+06	1.837530e+00,	7.035214e-02	
372	5.248075e+06	1.837681e+00,	7.198468e-02	
373	5.370318e+06	1.837840e+00,	7.365480e-02	
374	5.495409e+06	1.838006e+00,	7.536335e-02	
375	5.623413e+06	1.838179e+00,	7.711120e-02	
376	5.754399e+06	1.838361e+00,	7.889921e-02	
377	5.888437e+06	1.838552e+00,	8.072829e-02	
378	6.025596e+06	1.838751e+00,	8.259936e-02	
379	6.165950e+06	1.838960e+00,	8.451334e-02	
380	6.309573e+06	1.839179e+00,	8.647119e-02	
381	6.456542e+06	1.839408e+00,	8.847389e-02	
382	6.606934e+06	1.839647e+00,	9.052241e-02	
383	6.760830e+06	1.839898e+00,	9.261777e-02	
384	6.918310e+06	1.840161e+00,	9.476100e-02	
385	7.079458e+06	1.840436e+00,	9.695315e-02	
386	7.244360e+06	1.840723e+00,	9.919528e-02	
387	7.413102e+06	1.841025e+00,	1.014885e-01	
388	7.585776e+06	1.841340e+00,	1.038339e-01	
389	7.762471e+06	1.841670e+00,	1.062326e-01	
390	7.943282e+06	1.842016e+00,	1.086857e-01	
391	8.128305e+06	1.842377e+00,	1.111945e-01	
392	8.317638e+06	1.842756e+00,	1.137601e-01	
393	8.511380e+06	1.843152e+00,	1.163837e-01	
394	8.709636e+06	1.843567e+00,	1.190665e-01	
395	8.912509e+06	1.844001e+00,	1.218099e-01	
396	9.120108e+06	1.844456e+00,	1.246150e-01	
397	9.332543e+06	1.844931e+00,	1.274832e-01	
398	9.549926e+06	1.845429e+00,	1.304157e-01	
399	9.772372e+06	1.845950e+00,	1.334139e-01	
400	1.000000e+07	1.846495e+00,	1.364792e-01	
401	1.023293e+07	1.847066e+00,	1.396128e-01	
402	1.047129e+07	1.847663e+00,	1.428162e-01	

Index   frequency       vop                             
--------------------------------------------------------------------------------
403	1.071519e+07	1.848288e+00,	1.460908e-01	
404	1.096478e+07	1.848942e+00,	1.494380e-01	
405	1.122018e+07	1.849627e+00,	1.528592e-01	
406	1.148154e+07	1.850343e+00,	1.563558e-01	
407	1.174898e+07	1.851092e+00,	1.599294e-01	
408	1.202264e+07	1.851876e+00,	1.635814e-01	
409	1.230269e+07	1.852697e+00,	1.673133e-01	
410	1.258925e+07	1.853555e+00,	1.711266e-01	
411	1.288250e+07	1.854453e+00,	1.750228e-01	
412	1.318257e+07	1.855393e+00,	1.790034e-01	
413	1.348963e+07	1.856376e+00,	1.830699e-01	
414	1.380384e+07	1.857404e+00,	1.872239e-01	
415	1.412538e+07	1.858479e+00,	1.914669e-01	
416	1.445440e+07	1.859604e+00,	1.958004e-01	
