** sch_path: /home/andylithia/openmpw/project-reisen-chip1/xschem/ota_wideband.sch
AC Analysis  Sun Oct 30 16:54:48  2022
--------------------------------------------------------------------------------
Index   frequency       vop                             
--------------------------------------------------------------------------------
0	1.000000e+03	1.834315e+00,	1.365437e-05	
1	1.023293e+03	1.834315e+00,	1.397242e-05	
2	1.047129e+03	1.834315e+00,	1.429788e-05	
3	1.071519e+03	1.834315e+00,	1.463092e-05	
4	1.096478e+03	1.834315e+00,	1.497172e-05	
5	1.122018e+03	1.834315e+00,	1.532046e-05	
6	1.148154e+03	1.834315e+00,	1.567732e-05	
7	1.174898e+03	1.834315e+00,	1.604249e-05	
8	1.202264e+03	1.834315e+00,	1.641617e-05	
9	1.230269e+03	1.834315e+00,	1.679855e-05	
10	1.258925e+03	1.834315e+00,	1.718984e-05	
11	1.288250e+03	1.834315e+00,	1.759024e-05	
12	1.318257e+03	1.834315e+00,	1.799997e-05	
13	1.348963e+03	1.834315e+00,	1.841924e-05	
14	1.380384e+03	1.834315e+00,	1.884828e-05	
15	1.412538e+03	1.834315e+00,	1.928731e-05	
16	1.445440e+03	1.834315e+00,	1.973657e-05	
17	1.479108e+03	1.834315e+00,	2.019630e-05	
18	1.513561e+03	1.834315e+00,	2.066673e-05	
19	1.548817e+03	1.834315e+00,	2.114812e-05	
20	1.584893e+03	1.834315e+00,	2.164072e-05	
21	1.621810e+03	1.834315e+00,	2.214480e-05	
22	1.659587e+03	1.834315e+00,	2.266062e-05	
23	1.698244e+03	1.834315e+00,	2.318845e-05	
24	1.737801e+03	1.834315e+00,	2.372858e-05	
25	1.778279e+03	1.834315e+00,	2.428129e-05	
26	1.819701e+03	1.834315e+00,	2.484687e-05	
27	1.862087e+03	1.834315e+00,	2.542563e-05	
28	1.905461e+03	1.834315e+00,	2.601787e-05	
29	1.949845e+03	1.834315e+00,	2.662390e-05	
30	1.995262e+03	1.834315e+00,	2.724405e-05	
31	2.041738e+03	1.834315e+00,	2.787865e-05	
32	2.089296e+03	1.834315e+00,	2.852803e-05	
33	2.137962e+03	1.834315e+00,	2.919253e-05	
34	2.187762e+03	1.834315e+00,	2.987251e-05	
35	2.238721e+03	1.834315e+00,	3.056833e-05	
36	2.290868e+03	1.834315e+00,	3.128036e-05	
37	2.344229e+03	1.834315e+00,	3.200897e-05	
38	2.398833e+03	1.834315e+00,	3.275456e-05	
39	2.454709e+03	1.834315e+00,	3.351751e-05	
40	2.511886e+03	1.834315e+00,	3.429823e-05	
41	2.570396e+03	1.834315e+00,	3.509714e-05	
42	2.630268e+03	1.834315e+00,	3.591466e-05	
43	2.691535e+03	1.834315e+00,	3.675122e-05	
44	2.754229e+03	1.834315e+00,	3.760726e-05	
45	2.818383e+03	1.834315e+00,	3.848325e-05	
46	2.884032e+03	1.834315e+00,	3.937964e-05	
47	2.951209e+03	1.834315e+00,	4.029691e-05	
48	3.019952e+03	1.834315e+00,	4.123554e-05	
49	3.090295e+03	1.834315e+00,	4.219604e-05	
50	3.162278e+03	1.834315e+00,	4.317892e-05	
51	3.235937e+03	1.834315e+00,	4.418468e-05	
52	3.311311e+03	1.834315e+00,	4.521388e-05	
53	3.388442e+03	1.834315e+00,	4.626704e-05	
54	3.467369e+03	1.834315e+00,	4.734474e-05	

Index   frequency       vop                             
--------------------------------------------------------------------------------
55	3.548134e+03	1.834315e+00,	4.844754e-05	
56	3.630781e+03	1.834315e+00,	4.957603e-05	
57	3.715352e+03	1.834315e+00,	5.073080e-05	
58	3.801894e+03	1.834315e+00,	5.191247e-05	
59	3.890451e+03	1.834315e+00,	5.312167e-05	
60	3.981072e+03	1.834315e+00,	5.435903e-05	
61	4.073803e+03	1.834315e+00,	5.562522e-05	
62	4.168694e+03	1.834315e+00,	5.692090e-05	
63	4.265795e+03	1.834315e+00,	5.824675e-05	
64	4.365158e+03	1.834315e+00,	5.960350e-05	
65	4.466836e+03	1.834315e+00,	6.099184e-05	
66	4.570882e+03	1.834315e+00,	6.241252e-05	
67	4.677351e+03	1.834315e+00,	6.386630e-05	
68	4.786301e+03	1.834315e+00,	6.535393e-05	
69	4.897788e+03	1.834315e+00,	6.687622e-05	
70	5.011872e+03	1.834315e+00,	6.843397e-05	
71	5.128614e+03	1.834315e+00,	7.002800e-05	
72	5.248075e+03	1.834315e+00,	7.165916e-05	
73	5.370318e+03	1.834315e+00,	7.332832e-05	
74	5.495409e+03	1.834315e+00,	7.503636e-05	
75	5.623413e+03	1.834315e+00,	7.678418e-05	
76	5.754399e+03	1.834315e+00,	7.857271e-05	
77	5.888437e+03	1.834315e+00,	8.040290e-05	
78	6.025596e+03	1.834315e+00,	8.227573e-05	
79	6.165950e+03	1.834315e+00,	8.419218e-05	
80	6.309573e+03	1.834315e+00,	8.615326e-05	
81	6.456542e+03	1.834315e+00,	8.816003e-05	
82	6.606934e+03	1.834315e+00,	9.021354e-05	
83	6.760830e+03	1.834315e+00,	9.231488e-05	
84	6.918310e+03	1.834315e+00,	9.446517e-05	
85	7.079458e+03	1.834315e+00,	9.666555e-05	
86	7.244360e+03	1.834315e+00,	9.891718e-05	
87	7.413102e+03	1.834315e+00,	1.012213e-04	
88	7.585776e+03	1.834315e+00,	1.035790e-04	
89	7.762471e+03	1.834315e+00,	1.059917e-04	
90	7.943282e+03	1.834315e+00,	1.084605e-04	
91	8.128305e+03	1.834315e+00,	1.109869e-04	
92	8.317638e+03	1.834315e+00,	1.135721e-04	
93	8.511380e+03	1.834315e+00,	1.162176e-04	
94	8.709636e+03	1.834315e+00,	1.189246e-04	
95	8.912509e+03	1.834315e+00,	1.216947e-04	
96	9.120108e+03	1.834315e+00,	1.245294e-04	
97	9.332543e+03	1.834315e+00,	1.274300e-04	
98	9.549926e+03	1.834315e+00,	1.303982e-04	
99	9.772372e+03	1.834315e+00,	1.334356e-04	
100	1.000000e+04	1.834315e+00,	1.365437e-04	
101	1.023293e+04	1.834315e+00,	1.397242e-04	
102	1.047129e+04	1.834315e+00,	1.429788e-04	
103	1.071519e+04	1.834315e+00,	1.463092e-04	
104	1.096478e+04	1.834315e+00,	1.497172e-04	
105	1.122018e+04	1.834315e+00,	1.532046e-04	
106	1.148154e+04	1.834315e+00,	1.567732e-04	
107	1.174898e+04	1.834315e+00,	1.604249e-04	
108	1.202264e+04	1.834315e+00,	1.641617e-04	
109	1.230269e+04	1.834315e+00,	1.679855e-04	
110	1.258925e+04	1.834315e+00,	1.718984e-04	
111	1.288250e+04	1.834315e+00,	1.759024e-04	
112	1.318257e+04	1.834315e+00,	1.799997e-04	

Index   frequency       vop                             
--------------------------------------------------------------------------------
113	1.348963e+04	1.834315e+00,	1.841924e-04	
114	1.380384e+04	1.834315e+00,	1.884828e-04	
115	1.412538e+04	1.834315e+00,	1.928731e-04	
116	1.445440e+04	1.834315e+00,	1.973657e-04	
117	1.479108e+04	1.834315e+00,	2.019630e-04	
118	1.513561e+04	1.834315e+00,	2.066673e-04	
119	1.548817e+04	1.834315e+00,	2.114812e-04	
120	1.584893e+04	1.834315e+00,	2.164072e-04	
121	1.621810e+04	1.834315e+00,	2.214480e-04	
122	1.659587e+04	1.834315e+00,	2.266062e-04	
123	1.698244e+04	1.834315e+00,	2.318845e-04	
124	1.737801e+04	1.834315e+00,	2.372858e-04	
125	1.778279e+04	1.834315e+00,	2.428129e-04	
126	1.819701e+04	1.834315e+00,	2.484687e-04	
127	1.862087e+04	1.834315e+00,	2.542563e-04	
128	1.905461e+04	1.834315e+00,	2.601787e-04	
129	1.949845e+04	1.834315e+00,	2.662390e-04	
130	1.995262e+04	1.834315e+00,	2.724405e-04	
131	2.041738e+04	1.834315e+00,	2.787865e-04	
132	2.089296e+04	1.834315e+00,	2.852803e-04	
133	2.137962e+04	1.834315e+00,	2.919253e-04	
134	2.187762e+04	1.834315e+00,	2.987251e-04	
135	2.238721e+04	1.834315e+00,	3.056833e-04	
136	2.290868e+04	1.834315e+00,	3.128036e-04	
137	2.344229e+04	1.834315e+00,	3.200897e-04	
138	2.398833e+04	1.834315e+00,	3.275456e-04	
139	2.454709e+04	1.834315e+00,	3.351751e-04	
140	2.511886e+04	1.834315e+00,	3.429823e-04	
141	2.570396e+04	1.834315e+00,	3.509714e-04	
142	2.630268e+04	1.834315e+00,	3.591466e-04	
143	2.691535e+04	1.834315e+00,	3.675122e-04	
144	2.754229e+04	1.834315e+00,	3.760726e-04	
145	2.818383e+04	1.834315e+00,	3.848325e-04	
146	2.884032e+04	1.834315e+00,	3.937964e-04	
147	2.951209e+04	1.834315e+00,	4.029691e-04	
148	3.019952e+04	1.834315e+00,	4.123554e-04	
149	3.090295e+04	1.834315e+00,	4.219604e-04	
150	3.162278e+04	1.834315e+00,	4.317891e-04	
151	3.235937e+04	1.834315e+00,	4.418468e-04	
152	3.311311e+04	1.834315e+00,	4.521387e-04	
153	3.388442e+04	1.834315e+00,	4.626704e-04	
154	3.467369e+04	1.834315e+00,	4.734474e-04	
155	3.548134e+04	1.834315e+00,	4.844754e-04	
156	3.630781e+04	1.834315e+00,	4.957602e-04	
157	3.715352e+04	1.834315e+00,	5.073080e-04	
158	3.801894e+04	1.834315e+00,	5.191247e-04	
159	3.890451e+04	1.834315e+00,	5.312167e-04	
160	3.981072e+04	1.834315e+00,	5.435903e-04	
161	4.073803e+04	1.834315e+00,	5.562521e-04	
162	4.168694e+04	1.834315e+00,	5.692089e-04	
163	4.265795e+04	1.834315e+00,	5.824675e-04	
164	4.365158e+04	1.834315e+00,	5.960349e-04	
165	4.466836e+04	1.834315e+00,	6.099183e-04	
166	4.570882e+04	1.834315e+00,	6.241251e-04	
167	4.677351e+04	1.834315e+00,	6.386629e-04	
168	4.786301e+04	1.834315e+00,	6.535392e-04	
169	4.897788e+04	1.834315e+00,	6.687621e-04	
170	5.011872e+04	1.834315e+00,	6.843396e-04	

Index   frequency       vop                             
--------------------------------------------------------------------------------
171	5.128614e+04	1.834315e+00,	7.002799e-04	
172	5.248075e+04	1.834315e+00,	7.165915e-04	
173	5.370318e+04	1.834315e+00,	7.332831e-04	
174	5.495409e+04	1.834315e+00,	7.503634e-04	
175	5.623413e+04	1.834315e+00,	7.678416e-04	
176	5.754399e+04	1.834315e+00,	7.857269e-04	
177	5.888437e+04	1.834316e+00,	8.040288e-04	
178	6.025596e+04	1.834316e+00,	8.227571e-04	
179	6.165950e+04	1.834316e+00,	8.419215e-04	
180	6.309573e+04	1.834316e+00,	8.615324e-04	
181	6.456542e+04	1.834316e+00,	8.816001e-04	
182	6.606934e+04	1.834316e+00,	9.021351e-04	
183	6.760830e+04	1.834316e+00,	9.231486e-04	
184	6.918310e+04	1.834316e+00,	9.446514e-04	
185	7.079458e+04	1.834316e+00,	9.666552e-04	
186	7.244360e+04	1.834316e+00,	9.891715e-04	
187	7.413102e+04	1.834316e+00,	1.012212e-03	
188	7.585776e+04	1.834316e+00,	1.035790e-03	
189	7.762471e+04	1.834316e+00,	1.059916e-03	
190	7.943282e+04	1.834316e+00,	1.084605e-03	
191	8.128305e+04	1.834316e+00,	1.109869e-03	
192	8.317638e+04	1.834316e+00,	1.135721e-03	
193	8.511380e+04	1.834316e+00,	1.162175e-03	
194	8.709636e+04	1.834316e+00,	1.189245e-03	
195	8.912509e+04	1.834316e+00,	1.216947e-03	
196	9.120108e+04	1.834316e+00,	1.245293e-03	
197	9.332543e+04	1.834316e+00,	1.274299e-03	
198	9.549926e+04	1.834316e+00,	1.303982e-03	
199	9.772372e+04	1.834316e+00,	1.334355e-03	
200	1.000000e+05	1.834316e+00,	1.365436e-03	
201	1.023293e+05	1.834316e+00,	1.397241e-03	
202	1.047129e+05	1.834316e+00,	1.429787e-03	
203	1.071519e+05	1.834316e+00,	1.463091e-03	
204	1.096478e+05	1.834317e+00,	1.497171e-03	
205	1.122018e+05	1.834317e+00,	1.532044e-03	
206	1.148154e+05	1.834317e+00,	1.567730e-03	
207	1.174898e+05	1.834317e+00,	1.604247e-03	
208	1.202264e+05	1.834317e+00,	1.641615e-03	
209	1.230269e+05	1.834317e+00,	1.679853e-03	
210	1.258925e+05	1.834317e+00,	1.718982e-03	
211	1.288250e+05	1.834317e+00,	1.759022e-03	
212	1.318257e+05	1.834317e+00,	1.799995e-03	
213	1.348963e+05	1.834317e+00,	1.841922e-03	
214	1.380384e+05	1.834317e+00,	1.884826e-03	
215	1.412538e+05	1.834317e+00,	1.928729e-03	
216	1.445440e+05	1.834318e+00,	1.973654e-03	
217	1.479108e+05	1.834318e+00,	2.019627e-03	
218	1.513561e+05	1.834318e+00,	2.066670e-03	
219	1.548817e+05	1.834318e+00,	2.114808e-03	
220	1.584893e+05	1.834318e+00,	2.164068e-03	
221	1.621810e+05	1.834318e+00,	2.214476e-03	
222	1.659587e+05	1.834318e+00,	2.266058e-03	
223	1.698244e+05	1.834319e+00,	2.318841e-03	
224	1.737801e+05	1.834319e+00,	2.372853e-03	
225	1.778279e+05	1.834319e+00,	2.428124e-03	
226	1.819701e+05	1.834319e+00,	2.484682e-03	
227	1.862087e+05	1.834319e+00,	2.542557e-03	
228	1.905461e+05	1.834319e+00,	2.601781e-03	

Index   frequency       vop                             
--------------------------------------------------------------------------------
229	1.949845e+05	1.834320e+00,	2.662384e-03	
230	1.995262e+05	1.834320e+00,	2.724398e-03	
231	2.041738e+05	1.834320e+00,	2.787857e-03	
232	2.089296e+05	1.834320e+00,	2.852794e-03	
233	2.137962e+05	1.834321e+00,	2.919244e-03	
234	2.187762e+05	1.834321e+00,	2.987242e-03	
235	2.238721e+05	1.834321e+00,	3.056823e-03	
236	2.290868e+05	1.834321e+00,	3.128025e-03	
237	2.344229e+05	1.834322e+00,	3.200885e-03	
238	2.398833e+05	1.834322e+00,	3.275443e-03	
239	2.454709e+05	1.834322e+00,	3.351737e-03	
240	2.511886e+05	1.834323e+00,	3.429809e-03	
241	2.570396e+05	1.834323e+00,	3.509698e-03	
242	2.630268e+05	1.834323e+00,	3.591449e-03	
243	2.691535e+05	1.834324e+00,	3.675104e-03	
244	2.754229e+05	1.834324e+00,	3.760707e-03	
245	2.818383e+05	1.834325e+00,	3.848304e-03	
246	2.884032e+05	1.834325e+00,	3.937942e-03	
247	2.951209e+05	1.834326e+00,	4.029667e-03	
248	3.019952e+05	1.834326e+00,	4.123529e-03	
249	3.090295e+05	1.834327e+00,	4.219577e-03	
250	3.162278e+05	1.834327e+00,	4.317863e-03	
251	3.235937e+05	1.834328e+00,	4.418437e-03	
252	3.311311e+05	1.834328e+00,	4.521354e-03	
253	3.388442e+05	1.834329e+00,	4.626669e-03	
254	3.467369e+05	1.834330e+00,	4.734436e-03	
255	3.548134e+05	1.834330e+00,	4.844713e-03	
256	3.630781e+05	1.834331e+00,	4.957559e-03	
257	3.715352e+05	1.834332e+00,	5.073033e-03	
258	3.801894e+05	1.834333e+00,	5.191197e-03	
259	3.890451e+05	1.834333e+00,	5.312113e-03	
260	3.981072e+05	1.834334e+00,	5.435846e-03	
261	4.073803e+05	1.834335e+00,	5.562460e-03	
262	4.168694e+05	1.834336e+00,	5.692023e-03	
263	4.265795e+05	1.834337e+00,	5.824604e-03	
264	4.365158e+05	1.834338e+00,	5.960273e-03	
265	4.466836e+05	1.834339e+00,	6.099102e-03	
266	4.570882e+05	1.834340e+00,	6.241165e-03	
267	4.677351e+05	1.834341e+00,	6.386536e-03	
268	4.786301e+05	1.834343e+00,	6.535293e-03	
269	4.897788e+05	1.834344e+00,	6.687515e-03	
270	5.011872e+05	1.834345e+00,	6.843282e-03	
271	5.128614e+05	1.834347e+00,	7.002677e-03	
272	5.248075e+05	1.834348e+00,	7.165784e-03	
273	5.370318e+05	1.834350e+00,	7.332690e-03	
274	5.495409e+05	1.834351e+00,	7.503484e-03	
275	5.623413e+05	1.834353e+00,	7.678255e-03	
276	5.754399e+05	1.834355e+00,	7.857097e-03	
277	5.888437e+05	1.834357e+00,	8.040104e-03	
278	6.025596e+05	1.834359e+00,	8.227373e-03	
279	6.165950e+05	1.834361e+00,	8.419003e-03	
280	6.309573e+05	1.834363e+00,	8.615097e-03	
281	6.456542e+05	1.834365e+00,	8.815757e-03	
282	6.606934e+05	1.834368e+00,	9.021090e-03	
283	6.760830e+05	1.834370e+00,	9.231206e-03	
284	6.918310e+05	1.834373e+00,	9.446215e-03	
285	7.079458e+05	1.834375e+00,	9.666231e-03	
286	7.244360e+05	1.834378e+00,	9.891370e-03	

Index   frequency       vop                             
--------------------------------------------------------------------------------
287	7.413102e+05	1.834381e+00,	1.012175e-02	
288	7.585776e+05	1.834384e+00,	1.035750e-02	
289	7.762471e+05	1.834388e+00,	1.059874e-02	
290	7.943282e+05	1.834391e+00,	1.084559e-02	
291	8.128305e+05	1.834395e+00,	1.109820e-02	
292	8.317638e+05	1.834398e+00,	1.135669e-02	
293	8.511380e+05	1.834402e+00,	1.162119e-02	
294	8.709636e+05	1.834406e+00,	1.189186e-02	
295	8.912509e+05	1.834411e+00,	1.216882e-02	
296	9.120108e+05	1.834415e+00,	1.245224e-02	
297	9.332543e+05	1.834420e+00,	1.274226e-02	
298	9.549926e+05	1.834425e+00,	1.303903e-02	
299	9.772372e+05	1.834430e+00,	1.334271e-02	
300	1.000000e+06	1.834436e+00,	1.365346e-02	
301	1.023293e+06	1.834441e+00,	1.397144e-02	
302	1.047129e+06	1.834447e+00,	1.429683e-02	
303	1.071519e+06	1.834453e+00,	1.462980e-02	
304	1.096478e+06	1.834460e+00,	1.497052e-02	
305	1.122018e+06	1.834467e+00,	1.531917e-02	
306	1.148154e+06	1.834474e+00,	1.567593e-02	
307	1.174898e+06	1.834481e+00,	1.604101e-02	
308	1.202264e+06	1.834489e+00,	1.641458e-02	
309	1.230269e+06	1.834497e+00,	1.679684e-02	
310	1.258925e+06	1.834506e+00,	1.718801e-02	
311	1.288250e+06	1.834515e+00,	1.758828e-02	
312	1.318257e+06	1.834524e+00,	1.799787e-02	
313	1.348963e+06	1.834534e+00,	1.841700e-02	
314	1.380384e+06	1.834545e+00,	1.884587e-02	
315	1.412538e+06	1.834555e+00,	1.928474e-02	
316	1.445440e+06	1.834567e+00,	1.973381e-02	
317	1.479108e+06	1.834579e+00,	2.019334e-02	
318	1.513561e+06	1.834591e+00,	2.066356e-02	
319	1.548817e+06	1.834604e+00,	2.114472e-02	
320	1.584893e+06	1.834618e+00,	2.163708e-02	
321	1.621810e+06	1.834632e+00,	2.214090e-02	
322	1.659587e+06	1.834647e+00,	2.265644e-02	
323	1.698244e+06	1.834663e+00,	2.318397e-02	
324	1.737801e+06	1.834679e+00,	2.372378e-02	
325	1.778279e+06	1.834696e+00,	2.427615e-02	
326	1.819701e+06	1.834714e+00,	2.484136e-02	
327	1.862087e+06	1.834733e+00,	2.541973e-02	
328	1.905461e+06	1.834752e+00,	2.601154e-02	
329	1.949845e+06	1.834773e+00,	2.661712e-02	
330	1.995262e+06	1.834795e+00,	2.723679e-02	
331	2.041738e+06	1.834817e+00,	2.787087e-02	
332	2.089296e+06	1.834841e+00,	2.851969e-02	
333	2.137962e+06	1.834866e+00,	2.918359e-02	
334	2.187762e+06	1.834892e+00,	2.986294e-02	
335	2.238721e+06	1.834919e+00,	3.055807e-02	
336	2.290868e+06	1.834947e+00,	3.126937e-02	
337	2.344229e+06	1.834977e+00,	3.199719e-02	
338	2.398833e+06	1.835008e+00,	3.274194e-02	
339	2.454709e+06	1.835041e+00,	3.350398e-02	
340	2.511886e+06	1.835075e+00,	3.428374e-02	
341	2.570396e+06	1.835111e+00,	3.508161e-02	
342	2.630268e+06	1.835148e+00,	3.589802e-02	
343	2.691535e+06	1.835188e+00,	3.673339e-02	
344	2.754229e+06	1.835229e+00,	3.758816e-02	

Index   frequency       vop                             
--------------------------------------------------------------------------------
345	2.818383e+06	1.835272e+00,	3.846278e-02	
346	2.884032e+06	1.835317e+00,	3.935771e-02	
347	2.951209e+06	1.835364e+00,	4.027341e-02	
348	3.019952e+06	1.835413e+00,	4.121037e-02	
349	3.090295e+06	1.835465e+00,	4.216906e-02	
350	3.162278e+06	1.835519e+00,	4.315001e-02	
351	3.235937e+06	1.835576e+00,	4.415371e-02	
352	3.311311e+06	1.835635e+00,	4.518069e-02	
353	3.388442e+06	1.835698e+00,	4.623148e-02	
354	3.467369e+06	1.835763e+00,	4.730664e-02	
355	3.548134e+06	1.835831e+00,	4.840671e-02	
356	3.630781e+06	1.835902e+00,	4.953228e-02	
357	3.715352e+06	1.835977e+00,	5.068393e-02	
358	3.801894e+06	1.836055e+00,	5.186225e-02	
359	3.890451e+06	1.836137e+00,	5.306786e-02	
360	3.981072e+06	1.836223e+00,	5.430137e-02	
361	4.073803e+06	1.836313e+00,	5.556344e-02	
362	4.168694e+06	1.836407e+00,	5.685470e-02	
363	4.265795e+06	1.836505e+00,	5.817583e-02	
364	4.365158e+06	1.836608e+00,	5.952750e-02	
365	4.466836e+06	1.836716e+00,	6.091041e-02	
366	4.570882e+06	1.836829e+00,	6.232527e-02	
367	4.677351e+06	1.836948e+00,	6.377281e-02	
368	4.786301e+06	1.837072e+00,	6.525377e-02	
369	4.897788e+06	1.837202e+00,	6.676890e-02	
370	5.011872e+06	1.837337e+00,	6.831898e-02	
371	5.128614e+06	1.837480e+00,	6.990479e-02	
372	5.248075e+06	1.837628e+00,	7.152715e-02	
373	5.370318e+06	1.837784e+00,	7.318688e-02	
374	5.495409e+06	1.837948e+00,	7.488481e-02	
375	5.623413e+06	1.838119e+00,	7.662180e-02	
376	5.754399e+06	1.838297e+00,	7.839874e-02	
377	5.888437e+06	1.838485e+00,	8.021650e-02	
378	6.025596e+06	1.838681e+00,	8.207601e-02	
379	6.165950e+06	1.838886e+00,	8.397820e-02	
380	6.309573e+06	1.839101e+00,	8.592400e-02	
381	6.456542e+06	1.839326e+00,	8.791440e-02	
382	6.606934e+06	1.839562e+00,	8.995037e-02	
383	6.760830e+06	1.839808e+00,	9.203292e-02	
384	6.918310e+06	1.840067e+00,	9.416308e-02	
385	7.079458e+06	1.840337e+00,	9.634188e-02	
386	7.244360e+06	1.840620e+00,	9.857041e-02	
387	7.413102e+06	1.840916e+00,	1.008497e-01	
388	7.585776e+06	1.841226e+00,	1.031810e-01	
389	7.762471e+06	1.841551e+00,	1.055652e-01	
390	7.943282e+06	1.841891e+00,	1.080037e-01	
391	8.128305e+06	1.842246e+00,	1.104974e-01	
392	8.317638e+06	1.842619e+00,	1.130477e-01	
393	8.511380e+06	1.843008e+00,	1.156557e-01	
394	8.709636e+06	1.843416e+00,	1.183227e-01	
395	8.912509e+06	1.843843e+00,	1.210499e-01	
396	9.120108e+06	1.844290e+00,	1.238386e-01	
397	9.332543e+06	1.844758e+00,	1.266900e-01	
398	9.549926e+06	1.845248e+00,	1.296054e-01	
399	9.772372e+06	1.845760e+00,	1.325863e-01	
400	1.000000e+07	1.846297e+00,	1.356339e-01	
401	1.023293e+07	1.846858e+00,	1.387496e-01	
402	1.047129e+07	1.847446e+00,	1.419347e-01	

Index   frequency       vop                             
--------------------------------------------------------------------------------
403	1.071519e+07	1.848060e+00,	1.451908e-01	
404	1.096478e+07	1.848704e+00,	1.485191e-01	
405	1.122018e+07	1.849377e+00,	1.519211e-01	
406	1.148154e+07	1.850082e+00,	1.553984e-01	
407	1.174898e+07	1.850819e+00,	1.589522e-01	
408	1.202264e+07	1.851591e+00,	1.625842e-01	
409	1.230269e+07	1.852398e+00,	1.662958e-01	
410	1.258925e+07	1.853243e+00,	1.700885e-01	
411	1.288250e+07	1.854127e+00,	1.739639e-01	
412	1.318257e+07	1.855051e+00,	1.779234e-01	
413	1.348963e+07	1.856019e+00,	1.819686e-01	
414	1.380384e+07	1.857031e+00,	1.861010e-01	
415	1.412538e+07	1.858089e+00,	1.903222e-01	
416	1.445440e+07	1.859197e+00,	1.946336e-01	
