  ** sch_path: /home/andylithia/openmpw/project-reisen-chip1/xschem/ctle_3.sch
  AC Analysis  Sun Oct 30 23:22:42  2022
--------------------------------------------------------------------------------
Index   frequency       vop                             
--------------------------------------------------------------------------------
0	1.000000e+03	7.827595e-01,	2.953918e-07	
1	1.023293e+03	7.827595e-01,	3.022723e-07	
2	1.047129e+03	7.827595e-01,	3.093132e-07	
3	1.071519e+03	7.827595e-01,	3.165180e-07	
4	1.096478e+03	7.827595e-01,	3.238906e-07	
5	1.122018e+03	7.827595e-01,	3.314350e-07	
6	1.148154e+03	7.827595e-01,	3.391551e-07	
7	1.174898e+03	7.827595e-01,	3.470551e-07	
8	1.202264e+03	7.827595e-01,	3.551390e-07	
9	1.230269e+03	7.827595e-01,	3.634113e-07	
10	1.258925e+03	7.827595e-01,	3.718762e-07	
11	1.288250e+03	7.827595e-01,	3.805383e-07	
12	1.318257e+03	7.827595e-01,	3.894022e-07	
13	1.348963e+03	7.827595e-01,	3.984725e-07	
14	1.380384e+03	7.827595e-01,	4.077542e-07	
15	1.412538e+03	7.827595e-01,	4.172520e-07	
16	1.445440e+03	7.827595e-01,	4.269710e-07	
17	1.479108e+03	7.827595e-01,	4.369164e-07	
18	1.513561e+03	7.827595e-01,	4.470935e-07	
19	1.548817e+03	7.827595e-01,	4.575077e-07	
20	1.584893e+03	7.827595e-01,	4.681644e-07	
21	1.621810e+03	7.827595e-01,	4.790694e-07	
22	1.659587e+03	7.827595e-01,	4.902283e-07	
23	1.698244e+03	7.827595e-01,	5.016472e-07	
24	1.737801e+03	7.827595e-01,	5.133321e-07	
25	1.778279e+03	7.827595e-01,	5.252891e-07	
26	1.819701e+03	7.827595e-01,	5.375247e-07	
27	1.862087e+03	7.827595e-01,	5.500452e-07	
28	1.905461e+03	7.827595e-01,	5.628574e-07	
29	1.949845e+03	7.827595e-01,	5.759681e-07	
30	1.995262e+03	7.827595e-01,	5.893841e-07	
31	2.041738e+03	7.827595e-01,	6.031126e-07	
32	2.089296e+03	7.827595e-01,	6.171609e-07	
33	2.137962e+03	7.827595e-01,	6.315364e-07	
34	2.187762e+03	7.827595e-01,	6.462468e-07	
35	2.238721e+03	7.827595e-01,	6.612998e-07	
36	2.290868e+03	7.827595e-01,	6.767035e-07	
37	2.344229e+03	7.827595e-01,	6.924659e-07	
38	2.398833e+03	7.827595e-01,	7.085955e-07	
39	2.454709e+03	7.827595e-01,	7.251008e-07	
40	2.511886e+03	7.827595e-01,	7.419906e-07	
41	2.570396e+03	7.827595e-01,	7.592738e-07	
42	2.630268e+03	7.827595e-01,	7.769595e-07	
43	2.691535e+03	7.827595e-01,	7.950572e-07	
44	2.754229e+03	7.827595e-01,	8.135765e-07	
45	2.818383e+03	7.827595e-01,	8.325271e-07	
46	2.884032e+03	7.827595e-01,	8.519192e-07	
47	2.951209e+03	7.827595e-01,	8.717629e-07	
48	3.019952e+03	7.827595e-01,	8.920689e-07	
49	3.090295e+03	7.827595e-01,	9.128478e-07	
50	3.162278e+03	7.827595e-01,	9.341108e-07	
51	3.235937e+03	7.827595e-01,	9.558690e-07	
52	3.311311e+03	7.827595e-01,	9.781341e-07	
53	3.388442e+03	7.827595e-01,	1.000918e-06	
54	3.467369e+03	7.827595e-01,	1.024232e-06	

Index   frequency       vop                             
--------------------------------------------------------------------------------
55	3.548134e+03	7.827595e-01,	1.048090e-06	
56	3.630781e+03	7.827595e-01,	1.072503e-06	
57	3.715352e+03	7.827595e-01,	1.097484e-06	
58	3.801894e+03	7.827595e-01,	1.123048e-06	
59	3.890451e+03	7.827595e-01,	1.149207e-06	
60	3.981072e+03	7.827595e-01,	1.175976e-06	
61	4.073803e+03	7.827595e-01,	1.203368e-06	
62	4.168694e+03	7.827595e-01,	1.231398e-06	
63	4.265795e+03	7.827595e-01,	1.260081e-06	
64	4.365158e+03	7.827595e-01,	1.289432e-06	
65	4.466836e+03	7.827595e-01,	1.319467e-06	
66	4.570882e+03	7.827595e-01,	1.350201e-06	
67	4.677351e+03	7.827595e-01,	1.381651e-06	
68	4.786301e+03	7.827595e-01,	1.413834e-06	
69	4.897788e+03	7.827595e-01,	1.446766e-06	
70	5.011872e+03	7.827595e-01,	1.480466e-06	
71	5.128614e+03	7.827595e-01,	1.514950e-06	
72	5.248075e+03	7.827595e-01,	1.550238e-06	
73	5.370318e+03	7.827595e-01,	1.586348e-06	
74	5.495409e+03	7.827595e-01,	1.623299e-06	
75	5.623413e+03	7.827595e-01,	1.661110e-06	
76	5.754399e+03	7.827595e-01,	1.699802e-06	
77	5.888437e+03	7.827595e-01,	1.739396e-06	
78	6.025596e+03	7.827595e-01,	1.779911e-06	
79	6.165950e+03	7.827595e-01,	1.821371e-06	
80	6.309573e+03	7.827595e-01,	1.863796e-06	
81	6.456542e+03	7.827595e-01,	1.907209e-06	
82	6.606934e+03	7.827595e-01,	1.951634e-06	
83	6.760830e+03	7.827595e-01,	1.997093e-06	
84	6.918310e+03	7.827595e-01,	2.043612e-06	
85	7.079458e+03	7.827595e-01,	2.091214e-06	
86	7.244360e+03	7.827595e-01,	2.139924e-06	
87	7.413102e+03	7.827595e-01,	2.189769e-06	
88	7.585776e+03	7.827595e-01,	2.240776e-06	
89	7.762471e+03	7.827595e-01,	2.292970e-06	
90	7.943282e+03	7.827595e-01,	2.346380e-06	
91	8.128305e+03	7.827595e-01,	2.401034e-06	
92	8.317638e+03	7.827595e-01,	2.456962e-06	
93	8.511380e+03	7.827595e-01,	2.514192e-06	
94	8.709636e+03	7.827595e-01,	2.572755e-06	
95	8.912509e+03	7.827595e-01,	2.632682e-06	
96	9.120108e+03	7.827595e-01,	2.694005e-06	
97	9.332543e+03	7.827595e-01,	2.756756e-06	
98	9.549926e+03	7.827595e-01,	2.820970e-06	
99	9.772372e+03	7.827595e-01,	2.886678e-06	
100	1.000000e+04	7.827595e-01,	2.953918e-06	
101	1.023293e+04	7.827595e-01,	3.022723e-06	
102	1.047129e+04	7.827595e-01,	3.093132e-06	
103	1.071519e+04	7.827595e-01,	3.165180e-06	
104	1.096478e+04	7.827595e-01,	3.238906e-06	
105	1.122018e+04	7.827595e-01,	3.314350e-06	
106	1.148154e+04	7.827595e-01,	3.391551e-06	
107	1.174898e+04	7.827595e-01,	3.470551e-06	
108	1.202264e+04	7.827595e-01,	3.551390e-06	
109	1.230269e+04	7.827595e-01,	3.634113e-06	
110	1.258925e+04	7.827595e-01,	3.718762e-06	
111	1.288250e+04	7.827595e-01,	3.805383e-06	
112	1.318257e+04	7.827595e-01,	3.894022e-06	

Index   frequency       vop                             
--------------------------------------------------------------------------------
113	1.348963e+04	7.827595e-01,	3.984725e-06	
114	1.380384e+04	7.827595e-01,	4.077542e-06	
115	1.412538e+04	7.827595e-01,	4.172520e-06	
116	1.445440e+04	7.827595e-01,	4.269710e-06	
117	1.479108e+04	7.827595e-01,	4.369164e-06	
118	1.513561e+04	7.827595e-01,	4.470935e-06	
119	1.548817e+04	7.827595e-01,	4.575077e-06	
120	1.584893e+04	7.827595e-01,	4.681644e-06	
121	1.621810e+04	7.827595e-01,	4.790694e-06	
122	1.659587e+04	7.827595e-01,	4.902283e-06	
123	1.698244e+04	7.827595e-01,	5.016472e-06	
124	1.737801e+04	7.827595e-01,	5.133321e-06	
125	1.778279e+04	7.827595e-01,	5.252891e-06	
126	1.819701e+04	7.827595e-01,	5.375247e-06	
127	1.862087e+04	7.827595e-01,	5.500452e-06	
128	1.905461e+04	7.827595e-01,	5.628574e-06	
129	1.949845e+04	7.827595e-01,	5.759680e-06	
130	1.995262e+04	7.827595e-01,	5.893841e-06	
131	2.041738e+04	7.827595e-01,	6.031126e-06	
132	2.089296e+04	7.827595e-01,	6.171609e-06	
133	2.137962e+04	7.827595e-01,	6.315364e-06	
134	2.187762e+04	7.827595e-01,	6.462468e-06	
135	2.238721e+04	7.827595e-01,	6.612998e-06	
136	2.290868e+04	7.827595e-01,	6.767034e-06	
137	2.344229e+04	7.827595e-01,	6.924659e-06	
138	2.398833e+04	7.827595e-01,	7.085955e-06	
139	2.454709e+04	7.827595e-01,	7.251008e-06	
140	2.511886e+04	7.827595e-01,	7.419906e-06	
141	2.570396e+04	7.827595e-01,	7.592738e-06	
142	2.630268e+04	7.827595e-01,	7.769595e-06	
143	2.691535e+04	7.827595e-01,	7.950572e-06	
144	2.754229e+04	7.827595e-01,	8.135765e-06	
145	2.818383e+04	7.827595e-01,	8.325271e-06	
146	2.884032e+04	7.827595e-01,	8.519192e-06	
147	2.951209e+04	7.827595e-01,	8.717629e-06	
148	3.019952e+04	7.827595e-01,	8.920689e-06	
149	3.090295e+04	7.827595e-01,	9.128478e-06	
150	3.162278e+04	7.827595e-01,	9.341108e-06	
151	3.235937e+04	7.827595e-01,	9.558690e-06	
152	3.311311e+04	7.827595e-01,	9.781341e-06	
153	3.388442e+04	7.827595e-01,	1.000918e-05	
154	3.467369e+04	7.827595e-01,	1.024232e-05	
155	3.548134e+04	7.827595e-01,	1.048090e-05	
156	3.630781e+04	7.827595e-01,	1.072503e-05	
157	3.715352e+04	7.827595e-01,	1.097484e-05	
158	3.801894e+04	7.827595e-01,	1.123048e-05	
159	3.890451e+04	7.827595e-01,	1.149207e-05	
160	3.981072e+04	7.827595e-01,	1.175976e-05	
161	4.073803e+04	7.827595e-01,	1.203368e-05	
162	4.168694e+04	7.827595e-01,	1.231398e-05	
163	4.265795e+04	7.827595e-01,	1.260081e-05	
164	4.365158e+04	7.827595e-01,	1.289432e-05	
165	4.466836e+04	7.827595e-01,	1.319467e-05	
166	4.570882e+04	7.827595e-01,	1.350201e-05	
167	4.677351e+04	7.827595e-01,	1.381651e-05	
168	4.786301e+04	7.827595e-01,	1.413834e-05	
169	4.897788e+04	7.827595e-01,	1.446766e-05	
170	5.011872e+04	7.827595e-01,	1.480466e-05	

Index   frequency       vop                             
--------------------------------------------------------------------------------
171	5.128614e+04	7.827595e-01,	1.514950e-05	
172	5.248075e+04	7.827595e-01,	1.550238e-05	
173	5.370318e+04	7.827595e-01,	1.586348e-05	
174	5.495409e+04	7.827595e-01,	1.623298e-05	
175	5.623413e+04	7.827595e-01,	1.661110e-05	
176	5.754399e+04	7.827595e-01,	1.699802e-05	
177	5.888437e+04	7.827595e-01,	1.739396e-05	
178	6.025596e+04	7.827595e-01,	1.779911e-05	
179	6.165950e+04	7.827595e-01,	1.821371e-05	
180	6.309573e+04	7.827595e-01,	1.863796e-05	
181	6.456542e+04	7.827595e-01,	1.907209e-05	
182	6.606934e+04	7.827595e-01,	1.951634e-05	
183	6.760830e+04	7.827595e-01,	1.997093e-05	
184	6.918310e+04	7.827595e-01,	2.043612e-05	
185	7.079458e+04	7.827595e-01,	2.091213e-05	
186	7.244360e+04	7.827595e-01,	2.139924e-05	
187	7.413102e+04	7.827595e-01,	2.189769e-05	
188	7.585776e+04	7.827595e-01,	2.240775e-05	
189	7.762471e+04	7.827595e-01,	2.292970e-05	
190	7.943282e+04	7.827595e-01,	2.346380e-05	
191	8.128305e+04	7.827595e-01,	2.401034e-05	
192	8.317638e+04	7.827595e-01,	2.456961e-05	
193	8.511380e+04	7.827595e-01,	2.514191e-05	
194	8.709636e+04	7.827595e-01,	2.572754e-05	
195	8.912509e+04	7.827595e-01,	2.632681e-05	
196	9.120108e+04	7.827595e-01,	2.694004e-05	
197	9.332543e+04	7.827595e-01,	2.756756e-05	
198	9.549926e+04	7.827595e-01,	2.820969e-05	
199	9.772372e+04	7.827595e-01,	2.886678e-05	
200	1.000000e+05	7.827595e-01,	2.953917e-05	
201	1.023293e+05	7.827595e-01,	3.022723e-05	
202	1.047129e+05	7.827595e-01,	3.093131e-05	
203	1.071519e+05	7.827595e-01,	3.165179e-05	
204	1.096478e+05	7.827595e-01,	3.238906e-05	
205	1.122018e+05	7.827595e-01,	3.314349e-05	
206	1.148154e+05	7.827595e-01,	3.391550e-05	
207	1.174898e+05	7.827595e-01,	3.470550e-05	
208	1.202264e+05	7.827595e-01,	3.551389e-05	
209	1.230269e+05	7.827595e-01,	3.634112e-05	
210	1.258925e+05	7.827595e-01,	3.718761e-05	
211	1.288250e+05	7.827595e-01,	3.805382e-05	
212	1.318257e+05	7.827595e-01,	3.894020e-05	
213	1.348963e+05	7.827595e-01,	3.984724e-05	
214	1.380384e+05	7.827595e-01,	4.077540e-05	
215	1.412538e+05	7.827595e-01,	4.172518e-05	
216	1.445440e+05	7.827595e-01,	4.269708e-05	
217	1.479108e+05	7.827595e-01,	4.369162e-05	
218	1.513561e+05	7.827595e-01,	4.470933e-05	
219	1.548817e+05	7.827595e-01,	4.575074e-05	
220	1.584893e+05	7.827595e-01,	4.681642e-05	
221	1.621810e+05	7.827595e-01,	4.790691e-05	
222	1.659587e+05	7.827595e-01,	4.902280e-05	
223	1.698244e+05	7.827595e-01,	5.016469e-05	
224	1.737801e+05	7.827595e-01,	5.133317e-05	
225	1.778279e+05	7.827595e-01,	5.252887e-05	
226	1.819701e+05	7.827595e-01,	5.375243e-05	
227	1.862087e+05	7.827595e-01,	5.500448e-05	
228	1.905461e+05	7.827595e-01,	5.628570e-05	

Index   frequency       vop                             
--------------------------------------------------------------------------------
229	1.949845e+05	7.827595e-01,	5.759676e-05	
230	1.995262e+05	7.827595e-01,	5.893836e-05	
231	2.041738e+05	7.827595e-01,	6.031120e-05	
232	2.089296e+05	7.827595e-01,	6.171603e-05	
233	2.137962e+05	7.827595e-01,	6.315358e-05	
234	2.187762e+05	7.827595e-01,	6.462461e-05	
235	2.238721e+05	7.827595e-01,	6.612991e-05	
236	2.290868e+05	7.827595e-01,	6.767027e-05	
237	2.344229e+05	7.827595e-01,	6.924651e-05	
238	2.398833e+05	7.827595e-01,	7.085946e-05	
239	2.454709e+05	7.827596e-01,	7.250999e-05	
240	2.511886e+05	7.827596e-01,	7.419896e-05	
241	2.570396e+05	7.827596e-01,	7.592727e-05	
242	2.630268e+05	7.827596e-01,	7.769584e-05	
243	2.691535e+05	7.827596e-01,	7.950560e-05	
244	2.754229e+05	7.827596e-01,	8.135752e-05	
245	2.818383e+05	7.827596e-01,	8.325257e-05	
246	2.884032e+05	7.827596e-01,	8.519176e-05	
247	2.951209e+05	7.827596e-01,	8.717613e-05	
248	3.019952e+05	7.827596e-01,	8.920671e-05	
249	3.090295e+05	7.827596e-01,	9.128459e-05	
250	3.162278e+05	7.827596e-01,	9.341088e-05	
251	3.235937e+05	7.827596e-01,	9.558669e-05	
252	3.311311e+05	7.827596e-01,	9.781318e-05	
253	3.388442e+05	7.827596e-01,	1.000915e-04	
254	3.467369e+05	7.827596e-01,	1.024229e-04	
255	3.548134e+05	7.827596e-01,	1.048087e-04	
256	3.630781e+05	7.827596e-01,	1.072500e-04	
257	3.715352e+05	7.827596e-01,	1.097481e-04	
258	3.801894e+05	7.827596e-01,	1.123045e-04	
259	3.890451e+05	7.827596e-01,	1.149204e-04	
260	3.981072e+05	7.827596e-01,	1.175972e-04	
261	4.073803e+05	7.827596e-01,	1.203363e-04	
262	4.168694e+05	7.827596e-01,	1.231393e-04	
263	4.265795e+05	7.827596e-01,	1.260076e-04	
264	4.365158e+05	7.827596e-01,	1.289427e-04	
265	4.466836e+05	7.827596e-01,	1.319461e-04	
266	4.570882e+05	7.827596e-01,	1.350195e-04	
267	4.677351e+05	7.827596e-01,	1.381645e-04	
268	4.786301e+05	7.827596e-01,	1.413827e-04	
269	4.897788e+05	7.827596e-01,	1.446759e-04	
270	5.011872e+05	7.827596e-01,	1.480458e-04	
271	5.128614e+05	7.827596e-01,	1.514942e-04	
272	5.248075e+05	7.827596e-01,	1.550229e-04	
273	5.370318e+05	7.827596e-01,	1.586338e-04	
274	5.495409e+05	7.827596e-01,	1.623288e-04	
275	5.623413e+05	7.827596e-01,	1.661099e-04	
276	5.754399e+05	7.827596e-01,	1.699790e-04	
277	5.888437e+05	7.827596e-01,	1.739383e-04	
278	6.025596e+05	7.827596e-01,	1.779898e-04	
279	6.165950e+05	7.827596e-01,	1.821356e-04	
280	6.309573e+05	7.827596e-01,	1.863780e-04	
281	6.456542e+05	7.827596e-01,	1.907192e-04	
282	6.606934e+05	7.827596e-01,	1.951616e-04	
283	6.760830e+05	7.827596e-01,	1.997074e-04	
284	6.918310e+05	7.827596e-01,	2.043591e-04	
285	7.079458e+05	7.827596e-01,	2.091191e-04	
286	7.244360e+05	7.827596e-01,	2.139900e-04	

Index   frequency       vop                             
--------------------------------------------------------------------------------
287	7.413102e+05	7.827596e-01,	2.189744e-04	
288	7.585776e+05	7.827596e-01,	2.240748e-04	
289	7.762471e+05	7.827596e-01,	2.292941e-04	
290	7.943282e+05	7.827596e-01,	2.346349e-04	
291	8.128305e+05	7.827597e-01,	2.401001e-04	
292	8.317638e+05	7.827597e-01,	2.456926e-04	
293	8.511380e+05	7.827597e-01,	2.514153e-04	
294	8.709636e+05	7.827597e-01,	2.572714e-04	
295	8.912509e+05	7.827597e-01,	2.632638e-04	
296	9.120108e+05	7.827597e-01,	2.693958e-04	
297	9.332543e+05	7.827597e-01,	2.756706e-04	
298	9.549926e+05	7.827597e-01,	2.820916e-04	
299	9.772372e+05	7.827597e-01,	2.886621e-04	
300	1.000000e+06	7.827597e-01,	2.953856e-04	
301	1.023293e+06	7.827597e-01,	3.022657e-04	
302	1.047129e+06	7.827597e-01,	3.093061e-04	
303	1.071519e+06	7.827597e-01,	3.165105e-04	
304	1.096478e+06	7.827597e-01,	3.238826e-04	
305	1.122018e+06	7.827598e-01,	3.314264e-04	
306	1.148154e+06	7.827598e-01,	3.391460e-04	
307	1.174898e+06	7.827598e-01,	3.470453e-04	
308	1.202264e+06	7.827598e-01,	3.551285e-04	
309	1.230269e+06	7.827598e-01,	3.634001e-04	
310	1.258925e+06	7.827598e-01,	3.718643e-04	
311	1.288250e+06	7.827598e-01,	3.805256e-04	
312	1.318257e+06	7.827598e-01,	3.893886e-04	
313	1.348963e+06	7.827599e-01,	3.984580e-04	
314	1.380384e+06	7.827599e-01,	4.077387e-04	
315	1.412538e+06	7.827599e-01,	4.172354e-04	
316	1.445440e+06	7.827599e-01,	4.269534e-04	
317	1.479108e+06	7.827599e-01,	4.368977e-04	
318	1.513561e+06	7.827599e-01,	4.470735e-04	
319	1.548817e+06	7.827599e-01,	4.574863e-04	
320	1.584893e+06	7.827600e-01,	4.681417e-04	
321	1.621810e+06	7.827600e-01,	4.790452e-04	
322	1.659587e+06	7.827600e-01,	4.902026e-04	
323	1.698244e+06	7.827600e-01,	5.016198e-04	
324	1.737801e+06	7.827600e-01,	5.133029e-04	
325	1.778279e+06	7.827601e-01,	5.252581e-04	
326	1.819701e+06	7.827601e-01,	5.374917e-04	
327	1.862087e+06	7.827601e-01,	5.500102e-04	
328	1.905461e+06	7.827601e-01,	5.628202e-04	
329	1.949845e+06	7.827602e-01,	5.759286e-04	
330	1.995262e+06	7.827602e-01,	5.893422e-04	
331	2.041738e+06	7.827602e-01,	6.030682e-04	
332	2.089296e+06	7.827603e-01,	6.171139e-04	
333	2.137962e+06	7.827603e-01,	6.314867e-04	
334	2.187762e+06	7.827603e-01,	6.461942e-04	
335	2.238721e+06	7.827604e-01,	6.612442e-04	
336	2.290868e+06	7.827604e-01,	6.766447e-04	
337	2.344229e+06	7.827604e-01,	6.924039e-04	
338	2.398833e+06	7.827605e-01,	7.085301e-04	
339	2.454709e+06	7.827605e-01,	7.250319e-04	
340	2.511886e+06	7.827606e-01,	7.419181e-04	
341	2.570396e+06	7.827606e-01,	7.591976e-04	
342	2.630268e+06	7.827607e-01,	7.768796e-04	
343	2.691535e+06	7.827607e-01,	7.949734e-04	
344	2.754229e+06	7.827608e-01,	8.134888e-04	

Index   frequency       vop                             
--------------------------------------------------------------------------------
345	2.818383e+06	7.827608e-01,	8.324354e-04	
346	2.884032e+06	7.827609e-01,	8.518235e-04	
347	2.951209e+06	7.827609e-01,	8.716632e-04	
348	3.019952e+06	7.827610e-01,	8.919652e-04	
349	3.090295e+06	7.827611e-01,	9.127403e-04	
350	3.162278e+06	7.827611e-01,	9.339995e-04	
351	3.235937e+06	7.827612e-01,	9.557541e-04	
352	3.311311e+06	7.827613e-01,	9.780157e-04	
353	3.388442e+06	7.827614e-01,	1.000796e-03	
354	3.467369e+06	7.827614e-01,	1.024108e-03	
355	3.548134e+06	7.827615e-01,	1.047962e-03	
356	3.630781e+06	7.827616e-01,	1.072374e-03	
357	3.715352e+06	7.827617e-01,	1.097354e-03	
358	3.801894e+06	7.827618e-01,	1.122916e-03	
359	3.890451e+06	7.827619e-01,	1.149075e-03	
360	3.981072e+06	7.827620e-01,	1.175844e-03	
361	4.073803e+06	7.827621e-01,	1.203238e-03	
362	4.168694e+06	7.827622e-01,	1.231270e-03	
363	4.265795e+06	7.827623e-01,	1.259956e-03	
364	4.365158e+06	7.827624e-01,	1.289312e-03	
365	4.466836e+06	7.827626e-01,	1.319353e-03	
366	4.570882e+06	7.827627e-01,	1.350094e-03	
367	4.677351e+06	7.827629e-01,	1.381553e-03	
368	4.786301e+06	7.827630e-01,	1.413746e-03	
369	4.897788e+06	7.827632e-01,	1.446691e-03	
370	5.011872e+06	7.827633e-01,	1.480404e-03	
371	5.128614e+06	7.827635e-01,	1.514904e-03	
372	5.248075e+06	7.827637e-01,	1.550210e-03	
373	5.370318e+06	7.827639e-01,	1.586339e-03	
374	5.495409e+06	7.827641e-01,	1.623312e-03	
375	5.623413e+06	7.827643e-01,	1.661147e-03	
376	5.754399e+06	7.827645e-01,	1.699865e-03	
377	5.888437e+06	7.827648e-01,	1.739487e-03	
378	6.025596e+06	7.827650e-01,	1.780033e-03	
379	6.165950e+06	7.827653e-01,	1.821524e-03	
380	6.309573e+06	7.827656e-01,	1.863984e-03	
381	6.456542e+06	7.827659e-01,	1.907434e-03	
382	6.606934e+06	7.827662e-01,	1.951897e-03	
383	6.760830e+06	7.827665e-01,	1.997397e-03	
384	6.918310e+06	7.827669e-01,	2.043958e-03	
385	7.079458e+06	7.827672e-01,	2.091604e-03	
386	7.244360e+06	7.827676e-01,	2.140361e-03	
387	7.413102e+06	7.827680e-01,	2.190254e-03	
388	7.585776e+06	7.827684e-01,	2.241309e-03	
389	7.762471e+06	7.827689e-01,	2.293555e-03	
390	7.943282e+06	7.827694e-01,	2.347017e-03	
391	8.128305e+06	7.827699e-01,	2.401725e-03	
392	8.317638e+06	7.827704e-01,	2.457707e-03	
393	8.511380e+06	7.827709e-01,	2.514993e-03	
394	8.709636e+06	7.827715e-01,	2.573613e-03	
395	8.912509e+06	7.827721e-01,	2.633599e-03	
396	9.120108e+06	7.827728e-01,	2.694981e-03	
397	9.332543e+06	7.827734e-01,	2.757792e-03	
398	9.549926e+06	7.827742e-01,	2.822066e-03	
399	9.772372e+06	7.827749e-01,	2.887836e-03	
400	1.000000e+07	7.827757e-01,	2.955138e-03	
401	1.023293e+07	7.827765e-01,	3.024006e-03	
402	1.047129e+07	7.827773e-01,	3.094478e-03	

Index   frequency       vop                             
--------------------------------------------------------------------------------
403	1.071519e+07	7.827782e-01,	3.166590e-03	
404	1.096478e+07	7.827792e-01,	3.240381e-03	
405	1.122018e+07	7.827802e-01,	3.315889e-03	
406	1.148154e+07	7.827812e-01,	3.393156e-03	
407	1.174898e+07	7.827823e-01,	3.472220e-03	
408	1.202264e+07	7.827834e-01,	3.553125e-03	
409	1.230269e+07	7.827846e-01,	3.635914e-03	
410	1.258925e+07	7.827859e-01,	3.720629e-03	
411	1.288250e+07	7.827872e-01,	3.807316e-03	
412	1.318257e+07	7.827886e-01,	3.896021e-03	
413	1.348963e+07	7.827900e-01,	3.986790e-03	
414	1.380384e+07	7.827915e-01,	4.079673e-03	
415	1.412538e+07	7.827931e-01,	4.174717e-03	
416	1.445440e+07	7.827948e-01,	4.271973e-03	
