** sch_path: /home/andylithia/openmpw/project-reisen-chip1/xschem/ota_wideband.sch
AC Analysis  Sun Oct 30 17:11:03  2022
--------------------------------------------------------------------------------
Index   frequency       vop                             
--------------------------------------------------------------------------------
0	1.000000e+03	3.102248e+00,	-6.02695e-08	
1	1.023293e+03	3.102248e+00,	-6.16734e-08	
2	1.047129e+03	3.102248e+00,	-6.31099e-08	
3	1.071519e+03	3.102248e+00,	-6.45799e-08	
4	1.096478e+03	3.102248e+00,	-6.60842e-08	
5	1.122018e+03	3.102248e+00,	-6.76235e-08	
6	1.148154e+03	3.102248e+00,	-6.91986e-08	
7	1.174898e+03	3.102248e+00,	-7.08105e-08	
8	1.202264e+03	3.102248e+00,	-7.24599e-08	
9	1.230269e+03	3.102248e+00,	-7.41477e-08	
10	1.258925e+03	3.102248e+00,	-7.58748e-08	
11	1.288250e+03	3.102248e+00,	-7.76422e-08	
12	1.318257e+03	3.102248e+00,	-7.94507e-08	
13	1.348963e+03	3.102248e+00,	-8.13013e-08	
14	1.380384e+03	3.102248e+00,	-8.31951e-08	
15	1.412538e+03	3.102248e+00,	-8.51329e-08	
16	1.445440e+03	3.102248e+00,	-8.71159e-08	
17	1.479108e+03	3.102248e+00,	-8.91451e-08	
18	1.513561e+03	3.102248e+00,	-9.12216e-08	
19	1.548817e+03	3.102248e+00,	-9.33464e-08	
20	1.584893e+03	3.102248e+00,	-9.55207e-08	
21	1.621810e+03	3.102248e+00,	-9.77457e-08	
22	1.659587e+03	3.102248e+00,	-1.00022e-07	
23	1.698244e+03	3.102248e+00,	-1.02352e-07	
24	1.737801e+03	3.102248e+00,	-1.04736e-07	
25	1.778279e+03	3.102248e+00,	-1.07176e-07	
26	1.819701e+03	3.102248e+00,	-1.09672e-07	
27	1.862087e+03	3.102248e+00,	-1.12227e-07	
28	1.905461e+03	3.102248e+00,	-1.14841e-07	
29	1.949845e+03	3.102248e+00,	-1.17516e-07	
30	1.995262e+03	3.102248e+00,	-1.20253e-07	
31	2.041738e+03	3.102248e+00,	-1.23055e-07	
32	2.089296e+03	3.102248e+00,	-1.25921e-07	
33	2.137962e+03	3.102248e+00,	-1.28854e-07	
34	2.187762e+03	3.102248e+00,	-1.31855e-07	
35	2.238721e+03	3.102248e+00,	-1.34927e-07	
36	2.290868e+03	3.102248e+00,	-1.38069e-07	
37	2.344229e+03	3.102248e+00,	-1.41285e-07	
38	2.398833e+03	3.102248e+00,	-1.44576e-07	
39	2.454709e+03	3.102248e+00,	-1.47944e-07	
40	2.511886e+03	3.102248e+00,	-1.51390e-07	
41	2.570396e+03	3.102248e+00,	-1.54916e-07	
42	2.630268e+03	3.102248e+00,	-1.58525e-07	
43	2.691535e+03	3.102248e+00,	-1.62217e-07	
44	2.754229e+03	3.102248e+00,	-1.65996e-07	
45	2.818383e+03	3.102248e+00,	-1.69863e-07	
46	2.884032e+03	3.102248e+00,	-1.73819e-07	
47	2.951209e+03	3.102248e+00,	-1.77868e-07	
48	3.019952e+03	3.102248e+00,	-1.82011e-07	
49	3.090295e+03	3.102248e+00,	-1.86251e-07	
50	3.162278e+03	3.102248e+00,	-1.90589e-07	
51	3.235937e+03	3.102248e+00,	-1.95028e-07	
52	3.311311e+03	3.102248e+00,	-1.99571e-07	
53	3.388442e+03	3.102248e+00,	-2.04220e-07	
54	3.467369e+03	3.102248e+00,	-2.08977e-07	

Index   frequency       vop                             
--------------------------------------------------------------------------------
55	3.548134e+03	3.102248e+00,	-2.13844e-07	
56	3.630781e+03	3.102248e+00,	-2.18825e-07	
57	3.715352e+03	3.102248e+00,	-2.23922e-07	
58	3.801894e+03	3.102248e+00,	-2.29138e-07	
59	3.890451e+03	3.102248e+00,	-2.34476e-07	
60	3.981072e+03	3.102248e+00,	-2.39937e-07	
61	4.073803e+03	3.102248e+00,	-2.45526e-07	
62	4.168694e+03	3.102248e+00,	-2.51245e-07	
63	4.265795e+03	3.102248e+00,	-2.57097e-07	
64	4.365158e+03	3.102248e+00,	-2.63086e-07	
65	4.466836e+03	3.102248e+00,	-2.69214e-07	
66	4.570882e+03	3.102248e+00,	-2.75485e-07	
67	4.677351e+03	3.102248e+00,	-2.81902e-07	
68	4.786301e+03	3.102248e+00,	-2.88468e-07	
69	4.897788e+03	3.102248e+00,	-2.95187e-07	
70	5.011872e+03	3.102248e+00,	-3.02063e-07	
71	5.128614e+03	3.102248e+00,	-3.09099e-07	
72	5.248075e+03	3.102248e+00,	-3.16299e-07	
73	5.370318e+03	3.102248e+00,	-3.23666e-07	
74	5.495409e+03	3.102248e+00,	-3.31206e-07	
75	5.623413e+03	3.102248e+00,	-3.38920e-07	
76	5.754399e+03	3.102248e+00,	-3.46815e-07	
77	5.888437e+03	3.102248e+00,	-3.54893e-07	
78	6.025596e+03	3.102248e+00,	-3.63160e-07	
79	6.165950e+03	3.102248e+00,	-3.71619e-07	
80	6.309573e+03	3.102248e+00,	-3.80275e-07	
81	6.456542e+03	3.102248e+00,	-3.89133e-07	
82	6.606934e+03	3.102248e+00,	-3.98197e-07	
83	6.760830e+03	3.102248e+00,	-4.07472e-07	
84	6.918310e+03	3.102248e+00,	-4.16963e-07	
85	7.079458e+03	3.102248e+00,	-4.26675e-07	
86	7.244360e+03	3.102248e+00,	-4.36614e-07	
87	7.413102e+03	3.102248e+00,	-4.46784e-07	
88	7.585776e+03	3.102248e+00,	-4.57191e-07	
89	7.762471e+03	3.102248e+00,	-4.67840e-07	
90	7.943282e+03	3.102248e+00,	-4.78738e-07	
91	8.128305e+03	3.102248e+00,	-4.89889e-07	
92	8.317638e+03	3.102248e+00,	-5.01300e-07	
93	8.511380e+03	3.102248e+00,	-5.12977e-07	
94	8.709636e+03	3.102248e+00,	-5.24925e-07	
95	8.912509e+03	3.102248e+00,	-5.37152e-07	
96	9.120108e+03	3.102248e+00,	-5.49664e-07	
97	9.332543e+03	3.102248e+00,	-5.62468e-07	
98	9.549926e+03	3.102248e+00,	-5.75569e-07	
99	9.772372e+03	3.102248e+00,	-5.88976e-07	
100	1.000000e+04	3.102248e+00,	-6.02695e-07	
101	1.023293e+04	3.102248e+00,	-6.16734e-07	
102	1.047129e+04	3.102248e+00,	-6.31099e-07	
103	1.071519e+04	3.102248e+00,	-6.45799e-07	
104	1.096478e+04	3.102248e+00,	-6.60842e-07	
105	1.122018e+04	3.102248e+00,	-6.76235e-07	
106	1.148154e+04	3.102248e+00,	-6.91986e-07	
107	1.174898e+04	3.102248e+00,	-7.08105e-07	
108	1.202264e+04	3.102248e+00,	-7.24599e-07	
109	1.230269e+04	3.102248e+00,	-7.41477e-07	
110	1.258925e+04	3.102248e+00,	-7.58748e-07	
111	1.288250e+04	3.102248e+00,	-7.76422e-07	
112	1.318257e+04	3.102248e+00,	-7.94507e-07	

Index   frequency       vop                             
--------------------------------------------------------------------------------
113	1.348963e+04	3.102248e+00,	-8.13013e-07	
114	1.380384e+04	3.102248e+00,	-8.31951e-07	
115	1.412538e+04	3.102248e+00,	-8.51329e-07	
116	1.445440e+04	3.102248e+00,	-8.71159e-07	
117	1.479108e+04	3.102248e+00,	-8.91451e-07	
118	1.513561e+04	3.102248e+00,	-9.12216e-07	
119	1.548817e+04	3.102248e+00,	-9.33464e-07	
120	1.584893e+04	3.102248e+00,	-9.55207e-07	
121	1.621810e+04	3.102248e+00,	-9.77457e-07	
122	1.659587e+04	3.102248e+00,	-1.00022e-06	
123	1.698244e+04	3.102248e+00,	-1.02352e-06	
124	1.737801e+04	3.102248e+00,	-1.04736e-06	
125	1.778279e+04	3.102248e+00,	-1.07176e-06	
126	1.819701e+04	3.102248e+00,	-1.09672e-06	
127	1.862087e+04	3.102248e+00,	-1.12227e-06	
128	1.905461e+04	3.102248e+00,	-1.14841e-06	
129	1.949845e+04	3.102248e+00,	-1.17516e-06	
130	1.995262e+04	3.102248e+00,	-1.20253e-06	
131	2.041738e+04	3.102248e+00,	-1.23055e-06	
132	2.089296e+04	3.102248e+00,	-1.25921e-06	
133	2.137962e+04	3.102248e+00,	-1.28854e-06	
134	2.187762e+04	3.102248e+00,	-1.31855e-06	
135	2.238721e+04	3.102248e+00,	-1.34927e-06	
136	2.290868e+04	3.102248e+00,	-1.38069e-06	
137	2.344229e+04	3.102248e+00,	-1.41285e-06	
138	2.398833e+04	3.102248e+00,	-1.44576e-06	
139	2.454709e+04	3.102248e+00,	-1.47944e-06	
140	2.511886e+04	3.102248e+00,	-1.51390e-06	
141	2.570396e+04	3.102248e+00,	-1.54916e-06	
142	2.630268e+04	3.102248e+00,	-1.58525e-06	
143	2.691535e+04	3.102248e+00,	-1.62217e-06	
144	2.754229e+04	3.102248e+00,	-1.65996e-06	
145	2.818383e+04	3.102248e+00,	-1.69863e-06	
146	2.884032e+04	3.102248e+00,	-1.73819e-06	
147	2.951209e+04	3.102248e+00,	-1.77868e-06	
148	3.019952e+04	3.102248e+00,	-1.82011e-06	
149	3.090295e+04	3.102248e+00,	-1.86251e-06	
150	3.162278e+04	3.102248e+00,	-1.90589e-06	
151	3.235937e+04	3.102248e+00,	-1.95028e-06	
152	3.311311e+04	3.102248e+00,	-1.99571e-06	
153	3.388442e+04	3.102248e+00,	-2.04220e-06	
154	3.467369e+04	3.102248e+00,	-2.08977e-06	
155	3.548134e+04	3.102248e+00,	-2.13844e-06	
156	3.630781e+04	3.102248e+00,	-2.18825e-06	
157	3.715352e+04	3.102248e+00,	-2.23922e-06	
158	3.801894e+04	3.102248e+00,	-2.29138e-06	
159	3.890451e+04	3.102248e+00,	-2.34476e-06	
160	3.981072e+04	3.102248e+00,	-2.39937e-06	
161	4.073803e+04	3.102248e+00,	-2.45526e-06	
162	4.168694e+04	3.102248e+00,	-2.51245e-06	
163	4.265795e+04	3.102248e+00,	-2.57097e-06	
164	4.365158e+04	3.102248e+00,	-2.63086e-06	
165	4.466836e+04	3.102248e+00,	-2.69214e-06	
166	4.570882e+04	3.102248e+00,	-2.75485e-06	
167	4.677351e+04	3.102248e+00,	-2.81902e-06	
168	4.786301e+04	3.102248e+00,	-2.88468e-06	
169	4.897788e+04	3.102248e+00,	-2.95187e-06	
170	5.011872e+04	3.102248e+00,	-3.02063e-06	

Index   frequency       vop                             
--------------------------------------------------------------------------------
171	5.128614e+04	3.102248e+00,	-3.09099e-06	
172	5.248075e+04	3.102248e+00,	-3.16299e-06	
173	5.370318e+04	3.102248e+00,	-3.23666e-06	
174	5.495409e+04	3.102248e+00,	-3.31206e-06	
175	5.623413e+04	3.102248e+00,	-3.38920e-06	
176	5.754399e+04	3.102248e+00,	-3.46815e-06	
177	5.888437e+04	3.102248e+00,	-3.54893e-06	
178	6.025596e+04	3.102248e+00,	-3.63160e-06	
179	6.165950e+04	3.102248e+00,	-3.71619e-06	
180	6.309573e+04	3.102248e+00,	-3.80275e-06	
181	6.456542e+04	3.102248e+00,	-3.89133e-06	
182	6.606934e+04	3.102248e+00,	-3.98197e-06	
183	6.760830e+04	3.102248e+00,	-4.07472e-06	
184	6.918310e+04	3.102248e+00,	-4.16963e-06	
185	7.079458e+04	3.102248e+00,	-4.26676e-06	
186	7.244360e+04	3.102248e+00,	-4.36614e-06	
187	7.413102e+04	3.102248e+00,	-4.46784e-06	
188	7.585776e+04	3.102248e+00,	-4.57191e-06	
189	7.762471e+04	3.102248e+00,	-4.67840e-06	
190	7.943282e+04	3.102248e+00,	-4.78738e-06	
191	8.128305e+04	3.102248e+00,	-4.89889e-06	
192	8.317638e+04	3.102248e+00,	-5.01300e-06	
193	8.511380e+04	3.102248e+00,	-5.12977e-06	
194	8.709636e+04	3.102248e+00,	-5.24926e-06	
195	8.912509e+04	3.102248e+00,	-5.37153e-06	
196	9.120108e+04	3.102248e+00,	-5.49665e-06	
197	9.332543e+04	3.102248e+00,	-5.62468e-06	
198	9.549926e+04	3.102248e+00,	-5.75570e-06	
199	9.772372e+04	3.102248e+00,	-5.88976e-06	
200	1.000000e+05	3.102248e+00,	-6.02696e-06	
201	1.023293e+05	3.102248e+00,	-6.16734e-06	
202	1.047129e+05	3.102248e+00,	-6.31100e-06	
203	1.071519e+05	3.102248e+00,	-6.45800e-06	
204	1.096478e+05	3.102248e+00,	-6.60843e-06	
205	1.122018e+05	3.102248e+00,	-6.76236e-06	
206	1.148154e+05	3.102248e+00,	-6.91987e-06	
207	1.174898e+05	3.102248e+00,	-7.08106e-06	
208	1.202264e+05	3.102248e+00,	-7.24600e-06	
209	1.230269e+05	3.102248e+00,	-7.41478e-06	
210	1.258925e+05	3.102248e+00,	-7.58749e-06	
211	1.288250e+05	3.102248e+00,	-7.76423e-06	
212	1.318257e+05	3.102248e+00,	-7.94508e-06	
213	1.348963e+05	3.102248e+00,	-8.13015e-06	
214	1.380384e+05	3.102248e+00,	-8.31952e-06	
215	1.412538e+05	3.102248e+00,	-8.51331e-06	
216	1.445440e+05	3.102248e+00,	-8.71161e-06	
217	1.479108e+05	3.102248e+00,	-8.91453e-06	
218	1.513561e+05	3.102248e+00,	-9.12218e-06	
219	1.548817e+05	3.102248e+00,	-9.33466e-06	
220	1.584893e+05	3.102248e+00,	-9.55209e-06	
221	1.621810e+05	3.102248e+00,	-9.77459e-06	
222	1.659587e+05	3.102248e+00,	-1.00023e-05	
223	1.698244e+05	3.102248e+00,	-1.02353e-05	
224	1.737801e+05	3.102248e+00,	-1.04737e-05	
225	1.778279e+05	3.102248e+00,	-1.07176e-05	
226	1.819701e+05	3.102248e+00,	-1.09673e-05	
227	1.862087e+05	3.102248e+00,	-1.12227e-05	
228	1.905461e+05	3.102248e+00,	-1.14842e-05	

Index   frequency       vop                             
--------------------------------------------------------------------------------
229	1.949845e+05	3.102248e+00,	-1.17517e-05	
230	1.995262e+05	3.102248e+00,	-1.20254e-05	
231	2.041738e+05	3.102248e+00,	-1.23055e-05	
232	2.089296e+05	3.102248e+00,	-1.25921e-05	
233	2.137962e+05	3.102248e+00,	-1.28854e-05	
234	2.187762e+05	3.102248e+00,	-1.31856e-05	
235	2.238721e+05	3.102248e+00,	-1.34927e-05	
236	2.290868e+05	3.102248e+00,	-1.38070e-05	
237	2.344229e+05	3.102248e+00,	-1.41286e-05	
238	2.398833e+05	3.102248e+00,	-1.44577e-05	
239	2.454709e+05	3.102248e+00,	-1.47945e-05	
240	2.511886e+05	3.102248e+00,	-1.51391e-05	
241	2.570396e+05	3.102248e+00,	-1.54917e-05	
242	2.630268e+05	3.102249e+00,	-1.58526e-05	
243	2.691535e+05	3.102249e+00,	-1.62219e-05	
244	2.754229e+05	3.102249e+00,	-1.65997e-05	
245	2.818383e+05	3.102249e+00,	-1.69864e-05	
246	2.884032e+05	3.102249e+00,	-1.73820e-05	
247	2.951209e+05	3.102249e+00,	-1.77869e-05	
248	3.019952e+05	3.102249e+00,	-1.82013e-05	
249	3.090295e+05	3.102249e+00,	-1.86252e-05	
250	3.162278e+05	3.102249e+00,	-1.90591e-05	
251	3.235937e+05	3.102249e+00,	-1.95030e-05	
252	3.311311e+05	3.102249e+00,	-1.99573e-05	
253	3.388442e+05	3.102249e+00,	-2.04222e-05	
254	3.467369e+05	3.102249e+00,	-2.08979e-05	
255	3.548134e+05	3.102249e+00,	-2.13847e-05	
256	3.630781e+05	3.102249e+00,	-2.18828e-05	
257	3.715352e+05	3.102249e+00,	-2.23925e-05	
258	3.801894e+05	3.102249e+00,	-2.29141e-05	
259	3.890451e+05	3.102249e+00,	-2.34479e-05	
260	3.981072e+05	3.102249e+00,	-2.39941e-05	
261	4.073803e+05	3.102249e+00,	-2.45530e-05	
262	4.168694e+05	3.102249e+00,	-2.51249e-05	
263	4.265795e+05	3.102249e+00,	-2.57102e-05	
264	4.365158e+05	3.102249e+00,	-2.63091e-05	
265	4.466836e+05	3.102249e+00,	-2.69219e-05	
266	4.570882e+05	3.102249e+00,	-2.75490e-05	
267	4.677351e+05	3.102249e+00,	-2.81907e-05	
268	4.786301e+05	3.102249e+00,	-2.88474e-05	
269	4.897788e+05	3.102249e+00,	-2.95194e-05	
270	5.011872e+05	3.102249e+00,	-3.02070e-05	
271	5.128614e+05	3.102249e+00,	-3.09107e-05	
272	5.248075e+05	3.102249e+00,	-3.16307e-05	
273	5.370318e+05	3.102250e+00,	-3.23675e-05	
274	5.495409e+05	3.102250e+00,	-3.31215e-05	
275	5.623413e+05	3.102250e+00,	-3.38930e-05	
276	5.754399e+05	3.102250e+00,	-3.46825e-05	
277	5.888437e+05	3.102250e+00,	-3.54905e-05	
278	6.025596e+05	3.102250e+00,	-3.63172e-05	
279	6.165950e+05	3.102250e+00,	-3.71632e-05	
280	6.309573e+05	3.102250e+00,	-3.80289e-05	
281	6.456542e+05	3.102250e+00,	-3.89148e-05	
282	6.606934e+05	3.102250e+00,	-3.98213e-05	
283	6.760830e+05	3.102250e+00,	-4.07489e-05	
284	6.918310e+05	3.102250e+00,	-4.16982e-05	
285	7.079458e+05	3.102250e+00,	-4.26695e-05	
286	7.244360e+05	3.102251e+00,	-4.36635e-05	

Index   frequency       vop                             
--------------------------------------------------------------------------------
287	7.413102e+05	3.102251e+00,	-4.46807e-05	
288	7.585776e+05	3.102251e+00,	-4.57215e-05	
289	7.762471e+05	3.102251e+00,	-4.67866e-05	
290	7.943282e+05	3.102251e+00,	-4.78766e-05	
291	8.128305e+05	3.102251e+00,	-4.89919e-05	
292	8.317638e+05	3.102251e+00,	-5.01332e-05	
293	8.511380e+05	3.102252e+00,	-5.13011e-05	
294	8.709636e+05	3.102252e+00,	-5.24962e-05	
295	8.912509e+05	3.102252e+00,	-5.37192e-05	
296	9.120108e+05	3.102252e+00,	-5.49707e-05	
297	9.332543e+05	3.102252e+00,	-5.62513e-05	
298	9.549926e+05	3.102252e+00,	-5.75618e-05	
299	9.772372e+05	3.102253e+00,	-5.89028e-05	
300	1.000000e+06	3.102253e+00,	-6.02751e-05	
301	1.023293e+06	3.102253e+00,	-6.16794e-05	
302	1.047129e+06	3.102253e+00,	-6.31163e-05	
303	1.071519e+06	3.102253e+00,	-6.45868e-05	
304	1.096478e+06	3.102254e+00,	-6.60916e-05	
305	1.122018e+06	3.102254e+00,	-6.76314e-05	
306	1.148154e+06	3.102254e+00,	-6.92071e-05	
307	1.174898e+06	3.102255e+00,	-7.08196e-05	
308	1.202264e+06	3.102255e+00,	-7.24696e-05	
309	1.230269e+06	3.102255e+00,	-7.41581e-05	
310	1.258925e+06	3.102255e+00,	-7.58860e-05	
311	1.288250e+06	3.102256e+00,	-7.76541e-05	
312	1.318257e+06	3.102256e+00,	-7.94635e-05	
313	1.348963e+06	3.102257e+00,	-8.13151e-05	
314	1.380384e+06	3.102257e+00,	-8.32098e-05	
315	1.412538e+06	3.102257e+00,	-8.51487e-05	
316	1.445440e+06	3.102258e+00,	-8.71329e-05	
317	1.479108e+06	3.102258e+00,	-8.91633e-05	
318	1.513561e+06	3.102259e+00,	-9.12410e-05	
319	1.548817e+06	3.102259e+00,	-9.33672e-05	
320	1.584893e+06	3.102260e+00,	-9.55431e-05	
321	1.621810e+06	3.102260e+00,	-9.77696e-05	
322	1.659587e+06	3.102261e+00,	-1.00048e-04	
323	1.698244e+06	3.102261e+00,	-1.02380e-04	
324	1.737801e+06	3.102262e+00,	-1.04766e-04	
325	1.778279e+06	3.102263e+00,	-1.07208e-04	
326	1.819701e+06	3.102263e+00,	-1.09706e-04	
327	1.862087e+06	3.102264e+00,	-1.12263e-04	
328	1.905461e+06	3.102265e+00,	-1.14880e-04	
329	1.949845e+06	3.102266e+00,	-1.17558e-04	
330	1.995262e+06	3.102267e+00,	-1.20298e-04	
331	2.041738e+06	3.102267e+00,	-1.23102e-04	
332	2.089296e+06	3.102268e+00,	-1.25972e-04	
333	2.137962e+06	3.102269e+00,	-1.28909e-04	
334	2.187762e+06	3.102270e+00,	-1.31914e-04	
335	2.238721e+06	3.102271e+00,	-1.34990e-04	
336	2.290868e+06	3.102272e+00,	-1.38137e-04	
337	2.344229e+06	3.102274e+00,	-1.41358e-04	
338	2.398833e+06	3.102275e+00,	-1.44654e-04	
339	2.454709e+06	3.102276e+00,	-1.48027e-04	
340	2.511886e+06	3.102277e+00,	-1.51479e-04	
341	2.570396e+06	3.102279e+00,	-1.55012e-04	
342	2.630268e+06	3.102280e+00,	-1.58627e-04	
343	2.691535e+06	3.102282e+00,	-1.62327e-04	
344	2.754229e+06	3.102283e+00,	-1.66114e-04	

Index   frequency       vop                             
--------------------------------------------------------------------------------
345	2.818383e+06	3.102285e+00,	-1.69988e-04	
346	2.884032e+06	3.102287e+00,	-1.73954e-04	
347	2.951209e+06	3.102288e+00,	-1.78013e-04	
348	3.019952e+06	3.102290e+00,	-1.82166e-04	
349	3.090295e+06	3.102292e+00,	-1.86417e-04	
350	3.162278e+06	3.102294e+00,	-1.90767e-04	
351	3.235937e+06	3.102297e+00,	-1.95219e-04	
352	3.311311e+06	3.102299e+00,	-1.99776e-04	
353	3.388442e+06	3.102301e+00,	-2.04439e-04	
354	3.467369e+06	3.102304e+00,	-2.09212e-04	
355	3.548134e+06	3.102306e+00,	-2.14096e-04	
356	3.630781e+06	3.102309e+00,	-2.19095e-04	
357	3.715352e+06	3.102312e+00,	-2.24212e-04	
358	3.801894e+06	3.102315e+00,	-2.29448e-04	
359	3.890451e+06	3.102318e+00,	-2.34808e-04	
360	3.981072e+06	3.102321e+00,	-2.40294e-04	
361	4.073803e+06	3.102325e+00,	-2.45908e-04	
362	4.168694e+06	3.102328e+00,	-2.51655e-04	
363	4.265795e+06	3.102332e+00,	-2.57536e-04	
364	4.365158e+06	3.102336e+00,	-2.63556e-04	
365	4.466836e+06	3.102340e+00,	-2.69718e-04	
366	4.570882e+06	3.102345e+00,	-2.76025e-04	
367	4.677351e+06	3.102349e+00,	-2.82481e-04	
368	4.786301e+06	3.102354e+00,	-2.89089e-04	
369	4.897788e+06	3.102359e+00,	-2.95853e-04	
370	5.011872e+06	3.102364e+00,	-3.02777e-04	
371	5.128614e+06	3.102370e+00,	-3.09865e-04	
372	5.248075e+06	3.102375e+00,	-3.17120e-04	
373	5.370318e+06	3.102381e+00,	-3.24546e-04	
374	5.495409e+06	3.102388e+00,	-3.32149e-04	
375	5.623413e+06	3.102394e+00,	-3.39932e-04	
376	5.754399e+06	3.102401e+00,	-3.47900e-04	
377	5.888437e+06	3.102408e+00,	-3.56056e-04	
378	6.025596e+06	3.102416e+00,	-3.64407e-04	
379	6.165950e+06	3.102424e+00,	-3.72956e-04	
380	6.309573e+06	3.102432e+00,	-3.81709e-04	
381	6.456542e+06	3.102441e+00,	-3.90671e-04	
382	6.606934e+06	3.102450e+00,	-3.99847e-04	
383	6.760830e+06	3.102459e+00,	-4.09242e-04	
384	6.918310e+06	3.102469e+00,	-4.18861e-04	
385	7.079458e+06	3.102480e+00,	-4.28711e-04	
386	7.244360e+06	3.102491e+00,	-4.38798e-04	
387	7.413102e+06	3.102502e+00,	-4.49127e-04	
388	7.585776e+06	3.102514e+00,	-4.59704e-04	
389	7.762471e+06	3.102527e+00,	-4.70537e-04	
390	7.943282e+06	3.102540e+00,	-4.81631e-04	
391	8.128305e+06	3.102554e+00,	-4.92993e-04	
392	8.317638e+06	3.102568e+00,	-5.04631e-04	
393	8.511380e+06	3.102583e+00,	-5.16551e-04	
394	8.709636e+06	3.102599e+00,	-5.28761e-04	
395	8.912509e+06	3.102615e+00,	-5.41269e-04	
396	9.120108e+06	3.102633e+00,	-5.54083e-04	
397	9.332543e+06	3.102651e+00,	-5.67210e-04	
398	9.549926e+06	3.102670e+00,	-5.80660e-04	
399	9.772372e+06	3.102690e+00,	-5.94442e-04	
400	1.000000e+07	3.102711e+00,	-6.08563e-04	
401	1.023293e+07	3.102733e+00,	-6.23034e-04	
402	1.047129e+07	3.102756e+00,	-6.37865e-04	

Index   frequency       vop                             
--------------------------------------------------------------------------------
403	1.071519e+07	3.102780e+00,	-6.53065e-04	
404	1.096478e+07	3.102805e+00,	-6.68646e-04	
405	1.122018e+07	3.102831e+00,	-6.84617e-04	
406	1.148154e+07	3.102859e+00,	-7.00991e-04	
407	1.174898e+07	3.102888e+00,	-7.17779e-04	
408	1.202264e+07	3.102918e+00,	-7.34993e-04	
409	1.230269e+07	3.102949e+00,	-7.52647e-04	
410	1.258925e+07	3.102983e+00,	-7.70752e-04	
411	1.288250e+07	3.103017e+00,	-7.89324e-04	
412	1.318257e+07	3.103054e+00,	-8.08377e-04	
413	1.348963e+07	3.103092e+00,	-8.27925e-04	
414	1.380384e+07	3.103132e+00,	-8.47985e-04	
415	1.412538e+07	3.103174e+00,	-8.68572e-04	
416	1.445440e+07	3.103218e+00,	-8.89705e-04	
