** sch_path: /home/andylithia/openmpw/project-reisen-chip1/xschem/ota_wideband.sch
AC Analysis  Sun Oct 30 17:11:03  2022
--------------------------------------------------------------------------------
Index   frequency       vop                             
--------------------------------------------------------------------------------
0	1.000000e+03	3.527471e+00,	-1.85710e-06	
1	1.023293e+03	3.527471e+00,	-1.90035e-06	
2	1.047129e+03	3.527471e+00,	-1.94462e-06	
3	1.071519e+03	3.527471e+00,	-1.98992e-06	
4	1.096478e+03	3.527471e+00,	-2.03627e-06	
5	1.122018e+03	3.527471e+00,	-2.08370e-06	
6	1.148154e+03	3.527471e+00,	-2.13223e-06	
7	1.174898e+03	3.527471e+00,	-2.18190e-06	
8	1.202264e+03	3.527471e+00,	-2.23272e-06	
9	1.230269e+03	3.527471e+00,	-2.28473e-06	
10	1.258925e+03	3.527471e+00,	-2.33795e-06	
11	1.288250e+03	3.527471e+00,	-2.39240e-06	
12	1.318257e+03	3.527471e+00,	-2.44813e-06	
13	1.348963e+03	3.527471e+00,	-2.50515e-06	
14	1.380384e+03	3.527471e+00,	-2.56351e-06	
15	1.412538e+03	3.527471e+00,	-2.62322e-06	
16	1.445440e+03	3.527471e+00,	-2.68432e-06	
17	1.479108e+03	3.527471e+00,	-2.74685e-06	
18	1.513561e+03	3.527471e+00,	-2.81083e-06	
19	1.548817e+03	3.527471e+00,	-2.87630e-06	
20	1.584893e+03	3.527471e+00,	-2.94330e-06	
21	1.621810e+03	3.527471e+00,	-3.01186e-06	
22	1.659587e+03	3.527471e+00,	-3.08201e-06	
23	1.698244e+03	3.527471e+00,	-3.15380e-06	
24	1.737801e+03	3.527471e+00,	-3.22726e-06	
25	1.778279e+03	3.527471e+00,	-3.30244e-06	
26	1.819701e+03	3.527471e+00,	-3.37936e-06	
27	1.862087e+03	3.527471e+00,	-3.45808e-06	
28	1.905461e+03	3.527471e+00,	-3.53863e-06	
29	1.949845e+03	3.527471e+00,	-3.62105e-06	
30	1.995262e+03	3.527471e+00,	-3.70540e-06	
31	2.041738e+03	3.527471e+00,	-3.79171e-06	
32	2.089296e+03	3.527471e+00,	-3.88003e-06	
33	2.137962e+03	3.527471e+00,	-3.97040e-06	
34	2.187762e+03	3.527471e+00,	-4.06289e-06	
35	2.238721e+03	3.527471e+00,	-4.15752e-06	
36	2.290868e+03	3.527471e+00,	-4.25436e-06	
37	2.344229e+03	3.527471e+00,	-4.35346e-06	
38	2.398833e+03	3.527471e+00,	-4.45487e-06	
39	2.454709e+03	3.527471e+00,	-4.55863e-06	
40	2.511886e+03	3.527471e+00,	-4.66482e-06	
41	2.570396e+03	3.527471e+00,	-4.77347e-06	
42	2.630268e+03	3.527471e+00,	-4.88466e-06	
43	2.691535e+03	3.527471e+00,	-4.99844e-06	
44	2.754229e+03	3.527471e+00,	-5.11487e-06	
45	2.818383e+03	3.527471e+00,	-5.23401e-06	
46	2.884032e+03	3.527471e+00,	-5.35593e-06	
47	2.951209e+03	3.527471e+00,	-5.48068e-06	
48	3.019952e+03	3.527471e+00,	-5.60834e-06	
49	3.090295e+03	3.527471e+00,	-5.73898e-06	
50	3.162278e+03	3.527471e+00,	-5.87266e-06	
51	3.235937e+03	3.527471e+00,	-6.00945e-06	
52	3.311311e+03	3.527471e+00,	-6.14943e-06	
53	3.388442e+03	3.527471e+00,	-6.29266e-06	
54	3.467369e+03	3.527471e+00,	-6.43924e-06	

Index   frequency       vop                             
--------------------------------------------------------------------------------
55	3.548134e+03	3.527471e+00,	-6.58923e-06	
56	3.630781e+03	3.527471e+00,	-6.74271e-06	
57	3.715352e+03	3.527471e+00,	-6.89977e-06	
58	3.801894e+03	3.527471e+00,	-7.06049e-06	
59	3.890451e+03	3.527471e+00,	-7.22495e-06	
60	3.981072e+03	3.527471e+00,	-7.39324e-06	
61	4.073803e+03	3.527471e+00,	-7.56545e-06	
62	4.168694e+03	3.527471e+00,	-7.74167e-06	
63	4.265795e+03	3.527471e+00,	-7.92200e-06	
64	4.365158e+03	3.527471e+00,	-8.10652e-06	
65	4.466836e+03	3.527471e+00,	-8.29535e-06	
66	4.570882e+03	3.527471e+00,	-8.48857e-06	
67	4.677351e+03	3.527471e+00,	-8.68630e-06	
68	4.786301e+03	3.527471e+00,	-8.88862e-06	
69	4.897788e+03	3.527471e+00,	-9.09567e-06	
70	5.011872e+03	3.527471e+00,	-9.30753e-06	
71	5.128614e+03	3.527471e+00,	-9.52433e-06	
72	5.248075e+03	3.527471e+00,	-9.74618e-06	
73	5.370318e+03	3.527471e+00,	-9.97320e-06	
74	5.495409e+03	3.527471e+00,	-1.02055e-05	
75	5.623413e+03	3.527471e+00,	-1.04432e-05	
76	5.754399e+03	3.527471e+00,	-1.06865e-05	
77	5.888437e+03	3.527471e+00,	-1.09354e-05	
78	6.025596e+03	3.527471e+00,	-1.11901e-05	
79	6.165950e+03	3.527471e+00,	-1.14508e-05	
80	6.309573e+03	3.527471e+00,	-1.17175e-05	
81	6.456542e+03	3.527471e+00,	-1.19904e-05	
82	6.606934e+03	3.527471e+00,	-1.22697e-05	
83	6.760830e+03	3.527471e+00,	-1.25555e-05	
84	6.918310e+03	3.527471e+00,	-1.28480e-05	
85	7.079458e+03	3.527471e+00,	-1.31472e-05	
86	7.244360e+03	3.527471e+00,	-1.34535e-05	
87	7.413102e+03	3.527471e+00,	-1.37668e-05	
88	7.585776e+03	3.527471e+00,	-1.40875e-05	
89	7.762471e+03	3.527471e+00,	-1.44157e-05	
90	7.943282e+03	3.527471e+00,	-1.47514e-05	
91	8.128305e+03	3.527471e+00,	-1.50951e-05	
92	8.317638e+03	3.527471e+00,	-1.54467e-05	
93	8.511380e+03	3.527471e+00,	-1.58065e-05	
94	8.709636e+03	3.527471e+00,	-1.61746e-05	
95	8.912509e+03	3.527471e+00,	-1.65514e-05	
96	9.120108e+03	3.527471e+00,	-1.69369e-05	
97	9.332543e+03	3.527471e+00,	-1.73314e-05	
98	9.549926e+03	3.527471e+00,	-1.77351e-05	
99	9.772372e+03	3.527471e+00,	-1.81482e-05	
100	1.000000e+04	3.527471e+00,	-1.85710e-05	
101	1.023293e+04	3.527471e+00,	-1.90035e-05	
102	1.047129e+04	3.527471e+00,	-1.94462e-05	
103	1.071519e+04	3.527471e+00,	-1.98992e-05	
104	1.096478e+04	3.527471e+00,	-2.03627e-05	
105	1.122018e+04	3.527471e+00,	-2.08370e-05	
106	1.148154e+04	3.527471e+00,	-2.13223e-05	
107	1.174898e+04	3.527471e+00,	-2.18190e-05	
108	1.202264e+04	3.527471e+00,	-2.23272e-05	
109	1.230269e+04	3.527471e+00,	-2.28473e-05	
110	1.258925e+04	3.527471e+00,	-2.33795e-05	
111	1.288250e+04	3.527471e+00,	-2.39240e-05	
112	1.318257e+04	3.527471e+00,	-2.44813e-05	

Index   frequency       vop                             
--------------------------------------------------------------------------------
113	1.348963e+04	3.527471e+00,	-2.50515e-05	
114	1.380384e+04	3.527471e+00,	-2.56351e-05	
115	1.412538e+04	3.527471e+00,	-2.62322e-05	
116	1.445440e+04	3.527471e+00,	-2.68432e-05	
117	1.479108e+04	3.527471e+00,	-2.74685e-05	
118	1.513561e+04	3.527471e+00,	-2.81083e-05	
119	1.548817e+04	3.527471e+00,	-2.87630e-05	
120	1.584893e+04	3.527471e+00,	-2.94330e-05	
121	1.621810e+04	3.527471e+00,	-3.01186e-05	
122	1.659587e+04	3.527471e+00,	-3.08201e-05	
123	1.698244e+04	3.527471e+00,	-3.15380e-05	
124	1.737801e+04	3.527471e+00,	-3.22726e-05	
125	1.778279e+04	3.527471e+00,	-3.30244e-05	
126	1.819701e+04	3.527471e+00,	-3.37936e-05	
127	1.862087e+04	3.527471e+00,	-3.45808e-05	
128	1.905461e+04	3.527471e+00,	-3.53863e-05	
129	1.949845e+04	3.527471e+00,	-3.62105e-05	
130	1.995262e+04	3.527471e+00,	-3.70540e-05	
131	2.041738e+04	3.527471e+00,	-3.79171e-05	
132	2.089296e+04	3.527471e+00,	-3.88003e-05	
133	2.137962e+04	3.527471e+00,	-3.97040e-05	
134	2.187762e+04	3.527471e+00,	-4.06289e-05	
135	2.238721e+04	3.527471e+00,	-4.15752e-05	
136	2.290868e+04	3.527471e+00,	-4.25436e-05	
137	2.344229e+04	3.527471e+00,	-4.35346e-05	
138	2.398833e+04	3.527471e+00,	-4.45487e-05	
139	2.454709e+04	3.527471e+00,	-4.55863e-05	
140	2.511886e+04	3.527471e+00,	-4.66482e-05	
141	2.570396e+04	3.527471e+00,	-4.77347e-05	
142	2.630268e+04	3.527471e+00,	-4.88466e-05	
143	2.691535e+04	3.527471e+00,	-4.99844e-05	
144	2.754229e+04	3.527471e+00,	-5.11487e-05	
145	2.818383e+04	3.527471e+00,	-5.23401e-05	
146	2.884032e+04	3.527471e+00,	-5.35593e-05	
147	2.951209e+04	3.527471e+00,	-5.48068e-05	
148	3.019952e+04	3.527471e+00,	-5.60834e-05	
149	3.090295e+04	3.527471e+00,	-5.73898e-05	
150	3.162278e+04	3.527471e+00,	-5.87266e-05	
151	3.235937e+04	3.527471e+00,	-6.00945e-05	
152	3.311311e+04	3.527471e+00,	-6.14943e-05	
153	3.388442e+04	3.527471e+00,	-6.29266e-05	
154	3.467369e+04	3.527471e+00,	-6.43924e-05	
155	3.548134e+04	3.527471e+00,	-6.58923e-05	
156	3.630781e+04	3.527471e+00,	-6.74271e-05	
157	3.715352e+04	3.527471e+00,	-6.89977e-05	
158	3.801894e+04	3.527471e+00,	-7.06049e-05	
159	3.890451e+04	3.527471e+00,	-7.22495e-05	
160	3.981072e+04	3.527471e+00,	-7.39324e-05	
161	4.073803e+04	3.527471e+00,	-7.56545e-05	
162	4.168694e+04	3.527471e+00,	-7.74167e-05	
163	4.265795e+04	3.527471e+00,	-7.92200e-05	
164	4.365158e+04	3.527471e+00,	-8.10652e-05	
165	4.466836e+04	3.527471e+00,	-8.29535e-05	
166	4.570882e+04	3.527471e+00,	-8.48857e-05	
167	4.677351e+04	3.527471e+00,	-8.68630e-05	
168	4.786301e+04	3.527471e+00,	-8.88862e-05	
169	4.897788e+04	3.527471e+00,	-9.09567e-05	
170	5.011872e+04	3.527471e+00,	-9.30753e-05	

Index   frequency       vop                             
--------------------------------------------------------------------------------
171	5.128614e+04	3.527471e+00,	-9.52433e-05	
172	5.248075e+04	3.527471e+00,	-9.74618e-05	
173	5.370318e+04	3.527471e+00,	-9.97320e-05	
174	5.495409e+04	3.527471e+00,	-1.02055e-04	
175	5.623413e+04	3.527471e+00,	-1.04432e-04	
176	5.754399e+04	3.527471e+00,	-1.06865e-04	
177	5.888437e+04	3.527471e+00,	-1.09354e-04	
178	6.025596e+04	3.527471e+00,	-1.11901e-04	
179	6.165950e+04	3.527471e+00,	-1.14508e-04	
180	6.309573e+04	3.527471e+00,	-1.17175e-04	
181	6.456542e+04	3.527471e+00,	-1.19904e-04	
182	6.606934e+04	3.527471e+00,	-1.22697e-04	
183	6.760830e+04	3.527471e+00,	-1.25555e-04	
184	6.918310e+04	3.527471e+00,	-1.28480e-04	
185	7.079458e+04	3.527471e+00,	-1.31472e-04	
186	7.244360e+04	3.527471e+00,	-1.34535e-04	
187	7.413102e+04	3.527471e+00,	-1.37669e-04	
188	7.585776e+04	3.527471e+00,	-1.40875e-04	
189	7.762471e+04	3.527471e+00,	-1.44157e-04	
190	7.943282e+04	3.527471e+00,	-1.47514e-04	
191	8.128305e+04	3.527471e+00,	-1.50951e-04	
192	8.317638e+04	3.527471e+00,	-1.54467e-04	
193	8.511380e+04	3.527471e+00,	-1.58065e-04	
194	8.709636e+04	3.527471e+00,	-1.61746e-04	
195	8.912509e+04	3.527471e+00,	-1.65514e-04	
196	9.120108e+04	3.527471e+00,	-1.69369e-04	
197	9.332543e+04	3.527471e+00,	-1.73314e-04	
198	9.549926e+04	3.527471e+00,	-1.77351e-04	
199	9.772372e+04	3.527471e+00,	-1.81482e-04	
200	1.000000e+05	3.527471e+00,	-1.85710e-04	
201	1.023293e+05	3.527471e+00,	-1.90035e-04	
202	1.047129e+05	3.527471e+00,	-1.94462e-04	
203	1.071519e+05	3.527471e+00,	-1.98992e-04	
204	1.096478e+05	3.527471e+00,	-2.03627e-04	
205	1.122018e+05	3.527471e+00,	-2.08370e-04	
206	1.148154e+05	3.527471e+00,	-2.13223e-04	
207	1.174898e+05	3.527471e+00,	-2.18190e-04	
208	1.202264e+05	3.527471e+00,	-2.23272e-04	
209	1.230269e+05	3.527471e+00,	-2.28473e-04	
210	1.258925e+05	3.527471e+00,	-2.33795e-04	
211	1.288250e+05	3.527471e+00,	-2.39240e-04	
212	1.318257e+05	3.527471e+00,	-2.44813e-04	
213	1.348963e+05	3.527471e+00,	-2.50515e-04	
214	1.380384e+05	3.527471e+00,	-2.56351e-04	
215	1.412538e+05	3.527471e+00,	-2.62322e-04	
216	1.445440e+05	3.527471e+00,	-2.68432e-04	
217	1.479108e+05	3.527471e+00,	-2.74685e-04	
218	1.513561e+05	3.527471e+00,	-2.81083e-04	
219	1.548817e+05	3.527471e+00,	-2.87630e-04	
220	1.584893e+05	3.527471e+00,	-2.94330e-04	
221	1.621810e+05	3.527471e+00,	-3.01186e-04	
222	1.659587e+05	3.527471e+00,	-3.08201e-04	
223	1.698244e+05	3.527471e+00,	-3.15380e-04	
224	1.737801e+05	3.527471e+00,	-3.22726e-04	
225	1.778279e+05	3.527471e+00,	-3.30244e-04	
226	1.819701e+05	3.527471e+00,	-3.37936e-04	
227	1.862087e+05	3.527471e+00,	-3.45808e-04	
228	1.905461e+05	3.527471e+00,	-3.53863e-04	

Index   frequency       vop                             
--------------------------------------------------------------------------------
229	1.949845e+05	3.527471e+00,	-3.62105e-04	
230	1.995262e+05	3.527471e+00,	-3.70540e-04	
231	2.041738e+05	3.527471e+00,	-3.79171e-04	
232	2.089296e+05	3.527471e+00,	-3.88003e-04	
233	2.137962e+05	3.527471e+00,	-3.97040e-04	
234	2.187762e+05	3.527471e+00,	-4.06289e-04	
235	2.238721e+05	3.527471e+00,	-4.15752e-04	
236	2.290868e+05	3.527471e+00,	-4.25436e-04	
237	2.344229e+05	3.527471e+00,	-4.35346e-04	
238	2.398833e+05	3.527471e+00,	-4.45487e-04	
239	2.454709e+05	3.527471e+00,	-4.55863e-04	
240	2.511886e+05	3.527471e+00,	-4.66482e-04	
241	2.570396e+05	3.527471e+00,	-4.77347e-04	
242	2.630268e+05	3.527471e+00,	-4.88466e-04	
243	2.691535e+05	3.527471e+00,	-4.99844e-04	
244	2.754229e+05	3.527471e+00,	-5.11487e-04	
245	2.818383e+05	3.527471e+00,	-5.23401e-04	
246	2.884032e+05	3.527471e+00,	-5.35593e-04	
247	2.951209e+05	3.527471e+00,	-5.48068e-04	
248	3.019952e+05	3.527471e+00,	-5.60834e-04	
249	3.090295e+05	3.527471e+00,	-5.73898e-04	
250	3.162278e+05	3.527471e+00,	-5.87266e-04	
251	3.235937e+05	3.527471e+00,	-6.00945e-04	
252	3.311311e+05	3.527471e+00,	-6.14943e-04	
253	3.388442e+05	3.527471e+00,	-6.29267e-04	
254	3.467369e+05	3.527471e+00,	-6.43924e-04	
255	3.548134e+05	3.527471e+00,	-6.58923e-04	
256	3.630781e+05	3.527471e+00,	-6.74271e-04	
257	3.715352e+05	3.527471e+00,	-6.89977e-04	
258	3.801894e+05	3.527471e+00,	-7.06049e-04	
259	3.890451e+05	3.527471e+00,	-7.22495e-04	
260	3.981072e+05	3.527471e+00,	-7.39324e-04	
261	4.073803e+05	3.527471e+00,	-7.56545e-04	
262	4.168694e+05	3.527471e+00,	-7.74167e-04	
263	4.265795e+05	3.527471e+00,	-7.92200e-04	
264	4.365158e+05	3.527471e+00,	-8.10653e-04	
265	4.466836e+05	3.527471e+00,	-8.29535e-04	
266	4.570882e+05	3.527471e+00,	-8.48858e-04	
267	4.677351e+05	3.527471e+00,	-8.68630e-04	
268	4.786301e+05	3.527471e+00,	-8.88863e-04	
269	4.897788e+05	3.527471e+00,	-9.09567e-04	
270	5.011872e+05	3.527471e+00,	-9.30754e-04	
271	5.128614e+05	3.527471e+00,	-9.52434e-04	
272	5.248075e+05	3.527471e+00,	-9.74619e-04	
273	5.370318e+05	3.527471e+00,	-9.97321e-04	
274	5.495409e+05	3.527471e+00,	-1.02055e-03	
275	5.623413e+05	3.527471e+00,	-1.04432e-03	
276	5.754399e+05	3.527471e+00,	-1.06865e-03	
277	5.888437e+05	3.527471e+00,	-1.09354e-03	
278	6.025596e+05	3.527471e+00,	-1.11901e-03	
279	6.165950e+05	3.527471e+00,	-1.14508e-03	
280	6.309573e+05	3.527471e+00,	-1.17175e-03	
281	6.456542e+05	3.527471e+00,	-1.19904e-03	
282	6.606934e+05	3.527471e+00,	-1.22697e-03	
283	6.760830e+05	3.527471e+00,	-1.25555e-03	
284	6.918310e+05	3.527471e+00,	-1.28480e-03	
285	7.079458e+05	3.527471e+00,	-1.31473e-03	
286	7.244360e+05	3.527471e+00,	-1.34535e-03	

Index   frequency       vop                             
--------------------------------------------------------------------------------
287	7.413102e+05	3.527471e+00,	-1.37669e-03	
288	7.585776e+05	3.527471e+00,	-1.40875e-03	
289	7.762471e+05	3.527471e+00,	-1.44157e-03	
290	7.943282e+05	3.527471e+00,	-1.47515e-03	
291	8.128305e+05	3.527471e+00,	-1.50951e-03	
292	8.317638e+05	3.527471e+00,	-1.54467e-03	
293	8.511380e+05	3.527471e+00,	-1.58065e-03	
294	8.709636e+05	3.527471e+00,	-1.61747e-03	
295	8.912509e+05	3.527471e+00,	-1.65514e-03	
296	9.120108e+05	3.527471e+00,	-1.69370e-03	
297	9.332543e+05	3.527471e+00,	-1.73315e-03	
298	9.549926e+05	3.527471e+00,	-1.77352e-03	
299	9.772372e+05	3.527471e+00,	-1.81483e-03	
300	1.000000e+06	3.527471e+00,	-1.85710e-03	
301	1.023293e+06	3.527471e+00,	-1.90036e-03	
302	1.047129e+06	3.527471e+00,	-1.94462e-03	
303	1.071519e+06	3.527471e+00,	-1.98992e-03	
304	1.096478e+06	3.527471e+00,	-2.03627e-03	
305	1.122018e+06	3.527471e+00,	-2.08370e-03	
306	1.148154e+06	3.527471e+00,	-2.13224e-03	
307	1.174898e+06	3.527471e+00,	-2.18191e-03	
308	1.202264e+06	3.527471e+00,	-2.23273e-03	
309	1.230269e+06	3.527471e+00,	-2.28474e-03	
310	1.258925e+06	3.527471e+00,	-2.33796e-03	
311	1.288250e+06	3.527471e+00,	-2.39241e-03	
312	1.318257e+06	3.527471e+00,	-2.44814e-03	
313	1.348963e+06	3.527471e+00,	-2.50517e-03	
314	1.380384e+06	3.527471e+00,	-2.56352e-03	
315	1.412538e+06	3.527471e+00,	-2.62323e-03	
316	1.445440e+06	3.527471e+00,	-2.68434e-03	
317	1.479108e+06	3.527471e+00,	-2.74686e-03	
318	1.513561e+06	3.527471e+00,	-2.81085e-03	
319	1.548817e+06	3.527470e+00,	-2.87632e-03	
320	1.584893e+06	3.527470e+00,	-2.94332e-03	
321	1.621810e+06	3.527470e+00,	-3.01188e-03	
322	1.659587e+06	3.527470e+00,	-3.08203e-03	
323	1.698244e+06	3.527470e+00,	-3.15383e-03	
324	1.737801e+06	3.527470e+00,	-3.22729e-03	
325	1.778279e+06	3.527470e+00,	-3.30246e-03	
326	1.819701e+06	3.527470e+00,	-3.37939e-03	
327	1.862087e+06	3.527470e+00,	-3.45811e-03	
328	1.905461e+06	3.527470e+00,	-3.53866e-03	
329	1.949845e+06	3.527470e+00,	-3.62108e-03	
330	1.995262e+06	3.527470e+00,	-3.70543e-03	
331	2.041738e+06	3.527470e+00,	-3.79174e-03	
332	2.089296e+06	3.527470e+00,	-3.88007e-03	
333	2.137962e+06	3.527470e+00,	-3.97045e-03	
334	2.187762e+06	3.527470e+00,	-4.06293e-03	
335	2.238721e+06	3.527470e+00,	-4.15757e-03	
336	2.290868e+06	3.527469e+00,	-4.25442e-03	
337	2.344229e+06	3.527469e+00,	-4.35352e-03	
338	2.398833e+06	3.527469e+00,	-4.45493e-03	
339	2.454709e+06	3.527469e+00,	-4.55870e-03	
340	2.511886e+06	3.527469e+00,	-4.66489e-03	
341	2.570396e+06	3.527469e+00,	-4.77355e-03	
342	2.630268e+06	3.527469e+00,	-4.88474e-03	
343	2.691535e+06	3.527469e+00,	-4.99853e-03	
344	2.754229e+06	3.527469e+00,	-5.11496e-03	

Index   frequency       vop                             
--------------------------------------------------------------------------------
345	2.818383e+06	3.527469e+00,	-5.23411e-03	
346	2.884032e+06	3.527468e+00,	-5.35603e-03	
347	2.951209e+06	3.527468e+00,	-5.48080e-03	
348	3.019952e+06	3.527468e+00,	-5.60847e-03	
349	3.090295e+06	3.527468e+00,	-5.73911e-03	
350	3.162278e+06	3.527468e+00,	-5.87280e-03	
351	3.235937e+06	3.527468e+00,	-6.00960e-03	
352	3.311311e+06	3.527467e+00,	-6.14959e-03	
353	3.388442e+06	3.527467e+00,	-6.29284e-03	
354	3.467369e+06	3.527467e+00,	-6.43943e-03	
355	3.548134e+06	3.527467e+00,	-6.58943e-03	
356	3.630781e+06	3.527467e+00,	-6.74293e-03	
357	3.715352e+06	3.527466e+00,	-6.90000e-03	
358	3.801894e+06	3.527466e+00,	-7.06073e-03	
359	3.890451e+06	3.527466e+00,	-7.22521e-03	
360	3.981072e+06	3.527466e+00,	-7.39352e-03	
361	4.073803e+06	3.527465e+00,	-7.56575e-03	
362	4.168694e+06	3.527465e+00,	-7.74199e-03	
363	4.265795e+06	3.527465e+00,	-7.92234e-03	
364	4.365158e+06	3.527465e+00,	-8.10689e-03	
365	4.466836e+06	3.527464e+00,	-8.29575e-03	
366	4.570882e+06	3.527464e+00,	-8.48900e-03	
367	4.677351e+06	3.527464e+00,	-8.68675e-03	
368	4.786301e+06	3.527463e+00,	-8.88912e-03	
369	4.897788e+06	3.527463e+00,	-9.09619e-03	
370	5.011872e+06	3.527462e+00,	-9.30810e-03	
371	5.128614e+06	3.527462e+00,	-9.52494e-03	
372	5.248075e+06	3.527462e+00,	-9.74683e-03	
373	5.370318e+06	3.527461e+00,	-9.97389e-03	
374	5.495409e+06	3.527461e+00,	-1.02062e-02	
375	5.623413e+06	3.527460e+00,	-1.04440e-02	
376	5.754399e+06	3.527460e+00,	-1.06873e-02	
377	5.888437e+06	3.527459e+00,	-1.09363e-02	
378	6.025596e+06	3.527458e+00,	-1.11911e-02	
379	6.165950e+06	3.527458e+00,	-1.14518e-02	
380	6.309573e+06	3.527457e+00,	-1.17186e-02	
381	6.456542e+06	3.527456e+00,	-1.19916e-02	
382	6.606934e+06	3.527456e+00,	-1.22710e-02	
383	6.760830e+06	3.527455e+00,	-1.25569e-02	
384	6.918310e+06	3.527454e+00,	-1.28494e-02	
385	7.079458e+06	3.527453e+00,	-1.31488e-02	
386	7.244360e+06	3.527453e+00,	-1.34552e-02	
387	7.413102e+06	3.527452e+00,	-1.37687e-02	
388	7.585776e+06	3.527451e+00,	-1.40895e-02	
389	7.762471e+06	3.527450e+00,	-1.44177e-02	
390	7.943282e+06	3.527449e+00,	-1.47537e-02	
391	8.128305e+06	3.527448e+00,	-1.50974e-02	
392	8.317638e+06	3.527447e+00,	-1.54492e-02	
393	8.511380e+06	3.527445e+00,	-1.58092e-02	
394	8.709636e+06	3.527444e+00,	-1.61776e-02	
395	8.912509e+06	3.527443e+00,	-1.65545e-02	
396	9.120108e+06	3.527441e+00,	-1.69403e-02	
397	9.332543e+06	3.527440e+00,	-1.73350e-02	
398	9.549926e+06	3.527438e+00,	-1.77390e-02	
399	9.772372e+06	3.527437e+00,	-1.81524e-02	
400	1.000000e+07	3.527435e+00,	-1.85754e-02	
401	1.023293e+07	3.527434e+00,	-1.90083e-02	
402	1.047129e+07	3.527432e+00,	-1.94512e-02	

Index   frequency       vop                             
--------------------------------------------------------------------------------
403	1.071519e+07	3.527430e+00,	-1.99046e-02	
404	1.096478e+07	3.527428e+00,	-2.03684e-02	
405	1.122018e+07	3.527426e+00,	-2.08432e-02	
406	1.148154e+07	3.527424e+00,	-2.13289e-02	
407	1.174898e+07	3.527421e+00,	-2.18261e-02	
408	1.202264e+07	3.527419e+00,	-2.23348e-02	
409	1.230269e+07	3.527416e+00,	-2.28554e-02	
410	1.258925e+07	3.527414e+00,	-2.33881e-02	
411	1.288250e+07	3.527411e+00,	-2.39333e-02	
412	1.318257e+07	3.527408e+00,	-2.44912e-02	
413	1.348963e+07	3.527405e+00,	-2.50622e-02	
414	1.380384e+07	3.527402e+00,	-2.56464e-02	
415	1.412538e+07	3.527398e+00,	-2.62443e-02	
416	1.445440e+07	3.527395e+00,	-2.68562e-02	
