** sch_path: /home/andylithia/openmpw/project-reisen-chip1/xschem/ota_wideband.sch
AC Analysis  Sun Oct 30 17:11:03  2022
--------------------------------------------------------------------------------
Index   frequency       vop                             
--------------------------------------------------------------------------------
0	1.000000e+03	2.246930e+00,	7.819310e-06	
1	1.023293e+03	2.246930e+00,	8.001445e-06	
2	1.047129e+03	2.246930e+00,	8.187823e-06	
3	1.071519e+03	2.246930e+00,	8.378542e-06	
4	1.096478e+03	2.246930e+00,	8.573703e-06	
5	1.122018e+03	2.246930e+00,	8.773410e-06	
6	1.148154e+03	2.246930e+00,	8.977769e-06	
7	1.174898e+03	2.246930e+00,	9.186888e-06	
8	1.202264e+03	2.246930e+00,	9.400878e-06	
9	1.230269e+03	2.246930e+00,	9.619853e-06	
10	1.258925e+03	2.246930e+00,	9.843928e-06	
11	1.288250e+03	2.246930e+00,	1.007322e-05	
12	1.318257e+03	2.246930e+00,	1.030786e-05	
13	1.348963e+03	2.246930e+00,	1.054796e-05	
14	1.380384e+03	2.246930e+00,	1.079365e-05	
15	1.412538e+03	2.246930e+00,	1.104507e-05	
16	1.445440e+03	2.246930e+00,	1.130234e-05	
17	1.479108e+03	2.246930e+00,	1.156561e-05	
18	1.513561e+03	2.246930e+00,	1.183500e-05	
19	1.548817e+03	2.246930e+00,	1.211068e-05	
20	1.584893e+03	2.246930e+00,	1.239277e-05	
21	1.621810e+03	2.246930e+00,	1.268144e-05	
22	1.659587e+03	2.246930e+00,	1.297682e-05	
23	1.698244e+03	2.246930e+00,	1.327909e-05	
24	1.737801e+03	2.246930e+00,	1.358840e-05	
25	1.778279e+03	2.246930e+00,	1.390492e-05	
26	1.819701e+03	2.246930e+00,	1.422881e-05	
27	1.862087e+03	2.246930e+00,	1.456024e-05	
28	1.905461e+03	2.246930e+00,	1.489939e-05	
29	1.949845e+03	2.246930e+00,	1.524644e-05	
30	1.995262e+03	2.246930e+00,	1.560157e-05	
31	2.041738e+03	2.246930e+00,	1.596498e-05	
32	2.089296e+03	2.246930e+00,	1.633685e-05	
33	2.137962e+03	2.246930e+00,	1.671739e-05	
34	2.187762e+03	2.246930e+00,	1.710679e-05	
35	2.238721e+03	2.246930e+00,	1.750525e-05	
36	2.290868e+03	2.246930e+00,	1.791300e-05	
37	2.344229e+03	2.246930e+00,	1.833025e-05	
38	2.398833e+03	2.246930e+00,	1.875722e-05	
39	2.454709e+03	2.246930e+00,	1.919413e-05	
40	2.511886e+03	2.246930e+00,	1.964122e-05	
41	2.570396e+03	2.246930e+00,	2.009872e-05	
42	2.630268e+03	2.246930e+00,	2.056688e-05	
43	2.691535e+03	2.246930e+00,	2.104595e-05	
44	2.754229e+03	2.246930e+00,	2.153617e-05	
45	2.818383e+03	2.246930e+00,	2.203781e-05	
46	2.884032e+03	2.246930e+00,	2.255114e-05	
47	2.951209e+03	2.246930e+00,	2.307642e-05	
48	3.019952e+03	2.246930e+00,	2.361394e-05	
49	3.090295e+03	2.246930e+00,	2.416398e-05	
50	3.162278e+03	2.246930e+00,	2.472683e-05	
51	3.235937e+03	2.246930e+00,	2.530279e-05	
52	3.311311e+03	2.246930e+00,	2.589217e-05	
53	3.388442e+03	2.246930e+00,	2.649528e-05	
54	3.467369e+03	2.246930e+00,	2.711243e-05	

Index   frequency       vop                             
--------------------------------------------------------------------------------
55	3.548134e+03	2.246930e+00,	2.774396e-05	
56	3.630781e+03	2.246930e+00,	2.839020e-05	
57	3.715352e+03	2.246930e+00,	2.905149e-05	
58	3.801894e+03	2.246930e+00,	2.972819e-05	
59	3.890451e+03	2.246930e+00,	3.042065e-05	
60	3.981072e+03	2.246930e+00,	3.112923e-05	
61	4.073803e+03	2.246930e+00,	3.185433e-05	
62	4.168694e+03	2.246930e+00,	3.259631e-05	
63	4.265795e+03	2.246930e+00,	3.335558e-05	
64	4.365158e+03	2.246930e+00,	3.413253e-05	
65	4.466836e+03	2.246930e+00,	3.492758e-05	
66	4.570882e+03	2.246930e+00,	3.574114e-05	
67	4.677351e+03	2.246930e+00,	3.657366e-05	
68	4.786301e+03	2.246930e+00,	3.742557e-05	
69	4.897788e+03	2.246930e+00,	3.829732e-05	
70	5.011872e+03	2.246930e+00,	3.918938e-05	
71	5.128614e+03	2.246930e+00,	4.010222e-05	
72	5.248075e+03	2.246930e+00,	4.103632e-05	
73	5.370318e+03	2.246930e+00,	4.199218e-05	
74	5.495409e+03	2.246930e+00,	4.297030e-05	
75	5.623413e+03	2.246930e+00,	4.397121e-05	
76	5.754399e+03	2.246930e+00,	4.499543e-05	
77	5.888437e+03	2.246930e+00,	4.604351e-05	
78	6.025596e+03	2.246930e+00,	4.711600e-05	
79	6.165950e+03	2.246930e+00,	4.821348e-05	
80	6.309573e+03	2.246930e+00,	4.933651e-05	
81	6.456542e+03	2.246930e+00,	5.048571e-05	
82	6.606934e+03	2.246930e+00,	5.166167e-05	
83	6.760830e+03	2.246930e+00,	5.286502e-05	
84	6.918310e+03	2.246930e+00,	5.409641e-05	
85	7.079458e+03	2.246930e+00,	5.535648e-05	
86	7.244360e+03	2.246930e+00,	5.664589e-05	
87	7.413102e+03	2.246930e+00,	5.796535e-05	
88	7.585776e+03	2.246930e+00,	5.931553e-05	
89	7.762471e+03	2.246930e+00,	6.069717e-05	
90	7.943282e+03	2.246930e+00,	6.211099e-05	
91	8.128305e+03	2.246930e+00,	6.355774e-05	
92	8.317638e+03	2.246930e+00,	6.503819e-05	
93	8.511380e+03	2.246930e+00,	6.655312e-05	
94	8.709636e+03	2.246930e+00,	6.810334e-05	
95	8.912509e+03	2.246930e+00,	6.968967e-05	
96	9.120108e+03	2.246930e+00,	7.131296e-05	
97	9.332543e+03	2.246930e+00,	7.297405e-05	
98	9.549926e+03	2.246930e+00,	7.467383e-05	
99	9.772372e+03	2.246930e+00,	7.641321e-05	
100	1.000000e+04	2.246930e+00,	7.819310e-05	
101	1.023293e+04	2.246930e+00,	8.001445e-05	
102	1.047129e+04	2.246930e+00,	8.187823e-05	
103	1.071519e+04	2.246930e+00,	8.378542e-05	
104	1.096478e+04	2.246930e+00,	8.573703e-05	
105	1.122018e+04	2.246930e+00,	8.773410e-05	
106	1.148154e+04	2.246930e+00,	8.977769e-05	
107	1.174898e+04	2.246930e+00,	9.186888e-05	
108	1.202264e+04	2.246930e+00,	9.400878e-05	
109	1.230269e+04	2.246930e+00,	9.619853e-05	
110	1.258925e+04	2.246931e+00,	9.843928e-05	
111	1.288250e+04	2.246931e+00,	1.007322e-04	
112	1.318257e+04	2.246931e+00,	1.030786e-04	

Index   frequency       vop                             
--------------------------------------------------------------------------------
113	1.348963e+04	2.246931e+00,	1.054796e-04	
114	1.380384e+04	2.246931e+00,	1.079365e-04	
115	1.412538e+04	2.246931e+00,	1.104507e-04	
116	1.445440e+04	2.246931e+00,	1.130234e-04	
117	1.479108e+04	2.246931e+00,	1.156561e-04	
118	1.513561e+04	2.246931e+00,	1.183500e-04	
119	1.548817e+04	2.246931e+00,	1.211068e-04	
120	1.584893e+04	2.246931e+00,	1.239277e-04	
121	1.621810e+04	2.246931e+00,	1.268144e-04	
122	1.659587e+04	2.246931e+00,	1.297682e-04	
123	1.698244e+04	2.246931e+00,	1.327909e-04	
124	1.737801e+04	2.246931e+00,	1.358840e-04	
125	1.778279e+04	2.246931e+00,	1.390492e-04	
126	1.819701e+04	2.246931e+00,	1.422881e-04	
127	1.862087e+04	2.246931e+00,	1.456024e-04	
128	1.905461e+04	2.246931e+00,	1.489939e-04	
129	1.949845e+04	2.246931e+00,	1.524644e-04	
130	1.995262e+04	2.246931e+00,	1.560157e-04	
131	2.041738e+04	2.246931e+00,	1.596498e-04	
132	2.089296e+04	2.246931e+00,	1.633685e-04	
133	2.137962e+04	2.246931e+00,	1.671739e-04	
134	2.187762e+04	2.246931e+00,	1.710679e-04	
135	2.238721e+04	2.246931e+00,	1.750525e-04	
136	2.290868e+04	2.246931e+00,	1.791300e-04	
137	2.344229e+04	2.246931e+00,	1.833025e-04	
138	2.398833e+04	2.246931e+00,	1.875722e-04	
139	2.454709e+04	2.246931e+00,	1.919413e-04	
140	2.511886e+04	2.246931e+00,	1.964122e-04	
141	2.570396e+04	2.246931e+00,	2.009872e-04	
142	2.630268e+04	2.246931e+00,	2.056688e-04	
143	2.691535e+04	2.246931e+00,	2.104594e-04	
144	2.754229e+04	2.246931e+00,	2.153617e-04	
145	2.818383e+04	2.246931e+00,	2.203781e-04	
146	2.884032e+04	2.246931e+00,	2.255114e-04	
147	2.951209e+04	2.246931e+00,	2.307642e-04	
148	3.019952e+04	2.246931e+00,	2.361394e-04	
149	3.090295e+04	2.246931e+00,	2.416398e-04	
150	3.162278e+04	2.246931e+00,	2.472683e-04	
151	3.235937e+04	2.246931e+00,	2.530279e-04	
152	3.311311e+04	2.246931e+00,	2.589217e-04	
153	3.388442e+04	2.246931e+00,	2.649527e-04	
154	3.467369e+04	2.246931e+00,	2.711243e-04	
155	3.548134e+04	2.246931e+00,	2.774396e-04	
156	3.630781e+04	2.246931e+00,	2.839020e-04	
157	3.715352e+04	2.246931e+00,	2.905149e-04	
158	3.801894e+04	2.246931e+00,	2.972819e-04	
159	3.890451e+04	2.246931e+00,	3.042064e-04	
160	3.981072e+04	2.246931e+00,	3.112923e-04	
161	4.073803e+04	2.246931e+00,	3.185432e-04	
162	4.168694e+04	2.246931e+00,	3.259631e-04	
163	4.265795e+04	2.246931e+00,	3.335557e-04	
164	4.365158e+04	2.246931e+00,	3.413252e-04	
165	4.466836e+04	2.246931e+00,	3.492757e-04	
166	4.570882e+04	2.246931e+00,	3.574114e-04	
167	4.677351e+04	2.246931e+00,	3.657366e-04	
168	4.786301e+04	2.246931e+00,	3.742557e-04	
169	4.897788e+04	2.246931e+00,	3.829732e-04	
170	5.011872e+04	2.246931e+00,	3.918938e-04	

Index   frequency       vop                             
--------------------------------------------------------------------------------
171	5.128614e+04	2.246931e+00,	4.010222e-04	
172	5.248075e+04	2.246931e+00,	4.103632e-04	
173	5.370318e+04	2.246931e+00,	4.199218e-04	
174	5.495409e+04	2.246931e+00,	4.297030e-04	
175	5.623413e+04	2.246931e+00,	4.397121e-04	
176	5.754399e+04	2.246931e+00,	4.499543e-04	
177	5.888437e+04	2.246931e+00,	4.604350e-04	
178	6.025596e+04	2.246931e+00,	4.711600e-04	
179	6.165950e+04	2.246931e+00,	4.821347e-04	
180	6.309573e+04	2.246931e+00,	4.933650e-04	
181	6.456542e+04	2.246931e+00,	5.048570e-04	
182	6.606934e+04	2.246931e+00,	5.166166e-04	
183	6.760830e+04	2.246931e+00,	5.286501e-04	
184	6.918310e+04	2.246931e+00,	5.409640e-04	
185	7.079458e+04	2.246931e+00,	5.535646e-04	
186	7.244360e+04	2.246931e+00,	5.664588e-04	
187	7.413102e+04	2.246931e+00,	5.796533e-04	
188	7.585776e+04	2.246931e+00,	5.931552e-04	
189	7.762471e+04	2.246931e+00,	6.069715e-04	
190	7.943282e+04	2.246931e+00,	6.211097e-04	
191	8.128305e+04	2.246931e+00,	6.355772e-04	
192	8.317638e+04	2.246931e+00,	6.503817e-04	
193	8.511380e+04	2.246931e+00,	6.655310e-04	
194	8.709636e+04	2.246931e+00,	6.810332e-04	
195	8.912509e+04	2.246931e+00,	6.968965e-04	
196	9.120108e+04	2.246931e+00,	7.131293e-04	
197	9.332543e+04	2.246931e+00,	7.297402e-04	
198	9.549926e+04	2.246931e+00,	7.467380e-04	
199	9.772372e+04	2.246931e+00,	7.641318e-04	
200	1.000000e+05	2.246931e+00,	7.819307e-04	
201	1.023293e+05	2.246931e+00,	8.001442e-04	
202	1.047129e+05	2.246931e+00,	8.187819e-04	
203	1.071519e+05	2.246931e+00,	8.378537e-04	
204	1.096478e+05	2.246931e+00,	8.573699e-04	
205	1.122018e+05	2.246931e+00,	8.773405e-04	
206	1.148154e+05	2.246931e+00,	8.977764e-04	
207	1.174898e+05	2.246931e+00,	9.186883e-04	
208	1.202264e+05	2.246931e+00,	9.400872e-04	
209	1.230269e+05	2.246931e+00,	9.619847e-04	
210	1.258925e+05	2.246931e+00,	9.843921e-04	
211	1.288250e+05	2.246931e+00,	1.007322e-03	
212	1.318257e+05	2.246932e+00,	1.030785e-03	
213	1.348963e+05	2.246932e+00,	1.054795e-03	
214	1.380384e+05	2.246932e+00,	1.079364e-03	
215	1.412538e+05	2.246932e+00,	1.104506e-03	
216	1.445440e+05	2.246932e+00,	1.130233e-03	
217	1.479108e+05	2.246932e+00,	1.156560e-03	
218	1.513561e+05	2.246932e+00,	1.183499e-03	
219	1.548817e+05	2.246932e+00,	1.211066e-03	
220	1.584893e+05	2.246932e+00,	1.239276e-03	
221	1.621810e+05	2.246932e+00,	1.268142e-03	
222	1.659587e+05	2.246932e+00,	1.297681e-03	
223	1.698244e+05	2.246932e+00,	1.327908e-03	
224	1.737801e+05	2.246932e+00,	1.358839e-03	
225	1.778279e+05	2.246932e+00,	1.390490e-03	
226	1.819701e+05	2.246932e+00,	1.422878e-03	
227	1.862087e+05	2.246933e+00,	1.456021e-03	
228	1.905461e+05	2.246933e+00,	1.489936e-03	

Index   frequency       vop                             
--------------------------------------------------------------------------------
229	1.949845e+05	2.246933e+00,	1.524641e-03	
230	1.995262e+05	2.246933e+00,	1.560155e-03	
231	2.041738e+05	2.246933e+00,	1.596495e-03	
232	2.089296e+05	2.246933e+00,	1.633682e-03	
233	2.137962e+05	2.246933e+00,	1.671735e-03	
234	2.187762e+05	2.246933e+00,	1.710675e-03	
235	2.238721e+05	2.246933e+00,	1.750522e-03	
236	2.290868e+05	2.246934e+00,	1.791296e-03	
237	2.344229e+05	2.246934e+00,	1.833021e-03	
238	2.398833e+05	2.246934e+00,	1.875717e-03	
239	2.454709e+05	2.246934e+00,	1.919408e-03	
240	2.511886e+05	2.246934e+00,	1.964116e-03	
241	2.570396e+05	2.246934e+00,	2.009866e-03	
242	2.630268e+05	2.246935e+00,	2.056682e-03	
243	2.691535e+05	2.246935e+00,	2.104588e-03	
244	2.754229e+05	2.246935e+00,	2.153610e-03	
245	2.818383e+05	2.246935e+00,	2.203773e-03	
246	2.884032e+05	2.246935e+00,	2.255105e-03	
247	2.951209e+05	2.246936e+00,	2.307633e-03	
248	3.019952e+05	2.246936e+00,	2.361384e-03	
249	3.090295e+05	2.246936e+00,	2.416388e-03	
250	3.162278e+05	2.246936e+00,	2.472672e-03	
251	3.235937e+05	2.246937e+00,	2.530268e-03	
252	3.311311e+05	2.246937e+00,	2.589204e-03	
253	3.388442e+05	2.246937e+00,	2.649514e-03	
254	3.467369e+05	2.246938e+00,	2.711229e-03	
255	3.548134e+05	2.246938e+00,	2.774381e-03	
256	3.630781e+05	2.246938e+00,	2.839003e-03	
257	3.715352e+05	2.246939e+00,	2.905132e-03	
258	3.801894e+05	2.246939e+00,	2.972800e-03	
259	3.890451e+05	2.246939e+00,	3.042044e-03	
260	3.981072e+05	2.246940e+00,	3.112902e-03	
261	4.073803e+05	2.246940e+00,	3.185409e-03	
262	4.168694e+05	2.246941e+00,	3.259606e-03	
263	4.265795e+05	2.246941e+00,	3.335531e-03	
264	4.365158e+05	2.246942e+00,	3.413224e-03	
265	4.466836e+05	2.246942e+00,	3.492727e-03	
266	4.570882e+05	2.246943e+00,	3.574081e-03	
267	4.677351e+05	2.246943e+00,	3.657331e-03	
268	4.786301e+05	2.246944e+00,	3.742519e-03	
269	4.897788e+05	2.246945e+00,	3.829692e-03	
270	5.011872e+05	2.246945e+00,	3.918895e-03	
271	5.128614e+05	2.246946e+00,	4.010176e-03	
272	5.248075e+05	2.246947e+00,	4.103583e-03	
273	5.370318e+05	2.246948e+00,	4.199165e-03	
274	5.495409e+05	2.246948e+00,	4.296973e-03	
275	5.623413e+05	2.246949e+00,	4.397060e-03	
276	5.754399e+05	2.246950e+00,	4.499478e-03	
277	5.888437e+05	2.246951e+00,	4.604281e-03	
278	6.025596e+05	2.246952e+00,	4.711525e-03	
279	6.165950e+05	2.246953e+00,	4.821267e-03	
280	6.309573e+05	2.246954e+00,	4.933565e-03	
281	6.456542e+05	2.246955e+00,	5.048478e-03	
282	6.606934e+05	2.246956e+00,	5.166068e-03	
283	6.760830e+05	2.246958e+00,	5.286396e-03	
284	6.918310e+05	2.246959e+00,	5.409527e-03	
285	7.079458e+05	2.246960e+00,	5.535526e-03	
286	7.244360e+05	2.246962e+00,	5.664459e-03	

Index   frequency       vop                             
--------------------------------------------------------------------------------
287	7.413102e+05	2.246963e+00,	5.796395e-03	
288	7.585776e+05	2.246965e+00,	5.931403e-03	
289	7.762471e+05	2.246966e+00,	6.069556e-03	
290	7.943282e+05	2.246968e+00,	6.210927e-03	
291	8.128305e+05	2.246970e+00,	6.355589e-03	
292	8.317638e+05	2.246972e+00,	6.503621e-03	
293	8.511380e+05	2.246973e+00,	6.655100e-03	
294	8.709636e+05	2.246975e+00,	6.810107e-03	
295	8.912509e+05	2.246978e+00,	6.968724e-03	
296	9.120108e+05	2.246980e+00,	7.131035e-03	
297	9.332543e+05	2.246982e+00,	7.297125e-03	
298	9.549926e+05	2.246985e+00,	7.467084e-03	
299	9.772372e+05	2.246987e+00,	7.641000e-03	
300	1.000000e+06	2.246990e+00,	7.818966e-03	
301	1.023293e+06	2.246993e+00,	8.001077e-03	
302	1.047129e+06	2.246996e+00,	8.187428e-03	
303	1.071519e+06	2.246999e+00,	8.378119e-03	
304	1.096478e+06	2.247002e+00,	8.573250e-03	
305	1.122018e+06	2.247005e+00,	8.772925e-03	
306	1.148154e+06	2.247009e+00,	8.977249e-03	
307	1.174898e+06	2.247012e+00,	9.186331e-03	
308	1.202264e+06	2.247016e+00,	9.400281e-03	
309	1.230269e+06	2.247020e+00,	9.619213e-03	
310	1.258925e+06	2.247024e+00,	9.843242e-03	
311	1.288250e+06	2.247029e+00,	1.007249e-02	
312	1.318257e+06	2.247034e+00,	1.030707e-02	
313	1.348963e+06	2.247038e+00,	1.054712e-02	
314	1.380384e+06	2.247044e+00,	1.079275e-02	
315	1.412538e+06	2.247049e+00,	1.104410e-02	
316	1.445440e+06	2.247054e+00,	1.130130e-02	
317	1.479108e+06	2.247060e+00,	1.156450e-02	
318	1.513561e+06	2.247066e+00,	1.183381e-02	
319	1.548817e+06	2.247073e+00,	1.210940e-02	
320	1.584893e+06	2.247079e+00,	1.239140e-02	
321	1.621810e+06	2.247086e+00,	1.267997e-02	
322	1.659587e+06	2.247094e+00,	1.297525e-02	
323	1.698244e+06	2.247102e+00,	1.327741e-02	
324	1.737801e+06	2.247110e+00,	1.358660e-02	
325	1.778279e+06	2.247118e+00,	1.390299e-02	
326	1.819701e+06	2.247127e+00,	1.422673e-02	
327	1.862087e+06	2.247136e+00,	1.455802e-02	
328	1.905461e+06	2.247146e+00,	1.489701e-02	
329	1.949845e+06	2.247156e+00,	1.524389e-02	
330	1.995262e+06	2.247167e+00,	1.559884e-02	
331	2.041738e+06	2.247178e+00,	1.596206e-02	
332	2.089296e+06	2.247189e+00,	1.633372e-02	
333	2.137962e+06	2.247202e+00,	1.671403e-02	
334	2.187762e+06	2.247214e+00,	1.710319e-02	
335	2.238721e+06	2.247228e+00,	1.750140e-02	
336	2.290868e+06	2.247242e+00,	1.790887e-02	
337	2.344229e+06	2.247256e+00,	1.832582e-02	
338	2.398833e+06	2.247272e+00,	1.875247e-02	
339	2.454709e+06	2.247288e+00,	1.918905e-02	
340	2.511886e+06	2.247305e+00,	1.963577e-02	
341	2.570396e+06	2.247322e+00,	2.009289e-02	
342	2.630268e+06	2.247341e+00,	2.056063e-02	
343	2.691535e+06	2.247360e+00,	2.103924e-02	
344	2.754229e+06	2.247380e+00,	2.152899e-02	

Index   frequency       vop                             
--------------------------------------------------------------------------------
345	2.818383e+06	2.247402e+00,	2.203012e-02	
346	2.884032e+06	2.247424e+00,	2.254289e-02	
347	2.951209e+06	2.247447e+00,	2.306759e-02	
348	3.019952e+06	2.247471e+00,	2.360447e-02	
349	3.090295e+06	2.247497e+00,	2.415384e-02	
350	3.162278e+06	2.247523e+00,	2.471596e-02	
351	3.235937e+06	2.247551e+00,	2.529115e-02	
352	3.311311e+06	2.247581e+00,	2.587969e-02	
353	3.388442e+06	2.247611e+00,	2.648191e-02	
354	3.467369e+06	2.247643e+00,	2.709810e-02	
355	3.548134e+06	2.247677e+00,	2.772861e-02	
356	3.630781e+06	2.247712e+00,	2.837375e-02	
357	3.715352e+06	2.247749e+00,	2.903387e-02	
358	3.801894e+06	2.247787e+00,	2.970930e-02	
359	3.890451e+06	2.247828e+00,	3.040041e-02	
360	3.981072e+06	2.247870e+00,	3.110755e-02	
361	4.073803e+06	2.247914e+00,	3.183110e-02	
362	4.168694e+06	2.247961e+00,	3.257142e-02	
363	4.265795e+06	2.248009e+00,	3.332890e-02	
364	4.365158e+06	2.248060e+00,	3.410395e-02	
365	4.466836e+06	2.248113e+00,	3.489695e-02	
366	4.570882e+06	2.248169e+00,	3.570833e-02	
367	4.677351e+06	2.248227e+00,	3.653850e-02	
368	4.786301e+06	2.248288e+00,	3.738790e-02	
369	4.897788e+06	2.248352e+00,	3.825696e-02	
370	5.011872e+06	2.248419e+00,	3.914613e-02	
371	5.128614e+06	2.248489e+00,	4.005588e-02	
372	5.248075e+06	2.248563e+00,	4.098666e-02	
373	5.370318e+06	2.248640e+00,	4.193897e-02	
374	5.495409e+06	2.248720e+00,	4.291329e-02	
375	5.623413e+06	2.248804e+00,	4.391012e-02	
376	5.754399e+06	2.248893e+00,	4.492998e-02	
377	5.888437e+06	2.248985e+00,	4.597337e-02	
378	6.025596e+06	2.249082e+00,	4.704085e-02	
379	6.165950e+06	2.249183e+00,	4.813295e-02	
380	6.309573e+06	2.249289e+00,	4.925023e-02	
381	6.456542e+06	2.249400e+00,	5.039326e-02	
382	6.606934e+06	2.249516e+00,	5.156261e-02	
383	6.760830e+06	2.249638e+00,	5.275888e-02	
384	6.918310e+06	2.249765e+00,	5.398268e-02	
385	7.079458e+06	2.249899e+00,	5.523462e-02	
386	7.244360e+06	2.250039e+00,	5.651533e-02	
387	7.413102e+06	2.250185e+00,	5.782545e-02	
388	7.585776e+06	2.250338e+00,	5.916563e-02	
389	7.762471e+06	2.250498e+00,	6.053655e-02	
390	7.943282e+06	2.250666e+00,	6.193889e-02	
391	8.128305e+06	2.250842e+00,	6.337334e-02	
392	8.317638e+06	2.251026e+00,	6.484062e-02	
393	8.511380e+06	2.251218e+00,	6.634143e-02	
394	8.709636e+06	2.251420e+00,	6.787652e-02	
395	8.912509e+06	2.251631e+00,	6.944664e-02	
396	9.120108e+06	2.251852e+00,	7.105256e-02	
397	9.332543e+06	2.252083e+00,	7.269504e-02	
398	9.549926e+06	2.252326e+00,	7.437489e-02	
399	9.772372e+06	2.252579e+00,	7.609291e-02	
400	1.000000e+07	2.252845e+00,	7.784992e-02	
401	1.023293e+07	2.253122e+00,	7.964675e-02	
402	1.047129e+07	2.253413e+00,	8.148426e-02	

Index   frequency       vop                             
--------------------------------------------------------------------------------
403	1.071519e+07	2.253718e+00,	8.336331e-02	
404	1.096478e+07	2.254037e+00,	8.528477e-02	
405	1.122018e+07	2.254370e+00,	8.724954e-02	
406	1.148154e+07	2.254719e+00,	8.925852e-02	
407	1.174898e+07	2.255085e+00,	9.131264e-02	
408	1.202264e+07	2.255468e+00,	9.341281e-02	
409	1.230269e+07	2.255868e+00,	9.556001e-02	
410	1.258925e+07	2.256288e+00,	9.775517e-02	
411	1.288250e+07	2.256726e+00,	9.999927e-02	
412	1.318257e+07	2.257186e+00,	1.022933e-01	
413	1.348963e+07	2.257666e+00,	1.046383e-01	
414	1.380384e+07	2.258169e+00,	1.070351e-01	
415	1.412538e+07	2.258696e+00,	1.094850e-01	
416	1.445440e+07	2.259247e+00,	1.119888e-01	
