  ** sch_path: /home/andylithia/openmpw/project-reisen-chip1/xschem/ctle_3.sch
  AC Analysis  Sun Oct 30 23:22:42  2022
--------------------------------------------------------------------------------
Index   frequency       vop                             
--------------------------------------------------------------------------------
0	1.000000e+03	2.121700e+00,	-2.07557e-07	
1	1.023293e+03	2.121700e+00,	-2.12392e-07	
2	1.047129e+03	2.121700e+00,	-2.17339e-07	
3	1.071519e+03	2.121700e+00,	-2.22402e-07	
4	1.096478e+03	2.121700e+00,	-2.27582e-07	
5	1.122018e+03	2.121700e+00,	-2.32883e-07	
6	1.148154e+03	2.121700e+00,	-2.38308e-07	
7	1.174898e+03	2.121700e+00,	-2.43859e-07	
8	1.202264e+03	2.121700e+00,	-2.49539e-07	
9	1.230269e+03	2.121700e+00,	-2.55351e-07	
10	1.258925e+03	2.121700e+00,	-2.61299e-07	
11	1.288250e+03	2.121700e+00,	-2.67386e-07	
12	1.318257e+03	2.121700e+00,	-2.73614e-07	
13	1.348963e+03	2.121700e+00,	-2.79987e-07	
14	1.380384e+03	2.121700e+00,	-2.86509e-07	
15	1.412538e+03	2.121700e+00,	-2.93183e-07	
16	1.445440e+03	2.121700e+00,	-3.00012e-07	
17	1.479108e+03	2.121700e+00,	-3.07000e-07	
18	1.513561e+03	2.121700e+00,	-3.14151e-07	
19	1.548817e+03	2.121700e+00,	-3.21468e-07	
20	1.584893e+03	2.121700e+00,	-3.28956e-07	
21	1.621810e+03	2.121700e+00,	-3.36619e-07	
22	1.659587e+03	2.121700e+00,	-3.44460e-07	
23	1.698244e+03	2.121700e+00,	-3.52483e-07	
24	1.737801e+03	2.121700e+00,	-3.60693e-07	
25	1.778279e+03	2.121700e+00,	-3.69095e-07	
26	1.819701e+03	2.121700e+00,	-3.77692e-07	
27	1.862087e+03	2.121700e+00,	-3.86490e-07	
28	1.905461e+03	2.121700e+00,	-3.95493e-07	
29	1.949845e+03	2.121700e+00,	-4.04705e-07	
30	1.995262e+03	2.121700e+00,	-4.14131e-07	
31	2.041738e+03	2.121700e+00,	-4.23778e-07	
32	2.089296e+03	2.121700e+00,	-4.33649e-07	
33	2.137962e+03	2.121700e+00,	-4.43750e-07	
34	2.187762e+03	2.121700e+00,	-4.54086e-07	
35	2.238721e+03	2.121700e+00,	-4.64663e-07	
36	2.290868e+03	2.121700e+00,	-4.75487e-07	
37	2.344229e+03	2.121700e+00,	-4.86562e-07	
38	2.398833e+03	2.121700e+00,	-4.97896e-07	
39	2.454709e+03	2.121700e+00,	-5.09493e-07	
40	2.511886e+03	2.121700e+00,	-5.21361e-07	
41	2.570396e+03	2.121700e+00,	-5.33505e-07	
42	2.630268e+03	2.121700e+00,	-5.45932e-07	
43	2.691535e+03	2.121700e+00,	-5.58648e-07	
44	2.754229e+03	2.121700e+00,	-5.71661e-07	
45	2.818383e+03	2.121700e+00,	-5.84976e-07	
46	2.884032e+03	2.121700e+00,	-5.98602e-07	
47	2.951209e+03	2.121700e+00,	-6.12545e-07	
48	3.019952e+03	2.121700e+00,	-6.26813e-07	
49	3.090295e+03	2.121700e+00,	-6.41414e-07	
50	3.162278e+03	2.121700e+00,	-6.56354e-07	
51	3.235937e+03	2.121700e+00,	-6.71643e-07	
52	3.311311e+03	2.121700e+00,	-6.87287e-07	
53	3.388442e+03	2.121700e+00,	-7.03296e-07	
54	3.467369e+03	2.121700e+00,	-7.19678e-07	

Index   frequency       vop                             
--------------------------------------------------------------------------------
55	3.548134e+03	2.121700e+00,	-7.36442e-07	
56	3.630781e+03	2.121700e+00,	-7.53595e-07	
57	3.715352e+03	2.121700e+00,	-7.71149e-07	
58	3.801894e+03	2.121700e+00,	-7.89111e-07	
59	3.890451e+03	2.121700e+00,	-8.07492e-07	
60	3.981072e+03	2.121700e+00,	-8.26301e-07	
61	4.073803e+03	2.121700e+00,	-8.45548e-07	
62	4.168694e+03	2.121700e+00,	-8.65243e-07	
63	4.265795e+03	2.121700e+00,	-8.85397e-07	
64	4.365158e+03	2.121700e+00,	-9.06021e-07	
65	4.466836e+03	2.121700e+00,	-9.27125e-07	
66	4.570882e+03	2.121700e+00,	-9.48720e-07	
67	4.677351e+03	2.121700e+00,	-9.70819e-07	
68	4.786301e+03	2.121700e+00,	-9.93432e-07	
69	4.897788e+03	2.121700e+00,	-1.01657e-06	
70	5.011872e+03	2.121700e+00,	-1.04025e-06	
71	5.128614e+03	2.121700e+00,	-1.06448e-06	
72	5.248075e+03	2.121700e+00,	-1.08928e-06	
73	5.370318e+03	2.121700e+00,	-1.11465e-06	
74	5.495409e+03	2.121700e+00,	-1.14061e-06	
75	5.623413e+03	2.121700e+00,	-1.16718e-06	
76	5.754399e+03	2.121700e+00,	-1.19437e-06	
77	5.888437e+03	2.121700e+00,	-1.22219e-06	
78	6.025596e+03	2.121700e+00,	-1.25066e-06	
79	6.165950e+03	2.121700e+00,	-1.27979e-06	
80	6.309573e+03	2.121700e+00,	-1.30960e-06	
81	6.456542e+03	2.121700e+00,	-1.34010e-06	
82	6.606934e+03	2.121700e+00,	-1.37132e-06	
83	6.760830e+03	2.121700e+00,	-1.40326e-06	
84	6.918310e+03	2.121700e+00,	-1.43595e-06	
85	7.079458e+03	2.121700e+00,	-1.46939e-06	
86	7.244360e+03	2.121700e+00,	-1.50362e-06	
87	7.413102e+03	2.121700e+00,	-1.53864e-06	
88	7.585776e+03	2.121700e+00,	-1.57448e-06	
89	7.762471e+03	2.121700e+00,	-1.61116e-06	
90	7.943282e+03	2.121700e+00,	-1.64869e-06	
91	8.128305e+03	2.121700e+00,	-1.68709e-06	
92	8.317638e+03	2.121700e+00,	-1.72639e-06	
93	8.511380e+03	2.121700e+00,	-1.76660e-06	
94	8.709636e+03	2.121700e+00,	-1.80775e-06	
95	8.912509e+03	2.121700e+00,	-1.84986e-06	
96	9.120108e+03	2.121700e+00,	-1.89295e-06	
97	9.332543e+03	2.121700e+00,	-1.93704e-06	
98	9.549926e+03	2.121700e+00,	-1.98216e-06	
99	9.772372e+03	2.121700e+00,	-2.02833e-06	
100	1.000000e+04	2.121700e+00,	-2.07557e-06	
101	1.023293e+04	2.121700e+00,	-2.12392e-06	
102	1.047129e+04	2.121700e+00,	-2.17339e-06	
103	1.071519e+04	2.121700e+00,	-2.22402e-06	
104	1.096478e+04	2.121700e+00,	-2.27582e-06	
105	1.122018e+04	2.121700e+00,	-2.32883e-06	
106	1.148154e+04	2.121700e+00,	-2.38308e-06	
107	1.174898e+04	2.121700e+00,	-2.43859e-06	
108	1.202264e+04	2.121700e+00,	-2.49539e-06	
109	1.230269e+04	2.121700e+00,	-2.55351e-06	
110	1.258925e+04	2.121700e+00,	-2.61299e-06	
111	1.288250e+04	2.121700e+00,	-2.67386e-06	
112	1.318257e+04	2.121700e+00,	-2.73614e-06	

Index   frequency       vop                             
--------------------------------------------------------------------------------
113	1.348963e+04	2.121700e+00,	-2.79987e-06	
114	1.380384e+04	2.121700e+00,	-2.86509e-06	
115	1.412538e+04	2.121700e+00,	-2.93183e-06	
116	1.445440e+04	2.121700e+00,	-3.00012e-06	
117	1.479108e+04	2.121700e+00,	-3.07000e-06	
118	1.513561e+04	2.121700e+00,	-3.14151e-06	
119	1.548817e+04	2.121700e+00,	-3.21468e-06	
120	1.584893e+04	2.121700e+00,	-3.28956e-06	
121	1.621810e+04	2.121700e+00,	-3.36619e-06	
122	1.659587e+04	2.121700e+00,	-3.44460e-06	
123	1.698244e+04	2.121700e+00,	-3.52483e-06	
124	1.737801e+04	2.121700e+00,	-3.60693e-06	
125	1.778279e+04	2.121700e+00,	-3.69095e-06	
126	1.819701e+04	2.121700e+00,	-3.77692e-06	
127	1.862087e+04	2.121700e+00,	-3.86490e-06	
128	1.905461e+04	2.121700e+00,	-3.95493e-06	
129	1.949845e+04	2.121700e+00,	-4.04705e-06	
130	1.995262e+04	2.121700e+00,	-4.14131e-06	
131	2.041738e+04	2.121700e+00,	-4.23778e-06	
132	2.089296e+04	2.121700e+00,	-4.33649e-06	
133	2.137962e+04	2.121700e+00,	-4.43750e-06	
134	2.187762e+04	2.121700e+00,	-4.54086e-06	
135	2.238721e+04	2.121700e+00,	-4.64663e-06	
136	2.290868e+04	2.121700e+00,	-4.75487e-06	
137	2.344229e+04	2.121700e+00,	-4.86562e-06	
138	2.398833e+04	2.121700e+00,	-4.97896e-06	
139	2.454709e+04	2.121700e+00,	-5.09493e-06	
140	2.511886e+04	2.121700e+00,	-5.21361e-06	
141	2.570396e+04	2.121700e+00,	-5.33505e-06	
142	2.630268e+04	2.121700e+00,	-5.45932e-06	
143	2.691535e+04	2.121700e+00,	-5.58648e-06	
144	2.754229e+04	2.121700e+00,	-5.71661e-06	
145	2.818383e+04	2.121700e+00,	-5.84976e-06	
146	2.884032e+04	2.121700e+00,	-5.98602e-06	
147	2.951209e+04	2.121700e+00,	-6.12545e-06	
148	3.019952e+04	2.121700e+00,	-6.26813e-06	
149	3.090295e+04	2.121700e+00,	-6.41414e-06	
150	3.162278e+04	2.121700e+00,	-6.56354e-06	
151	3.235937e+04	2.121700e+00,	-6.71643e-06	
152	3.311311e+04	2.121700e+00,	-6.87287e-06	
153	3.388442e+04	2.121700e+00,	-7.03296e-06	
154	3.467369e+04	2.121700e+00,	-7.19678e-06	
155	3.548134e+04	2.121700e+00,	-7.36442e-06	
156	3.630781e+04	2.121700e+00,	-7.53595e-06	
157	3.715352e+04	2.121700e+00,	-7.71149e-06	
158	3.801894e+04	2.121700e+00,	-7.89111e-06	
159	3.890451e+04	2.121700e+00,	-8.07492e-06	
160	3.981072e+04	2.121700e+00,	-8.26301e-06	
161	4.073803e+04	2.121700e+00,	-8.45548e-06	
162	4.168694e+04	2.121700e+00,	-8.65243e-06	
163	4.265795e+04	2.121700e+00,	-8.85397e-06	
164	4.365158e+04	2.121700e+00,	-9.06021e-06	
165	4.466836e+04	2.121700e+00,	-9.27125e-06	
166	4.570882e+04	2.121700e+00,	-9.48720e-06	
167	4.677351e+04	2.121700e+00,	-9.70819e-06	
168	4.786301e+04	2.121700e+00,	-9.93432e-06	
169	4.897788e+04	2.121700e+00,	-1.01657e-05	
170	5.011872e+04	2.121700e+00,	-1.04025e-05	

Index   frequency       vop                             
--------------------------------------------------------------------------------
171	5.128614e+04	2.121700e+00,	-1.06448e-05	
172	5.248075e+04	2.121700e+00,	-1.08928e-05	
173	5.370318e+04	2.121700e+00,	-1.11465e-05	
174	5.495409e+04	2.121700e+00,	-1.14061e-05	
175	5.623413e+04	2.121700e+00,	-1.16718e-05	
176	5.754399e+04	2.121700e+00,	-1.19437e-05	
177	5.888437e+04	2.121700e+00,	-1.22219e-05	
178	6.025596e+04	2.121700e+00,	-1.25066e-05	
179	6.165950e+04	2.121700e+00,	-1.27979e-05	
180	6.309573e+04	2.121700e+00,	-1.30960e-05	
181	6.456542e+04	2.121700e+00,	-1.34010e-05	
182	6.606934e+04	2.121700e+00,	-1.37132e-05	
183	6.760830e+04	2.121700e+00,	-1.40326e-05	
184	6.918310e+04	2.121700e+00,	-1.43595e-05	
185	7.079458e+04	2.121700e+00,	-1.46939e-05	
186	7.244360e+04	2.121700e+00,	-1.50362e-05	
187	7.413102e+04	2.121700e+00,	-1.53864e-05	
188	7.585776e+04	2.121700e+00,	-1.57448e-05	
189	7.762471e+04	2.121700e+00,	-1.61116e-05	
190	7.943282e+04	2.121700e+00,	-1.64869e-05	
191	8.128305e+04	2.121700e+00,	-1.68709e-05	
192	8.317638e+04	2.121700e+00,	-1.72639e-05	
193	8.511380e+04	2.121700e+00,	-1.76660e-05	
194	8.709636e+04	2.121700e+00,	-1.80775e-05	
195	8.912509e+04	2.121700e+00,	-1.84986e-05	
196	9.120108e+04	2.121700e+00,	-1.89295e-05	
197	9.332543e+04	2.121700e+00,	-1.93704e-05	
198	9.549926e+04	2.121700e+00,	-1.98216e-05	
199	9.772372e+04	2.121700e+00,	-2.02833e-05	
200	1.000000e+05	2.121700e+00,	-2.07557e-05	
201	1.023293e+05	2.121700e+00,	-2.12392e-05	
202	1.047129e+05	2.121700e+00,	-2.17339e-05	
203	1.071519e+05	2.121700e+00,	-2.22402e-05	
204	1.096478e+05	2.121700e+00,	-2.27582e-05	
205	1.122018e+05	2.121700e+00,	-2.32883e-05	
206	1.148154e+05	2.121700e+00,	-2.38308e-05	
207	1.174898e+05	2.121700e+00,	-2.43859e-05	
208	1.202264e+05	2.121700e+00,	-2.49539e-05	
209	1.230269e+05	2.121700e+00,	-2.55351e-05	
210	1.258925e+05	2.121700e+00,	-2.61299e-05	
211	1.288250e+05	2.121700e+00,	-2.67386e-05	
212	1.318257e+05	2.121700e+00,	-2.73614e-05	
213	1.348963e+05	2.121700e+00,	-2.79987e-05	
214	1.380384e+05	2.121700e+00,	-2.86509e-05	
215	1.412538e+05	2.121700e+00,	-2.93183e-05	
216	1.445440e+05	2.121700e+00,	-3.00012e-05	
217	1.479108e+05	2.121700e+00,	-3.07000e-05	
218	1.513561e+05	2.121700e+00,	-3.14151e-05	
219	1.548817e+05	2.121700e+00,	-3.21468e-05	
220	1.584893e+05	2.121700e+00,	-3.28956e-05	
221	1.621810e+05	2.121700e+00,	-3.36619e-05	
222	1.659587e+05	2.121700e+00,	-3.44460e-05	
223	1.698244e+05	2.121700e+00,	-3.52483e-05	
224	1.737801e+05	2.121700e+00,	-3.60693e-05	
225	1.778279e+05	2.121700e+00,	-3.69095e-05	
226	1.819701e+05	2.121700e+00,	-3.77692e-05	
227	1.862087e+05	2.121700e+00,	-3.86490e-05	
228	1.905461e+05	2.121700e+00,	-3.95492e-05	

Index   frequency       vop                             
--------------------------------------------------------------------------------
229	1.949845e+05	2.121700e+00,	-4.04705e-05	
230	1.995262e+05	2.121700e+00,	-4.14131e-05	
231	2.041738e+05	2.121700e+00,	-4.23778e-05	
232	2.089296e+05	2.121700e+00,	-4.33649e-05	
233	2.137962e+05	2.121700e+00,	-4.43750e-05	
234	2.187762e+05	2.121700e+00,	-4.54086e-05	
235	2.238721e+05	2.121700e+00,	-4.64663e-05	
236	2.290868e+05	2.121700e+00,	-4.75486e-05	
237	2.344229e+05	2.121700e+00,	-4.86562e-05	
238	2.398833e+05	2.121700e+00,	-4.97895e-05	
239	2.454709e+05	2.121700e+00,	-5.09493e-05	
240	2.511886e+05	2.121700e+00,	-5.21360e-05	
241	2.570396e+05	2.121700e+00,	-5.33504e-05	
242	2.630268e+05	2.121700e+00,	-5.45931e-05	
243	2.691535e+05	2.121700e+00,	-5.58648e-05	
244	2.754229e+05	2.121700e+00,	-5.71660e-05	
245	2.818383e+05	2.121700e+00,	-5.84976e-05	
246	2.884032e+05	2.121700e+00,	-5.98602e-05	
247	2.951209e+05	2.121700e+00,	-6.12545e-05	
248	3.019952e+05	2.121700e+00,	-6.26813e-05	
249	3.090295e+05	2.121700e+00,	-6.41413e-05	
250	3.162278e+05	2.121700e+00,	-6.56354e-05	
251	3.235937e+05	2.121700e+00,	-6.71642e-05	
252	3.311311e+05	2.121700e+00,	-6.87287e-05	
253	3.388442e+05	2.121700e+00,	-7.03296e-05	
254	3.467369e+05	2.121700e+00,	-7.19677e-05	
255	3.548134e+05	2.121700e+00,	-7.36441e-05	
256	3.630781e+05	2.121700e+00,	-7.53595e-05	
257	3.715352e+05	2.121700e+00,	-7.71148e-05	
258	3.801894e+05	2.121700e+00,	-7.89110e-05	
259	3.890451e+05	2.121700e+00,	-8.07491e-05	
260	3.981072e+05	2.121700e+00,	-8.26300e-05	
261	4.073803e+05	2.121700e+00,	-8.45547e-05	
262	4.168694e+05	2.121700e+00,	-8.65242e-05	
263	4.265795e+05	2.121700e+00,	-8.85396e-05	
264	4.365158e+05	2.121700e+00,	-9.06020e-05	
265	4.466836e+05	2.121700e+00,	-9.27124e-05	
266	4.570882e+05	2.121700e+00,	-9.48719e-05	
267	4.677351e+05	2.121700e+00,	-9.70817e-05	
268	4.786301e+05	2.121700e+00,	-9.93431e-05	
269	4.897788e+05	2.121700e+00,	-1.01657e-04	
270	5.011872e+05	2.121700e+00,	-1.04025e-04	
271	5.128614e+05	2.121700e+00,	-1.06448e-04	
272	5.248075e+05	2.121700e+00,	-1.08927e-04	
273	5.370318e+05	2.121700e+00,	-1.11465e-04	
274	5.495409e+05	2.121700e+00,	-1.14061e-04	
275	5.623413e+05	2.121700e+00,	-1.16718e-04	
276	5.754399e+05	2.121700e+00,	-1.19437e-04	
277	5.888437e+05	2.121700e+00,	-1.22219e-04	
278	6.025596e+05	2.121700e+00,	-1.25065e-04	
279	6.165950e+05	2.121700e+00,	-1.27979e-04	
280	6.309573e+05	2.121700e+00,	-1.30960e-04	
281	6.456542e+05	2.121700e+00,	-1.34010e-04	
282	6.606934e+05	2.121700e+00,	-1.37131e-04	
283	6.760830e+05	2.121700e+00,	-1.40326e-04	
284	6.918310e+05	2.121700e+00,	-1.43594e-04	
285	7.079458e+05	2.121700e+00,	-1.46939e-04	
286	7.244360e+05	2.121700e+00,	-1.50362e-04	

Index   frequency       vop                             
--------------------------------------------------------------------------------
287	7.413102e+05	2.121700e+00,	-1.53864e-04	
288	7.585776e+05	2.121700e+00,	-1.57448e-04	
289	7.762471e+05	2.121700e+00,	-1.61115e-04	
290	7.943282e+05	2.121700e+00,	-1.64868e-04	
291	8.128305e+05	2.121700e+00,	-1.68708e-04	
292	8.317638e+05	2.121700e+00,	-1.72638e-04	
293	8.511380e+05	2.121700e+00,	-1.76659e-04	
294	8.709636e+05	2.121700e+00,	-1.80774e-04	
295	8.912509e+05	2.121700e+00,	-1.84985e-04	
296	9.120108e+05	2.121700e+00,	-1.89294e-04	
297	9.332543e+05	2.121700e+00,	-1.93703e-04	
298	9.549926e+05	2.121700e+00,	-1.98215e-04	
299	9.772372e+05	2.121700e+00,	-2.02832e-04	
300	1.000000e+06	2.121700e+00,	-2.07556e-04	
301	1.023293e+06	2.121700e+00,	-2.12391e-04	
302	1.047129e+06	2.121700e+00,	-2.17338e-04	
303	1.071519e+06	2.121700e+00,	-2.22400e-04	
304	1.096478e+06	2.121700e+00,	-2.27580e-04	
305	1.122018e+06	2.121700e+00,	-2.32881e-04	
306	1.148154e+06	2.121700e+00,	-2.38306e-04	
307	1.174898e+06	2.121700e+00,	-2.43856e-04	
308	1.202264e+06	2.121700e+00,	-2.49536e-04	
309	1.230269e+06	2.121700e+00,	-2.55349e-04	
310	1.258925e+06	2.121700e+00,	-2.61297e-04	
311	1.288250e+06	2.121700e+00,	-2.67383e-04	
312	1.318257e+06	2.121700e+00,	-2.73611e-04	
313	1.348963e+06	2.121700e+00,	-2.79984e-04	
314	1.380384e+06	2.121700e+00,	-2.86505e-04	
315	1.412538e+06	2.121700e+00,	-2.93179e-04	
316	1.445440e+06	2.121700e+00,	-3.00008e-04	
317	1.479108e+06	2.121700e+00,	-3.06996e-04	
318	1.513561e+06	2.121700e+00,	-3.14146e-04	
319	1.548817e+06	2.121700e+00,	-3.21463e-04	
320	1.584893e+06	2.121700e+00,	-3.28951e-04	
321	1.621810e+06	2.121700e+00,	-3.36613e-04	
322	1.659587e+06	2.121700e+00,	-3.44454e-04	
323	1.698244e+06	2.121700e+00,	-3.52477e-04	
324	1.737801e+06	2.121700e+00,	-3.60687e-04	
325	1.778279e+06	2.121700e+00,	-3.69088e-04	
326	1.819701e+06	2.121700e+00,	-3.77685e-04	
327	1.862087e+06	2.121700e+00,	-3.86482e-04	
328	1.905461e+06	2.121700e+00,	-3.95484e-04	
329	1.949845e+06	2.121700e+00,	-4.04696e-04	
330	1.995262e+06	2.121700e+00,	-4.14122e-04	
331	2.041738e+06	2.121700e+00,	-4.23768e-04	
332	2.089296e+06	2.121700e+00,	-4.33638e-04	
333	2.137962e+06	2.121700e+00,	-4.43739e-04	
334	2.187762e+06	2.121700e+00,	-4.54074e-04	
335	2.238721e+06	2.121700e+00,	-4.64650e-04	
336	2.290868e+06	2.121700e+00,	-4.75473e-04	
337	2.344229e+06	2.121700e+00,	-4.86548e-04	
338	2.398833e+06	2.121700e+00,	-4.97881e-04	
339	2.454709e+06	2.121700e+00,	-5.09477e-04	
340	2.511886e+06	2.121700e+00,	-5.21344e-04	
341	2.570396e+06	2.121700e+00,	-5.33487e-04	
342	2.630268e+06	2.121700e+00,	-5.45913e-04	
343	2.691535e+06	2.121700e+00,	-5.58629e-04	
344	2.754229e+06	2.121700e+00,	-5.71641e-04	

Index   frequency       vop                             
--------------------------------------------------------------------------------
345	2.818383e+06	2.121700e+00,	-5.84955e-04	
346	2.884032e+06	2.121700e+00,	-5.98580e-04	
347	2.951209e+06	2.121700e+00,	-6.12523e-04	
348	3.019952e+06	2.121700e+00,	-6.26790e-04	
349	3.090295e+06	2.121700e+00,	-6.41389e-04	
350	3.162278e+06	2.121700e+00,	-6.56329e-04	
351	3.235937e+06	2.121700e+00,	-6.71617e-04	
352	3.311311e+06	2.121700e+00,	-6.87260e-04	
353	3.388442e+06	2.121700e+00,	-7.03269e-04	
354	3.467369e+06	2.121700e+00,	-7.19650e-04	
355	3.548134e+06	2.121700e+00,	-7.36413e-04	
356	3.630781e+06	2.121700e+00,	-7.53567e-04	
357	3.715352e+06	2.121700e+00,	-7.71120e-04	
358	3.801894e+06	2.121700e+00,	-7.89082e-04	
359	3.890451e+06	2.121700e+00,	-8.07463e-04	
360	3.981072e+06	2.121700e+00,	-8.26272e-04	
361	4.073803e+06	2.121700e+00,	-8.45519e-04	
362	4.168694e+06	2.121700e+00,	-8.65215e-04	
363	4.265795e+06	2.121700e+00,	-8.85370e-04	
364	4.365158e+06	2.121700e+00,	-9.05995e-04	
365	4.466836e+06	2.121700e+00,	-9.27101e-04	
366	4.570882e+06	2.121700e+00,	-9.48698e-04	
367	4.677351e+06	2.121700e+00,	-9.70799e-04	
368	4.786301e+06	2.121700e+00,	-9.93415e-04	
369	4.897788e+06	2.121700e+00,	-1.01656e-03	
370	5.011872e+06	2.121700e+00,	-1.04024e-03	
371	5.128614e+06	2.121700e+00,	-1.06447e-03	
372	5.248075e+06	2.121700e+00,	-1.08927e-03	
373	5.370318e+06	2.121700e+00,	-1.11465e-03	
374	5.495409e+06	2.121700e+00,	-1.14062e-03	
375	5.623413e+06	2.121700e+00,	-1.16719e-03	
376	5.754399e+06	2.121700e+00,	-1.19439e-03	
377	5.888437e+06	2.121699e+00,	-1.22222e-03	
378	6.025596e+06	2.121699e+00,	-1.25069e-03	
379	6.165950e+06	2.121699e+00,	-1.27983e-03	
380	6.309573e+06	2.121699e+00,	-1.30965e-03	
381	6.456542e+06	2.121699e+00,	-1.34016e-03	
382	6.606934e+06	2.121699e+00,	-1.37139e-03	
383	6.760830e+06	2.121699e+00,	-1.40334e-03	
384	6.918310e+06	2.121699e+00,	-1.43604e-03	
385	7.079458e+06	2.121699e+00,	-1.46950e-03	
386	7.244360e+06	2.121699e+00,	-1.50373e-03	
387	7.413102e+06	2.121699e+00,	-1.53877e-03	
388	7.585776e+06	2.121699e+00,	-1.57462e-03	
389	7.762471e+06	2.121699e+00,	-1.61131e-03	
390	7.943282e+06	2.121699e+00,	-1.64885e-03	
391	8.128305e+06	2.121699e+00,	-1.68727e-03	
392	8.317638e+06	2.121699e+00,	-1.72658e-03	
393	8.511380e+06	2.121699e+00,	-1.76681e-03	
394	8.709636e+06	2.121699e+00,	-1.80797e-03	
395	8.912509e+06	2.121699e+00,	-1.85009e-03	
396	9.120108e+06	2.121699e+00,	-1.89320e-03	
397	9.332543e+06	2.121699e+00,	-1.93730e-03	
398	9.549926e+06	2.121699e+00,	-1.98244e-03	
399	9.772372e+06	2.121699e+00,	-2.02863e-03	
400	1.000000e+07	2.121699e+00,	-2.07589e-03	
401	1.023293e+07	2.121699e+00,	-2.12425e-03	
402	1.047129e+07	2.121698e+00,	-2.17374e-03	

Index   frequency       vop                             
--------------------------------------------------------------------------------
403	1.071519e+07	2.121698e+00,	-2.22438e-03	
404	1.096478e+07	2.121698e+00,	-2.27620e-03	
405	1.122018e+07	2.121698e+00,	-2.32923e-03	
406	1.148154e+07	2.121698e+00,	-2.38350e-03	
407	1.174898e+07	2.121698e+00,	-2.43902e-03	
408	1.202264e+07	2.121698e+00,	-2.49585e-03	
409	1.230269e+07	2.121698e+00,	-2.55399e-03	
410	1.258925e+07	2.121698e+00,	-2.61349e-03	
411	1.288250e+07	2.121698e+00,	-2.67437e-03	
412	1.318257e+07	2.121697e+00,	-2.73667e-03	
413	1.348963e+07	2.121697e+00,	-2.80043e-03	
414	1.380384e+07	2.121697e+00,	-2.86566e-03	
415	1.412538e+07	2.121697e+00,	-2.93242e-03	
416	1.445440e+07	2.121697e+00,	-3.00073e-03	
