** sch_path: /home/andylithia/openmpw/project-reisen-chip1/xschem/ota_wideband.sch
AC Analysis  Sun Oct 30 17:11:03  2022
--------------------------------------------------------------------------------
Index   frequency       vop                             
--------------------------------------------------------------------------------
0	1.000000e+03	2.038368e+00,	1.058761e-05	
1	1.023293e+03	2.038368e+00,	1.083423e-05	
2	1.047129e+03	2.038368e+00,	1.108659e-05	
3	1.071519e+03	2.038368e+00,	1.134483e-05	
4	1.096478e+03	2.038368e+00,	1.160909e-05	
5	1.122018e+03	2.038368e+00,	1.187950e-05	
6	1.148154e+03	2.038368e+00,	1.215620e-05	
7	1.174898e+03	2.038368e+00,	1.243936e-05	
8	1.202264e+03	2.038368e+00,	1.272911e-05	
9	1.230269e+03	2.038368e+00,	1.302561e-05	
10	1.258925e+03	2.038368e+00,	1.332901e-05	
11	1.288250e+03	2.038368e+00,	1.363949e-05	
12	1.318257e+03	2.038368e+00,	1.395719e-05	
13	1.348963e+03	2.038368e+00,	1.428230e-05	
14	1.380384e+03	2.038368e+00,	1.461497e-05	
15	1.412538e+03	2.038368e+00,	1.495540e-05	
16	1.445440e+03	2.038368e+00,	1.530375e-05	
17	1.479108e+03	2.038368e+00,	1.566023e-05	
18	1.513561e+03	2.038368e+00,	1.602500e-05	
19	1.548817e+03	2.038368e+00,	1.639827e-05	
20	1.584893e+03	2.038368e+00,	1.678023e-05	
21	1.621810e+03	2.038368e+00,	1.717110e-05	
22	1.659587e+03	2.038368e+00,	1.757106e-05	
23	1.698244e+03	2.038368e+00,	1.798034e-05	
24	1.737801e+03	2.038368e+00,	1.839916e-05	
25	1.778279e+03	2.038368e+00,	1.882773e-05	
26	1.819701e+03	2.038368e+00,	1.926629e-05	
27	1.862087e+03	2.038368e+00,	1.971506e-05	
28	1.905461e+03	2.038368e+00,	2.017428e-05	
29	1.949845e+03	2.038368e+00,	2.064420e-05	
30	1.995262e+03	2.038368e+00,	2.112506e-05	
31	2.041738e+03	2.038368e+00,	2.161713e-05	
32	2.089296e+03	2.038368e+00,	2.212066e-05	
33	2.137962e+03	2.038368e+00,	2.263591e-05	
34	2.187762e+03	2.038368e+00,	2.316317e-05	
35	2.238721e+03	2.038368e+00,	2.370271e-05	
36	2.290868e+03	2.038368e+00,	2.425482e-05	
37	2.344229e+03	2.038368e+00,	2.481978e-05	
38	2.398833e+03	2.038368e+00,	2.539791e-05	
39	2.454709e+03	2.038368e+00,	2.598950e-05	
40	2.511886e+03	2.038368e+00,	2.659488e-05	
41	2.570396e+03	2.038368e+00,	2.721435e-05	
42	2.630268e+03	2.038368e+00,	2.784826e-05	
43	2.691535e+03	2.038368e+00,	2.849693e-05	
44	2.754229e+03	2.038368e+00,	2.916070e-05	
45	2.818383e+03	2.038368e+00,	2.983994e-05	
46	2.884032e+03	2.038368e+00,	3.053501e-05	
47	2.951209e+03	2.038368e+00,	3.124626e-05	
48	3.019952e+03	2.038368e+00,	3.197408e-05	
49	3.090295e+03	2.038368e+00,	3.271885e-05	
50	3.162278e+03	2.038368e+00,	3.348097e-05	
51	3.235937e+03	2.038368e+00,	3.426084e-05	
52	3.311311e+03	2.038368e+00,	3.505888e-05	
53	3.388442e+03	2.038368e+00,	3.587550e-05	
54	3.467369e+03	2.038368e+00,	3.671115e-05	

Index   frequency       vop                             
--------------------------------------------------------------------------------
55	3.548134e+03	2.038368e+00,	3.756626e-05	
56	3.630781e+03	2.038368e+00,	3.844129e-05	
57	3.715352e+03	2.038368e+00,	3.933671e-05	
58	3.801894e+03	2.038368e+00,	4.025298e-05	
59	3.890451e+03	2.038368e+00,	4.119059e-05	
60	3.981072e+03	2.038368e+00,	4.215004e-05	
61	4.073803e+03	2.038368e+00,	4.313184e-05	
62	4.168694e+03	2.038368e+00,	4.413651e-05	
63	4.265795e+03	2.038368e+00,	4.516458e-05	
64	4.365158e+03	2.038368e+00,	4.621660e-05	
65	4.466836e+03	2.038368e+00,	4.729312e-05	
66	4.570882e+03	2.038368e+00,	4.839472e-05	
67	4.677351e+03	2.038368e+00,	4.952198e-05	
68	4.786301e+03	2.038368e+00,	5.067550e-05	
69	4.897788e+03	2.038368e+00,	5.185588e-05	
70	5.011872e+03	2.038368e+00,	5.306376e-05	
71	5.128614e+03	2.038368e+00,	5.429977e-05	
72	5.248075e+03	2.038368e+00,	5.556458e-05	
73	5.370318e+03	2.038368e+00,	5.685884e-05	
74	5.495409e+03	2.038368e+00,	5.818325e-05	
75	5.623413e+03	2.038368e+00,	5.953852e-05	
76	5.754399e+03	2.038368e+00,	6.092535e-05	
77	5.888437e+03	2.038368e+00,	6.234448e-05	
78	6.025596e+03	2.038368e+00,	6.379667e-05	
79	6.165950e+03	2.038368e+00,	6.528268e-05	
80	6.309573e+03	2.038368e+00,	6.680331e-05	
81	6.456542e+03	2.038368e+00,	6.835936e-05	
82	6.606934e+03	2.038368e+00,	6.995166e-05	
83	6.760830e+03	2.038368e+00,	7.158104e-05	
84	6.918310e+03	2.038368e+00,	7.324838e-05	
85	7.079458e+03	2.038368e+00,	7.495455e-05	
86	7.244360e+03	2.038368e+00,	7.670047e-05	
87	7.413102e+03	2.038368e+00,	7.848705e-05	
88	7.585776e+03	2.038368e+00,	8.031525e-05	
89	7.762471e+03	2.038368e+00,	8.218603e-05	
90	7.943282e+03	2.038368e+00,	8.410039e-05	
91	8.128305e+03	2.038368e+00,	8.605934e-05	
92	8.317638e+03	2.038368e+00,	8.806392e-05	
93	8.511380e+03	2.038368e+00,	9.011519e-05	
94	8.709636e+03	2.038368e+00,	9.221424e-05	
95	8.912509e+03	2.038368e+00,	9.436219e-05	
96	9.120108e+03	2.038368e+00,	9.656017e-05	
97	9.332543e+03	2.038368e+00,	9.880934e-05	
98	9.549926e+03	2.038368e+00,	1.011109e-04	
99	9.772372e+03	2.038368e+00,	1.034661e-04	
100	1.000000e+04	2.038368e+00,	1.058761e-04	
101	1.023293e+04	2.038368e+00,	1.083423e-04	
102	1.047129e+04	2.038368e+00,	1.108659e-04	
103	1.071519e+04	2.038368e+00,	1.134483e-04	
104	1.096478e+04	2.038368e+00,	1.160909e-04	
105	1.122018e+04	2.038368e+00,	1.187950e-04	
106	1.148154e+04	2.038368e+00,	1.215620e-04	
107	1.174898e+04	2.038368e+00,	1.243936e-04	
108	1.202264e+04	2.038368e+00,	1.272911e-04	
109	1.230269e+04	2.038368e+00,	1.302561e-04	
110	1.258925e+04	2.038368e+00,	1.332901e-04	
111	1.288250e+04	2.038368e+00,	1.363949e-04	
112	1.318257e+04	2.038368e+00,	1.395719e-04	

Index   frequency       vop                             
--------------------------------------------------------------------------------
113	1.348963e+04	2.038368e+00,	1.428229e-04	
114	1.380384e+04	2.038368e+00,	1.461497e-04	
115	1.412538e+04	2.038368e+00,	1.495540e-04	
116	1.445440e+04	2.038368e+00,	1.530375e-04	
117	1.479108e+04	2.038368e+00,	1.566022e-04	
118	1.513561e+04	2.038368e+00,	1.602500e-04	
119	1.548817e+04	2.038368e+00,	1.639827e-04	
120	1.584893e+04	2.038368e+00,	1.678023e-04	
121	1.621810e+04	2.038368e+00,	1.717110e-04	
122	1.659587e+04	2.038368e+00,	1.757106e-04	
123	1.698244e+04	2.038368e+00,	1.798034e-04	
124	1.737801e+04	2.038368e+00,	1.839916e-04	
125	1.778279e+04	2.038368e+00,	1.882773e-04	
126	1.819701e+04	2.038368e+00,	1.926629e-04	
127	1.862087e+04	2.038368e+00,	1.971506e-04	
128	1.905461e+04	2.038368e+00,	2.017428e-04	
129	1.949845e+04	2.038368e+00,	2.064420e-04	
130	1.995262e+04	2.038368e+00,	2.112506e-04	
131	2.041738e+04	2.038368e+00,	2.161713e-04	
132	2.089296e+04	2.038368e+00,	2.212066e-04	
133	2.137962e+04	2.038368e+00,	2.263591e-04	
134	2.187762e+04	2.038368e+00,	2.316317e-04	
135	2.238721e+04	2.038368e+00,	2.370271e-04	
136	2.290868e+04	2.038368e+00,	2.425482e-04	
137	2.344229e+04	2.038368e+00,	2.481978e-04	
138	2.398833e+04	2.038368e+00,	2.539791e-04	
139	2.454709e+04	2.038368e+00,	2.598950e-04	
140	2.511886e+04	2.038368e+00,	2.659488e-04	
141	2.570396e+04	2.038368e+00,	2.721435e-04	
142	2.630268e+04	2.038368e+00,	2.784825e-04	
143	2.691535e+04	2.038368e+00,	2.849692e-04	
144	2.754229e+04	2.038368e+00,	2.916070e-04	
145	2.818383e+04	2.038368e+00,	2.983994e-04	
146	2.884032e+04	2.038368e+00,	3.053500e-04	
147	2.951209e+04	2.038368e+00,	3.124626e-04	
148	3.019952e+04	2.038368e+00,	3.197407e-04	
149	3.090295e+04	2.038368e+00,	3.271885e-04	
150	3.162278e+04	2.038368e+00,	3.348097e-04	
151	3.235937e+04	2.038368e+00,	3.426084e-04	
152	3.311311e+04	2.038368e+00,	3.505887e-04	
153	3.388442e+04	2.038368e+00,	3.587550e-04	
154	3.467369e+04	2.038368e+00,	3.671115e-04	
155	3.548134e+04	2.038368e+00,	3.756626e-04	
156	3.630781e+04	2.038368e+00,	3.844129e-04	
157	3.715352e+04	2.038368e+00,	3.933670e-04	
158	3.801894e+04	2.038368e+00,	4.025297e-04	
159	3.890451e+04	2.038368e+00,	4.119059e-04	
160	3.981072e+04	2.038368e+00,	4.215004e-04	
161	4.073803e+04	2.038368e+00,	4.313184e-04	
162	4.168694e+04	2.038368e+00,	4.413651e-04	
163	4.265795e+04	2.038368e+00,	4.516458e-04	
164	4.365158e+04	2.038368e+00,	4.621660e-04	
165	4.466836e+04	2.038368e+00,	4.729312e-04	
166	4.570882e+04	2.038368e+00,	4.839472e-04	
167	4.677351e+04	2.038368e+00,	4.952197e-04	
168	4.786301e+04	2.038368e+00,	5.067549e-04	
169	4.897788e+04	2.038368e+00,	5.185587e-04	
170	5.011872e+04	2.038368e+00,	5.306375e-04	

Index   frequency       vop                             
--------------------------------------------------------------------------------
171	5.128614e+04	2.038368e+00,	5.429976e-04	
172	5.248075e+04	2.038368e+00,	5.556457e-04	
173	5.370318e+04	2.038368e+00,	5.685883e-04	
174	5.495409e+04	2.038368e+00,	5.818324e-04	
175	5.623413e+04	2.038368e+00,	5.953851e-04	
176	5.754399e+04	2.038368e+00,	6.092533e-04	
177	5.888437e+04	2.038368e+00,	6.234447e-04	
178	6.025596e+04	2.038368e+00,	6.379666e-04	
179	6.165950e+04	2.038368e+00,	6.528267e-04	
180	6.309573e+04	2.038368e+00,	6.680330e-04	
181	6.456542e+04	2.038368e+00,	6.835935e-04	
182	6.606934e+04	2.038368e+00,	6.995164e-04	
183	6.760830e+04	2.038368e+00,	7.158102e-04	
184	6.918310e+04	2.038368e+00,	7.324836e-04	
185	7.079458e+04	2.038368e+00,	7.495453e-04	
186	7.244360e+04	2.038368e+00,	7.670044e-04	
187	7.413102e+04	2.038368e+00,	7.848703e-04	
188	7.585776e+04	2.038368e+00,	8.031522e-04	
189	7.762471e+04	2.038368e+00,	8.218600e-04	
190	7.943282e+04	2.038368e+00,	8.410036e-04	
191	8.128305e+04	2.038369e+00,	8.605931e-04	
192	8.317638e+04	2.038369e+00,	8.806388e-04	
193	8.511380e+04	2.038369e+00,	9.011515e-04	
194	8.709636e+04	2.038369e+00,	9.221420e-04	
195	8.912509e+04	2.038369e+00,	9.436215e-04	
196	9.120108e+04	2.038369e+00,	9.656012e-04	
197	9.332543e+04	2.038369e+00,	9.880929e-04	
198	9.549926e+04	2.038369e+00,	1.011109e-03	
199	9.772372e+04	2.038369e+00,	1.034660e-03	
200	1.000000e+05	2.038369e+00,	1.058761e-03	
201	1.023293e+05	2.038369e+00,	1.083422e-03	
202	1.047129e+05	2.038369e+00,	1.108658e-03	
203	1.071519e+05	2.038369e+00,	1.134482e-03	
204	1.096478e+05	2.038369e+00,	1.160908e-03	
205	1.122018e+05	2.038369e+00,	1.187949e-03	
206	1.148154e+05	2.038369e+00,	1.215620e-03	
207	1.174898e+05	2.038369e+00,	1.243935e-03	
208	1.202264e+05	2.038369e+00,	1.272910e-03	
209	1.230269e+05	2.038369e+00,	1.302560e-03	
210	1.258925e+05	2.038369e+00,	1.332900e-03	
211	1.288250e+05	2.038369e+00,	1.363947e-03	
212	1.318257e+05	2.038369e+00,	1.395718e-03	
213	1.348963e+05	2.038370e+00,	1.428228e-03	
214	1.380384e+05	2.038370e+00,	1.461496e-03	
215	1.412538e+05	2.038370e+00,	1.495538e-03	
216	1.445440e+05	2.038370e+00,	1.530374e-03	
217	1.479108e+05	2.038370e+00,	1.566021e-03	
218	1.513561e+05	2.038370e+00,	1.602498e-03	
219	1.548817e+05	2.038370e+00,	1.639825e-03	
220	1.584893e+05	2.038370e+00,	1.678021e-03	
221	1.621810e+05	2.038370e+00,	1.717107e-03	
222	1.659587e+05	2.038370e+00,	1.757104e-03	
223	1.698244e+05	2.038370e+00,	1.798032e-03	
224	1.737801e+05	2.038371e+00,	1.839913e-03	
225	1.778279e+05	2.038371e+00,	1.882770e-03	
226	1.819701e+05	2.038371e+00,	1.926625e-03	
227	1.862087e+05	2.038371e+00,	1.971502e-03	
228	1.905461e+05	2.038371e+00,	2.017424e-03	

Index   frequency       vop                             
--------------------------------------------------------------------------------
229	1.949845e+05	2.038371e+00,	2.064415e-03	
230	1.995262e+05	2.038371e+00,	2.112502e-03	
231	2.041738e+05	2.038372e+00,	2.161708e-03	
232	2.089296e+05	2.038372e+00,	2.212060e-03	
233	2.137962e+05	2.038372e+00,	2.263586e-03	
234	2.187762e+05	2.038372e+00,	2.316311e-03	
235	2.238721e+05	2.038372e+00,	2.370265e-03	
236	2.290868e+05	2.038372e+00,	2.425475e-03	
237	2.344229e+05	2.038373e+00,	2.481971e-03	
238	2.398833e+05	2.038373e+00,	2.539783e-03	
239	2.454709e+05	2.038373e+00,	2.598942e-03	
240	2.511886e+05	2.038373e+00,	2.659479e-03	
241	2.570396e+05	2.038374e+00,	2.721425e-03	
242	2.630268e+05	2.038374e+00,	2.784815e-03	
243	2.691535e+05	2.038374e+00,	2.849681e-03	
244	2.754229e+05	2.038374e+00,	2.916058e-03	
245	2.818383e+05	2.038375e+00,	2.983982e-03	
246	2.884032e+05	2.038375e+00,	3.053487e-03	
247	2.951209e+05	2.038375e+00,	3.124611e-03	
248	3.019952e+05	2.038376e+00,	3.197392e-03	
249	3.090295e+05	2.038376e+00,	3.271868e-03	
250	3.162278e+05	2.038377e+00,	3.348079e-03	
251	3.235937e+05	2.038377e+00,	3.426065e-03	
252	3.311311e+05	2.038377e+00,	3.505867e-03	
253	3.388442e+05	2.038378e+00,	3.587528e-03	
254	3.467369e+05	2.038378e+00,	3.671091e-03	
255	3.548134e+05	2.038379e+00,	3.756601e-03	
256	3.630781e+05	2.038379e+00,	3.844102e-03	
257	3.715352e+05	2.038380e+00,	3.933641e-03	
258	3.801894e+05	2.038380e+00,	4.025266e-03	
259	3.890451e+05	2.038381e+00,	4.119025e-03	
260	3.981072e+05	2.038382e+00,	4.214968e-03	
261	4.073803e+05	2.038382e+00,	4.313145e-03	
262	4.168694e+05	2.038383e+00,	4.413610e-03	
263	4.265795e+05	2.038384e+00,	4.516414e-03	
264	4.365158e+05	2.038384e+00,	4.621612e-03	
265	4.466836e+05	2.038385e+00,	4.729261e-03	
266	4.570882e+05	2.038386e+00,	4.839417e-03	
267	4.677351e+05	2.038387e+00,	4.952139e-03	
268	4.786301e+05	2.038388e+00,	5.067487e-03	
269	4.897788e+05	2.038389e+00,	5.185521e-03	
270	5.011872e+05	2.038390e+00,	5.306304e-03	
271	5.128614e+05	2.038391e+00,	5.429900e-03	
272	5.248075e+05	2.038392e+00,	5.556375e-03	
273	5.370318e+05	2.038393e+00,	5.685795e-03	
274	5.495409e+05	2.038394e+00,	5.818230e-03	
275	5.623413e+05	2.038395e+00,	5.953750e-03	
276	5.754399e+05	2.038397e+00,	6.092425e-03	
277	5.888437e+05	2.038398e+00,	6.234331e-03	
278	6.025596e+05	2.038399e+00,	6.379541e-03	
279	6.165950e+05	2.038401e+00,	6.528134e-03	
280	6.309573e+05	2.038402e+00,	6.680187e-03	
281	6.456542e+05	2.038404e+00,	6.835782e-03	
282	6.606934e+05	2.038406e+00,	6.995000e-03	
283	6.760830e+05	2.038407e+00,	7.157927e-03	
284	6.918310e+05	2.038409e+00,	7.324648e-03	
285	7.079458e+05	2.038411e+00,	7.495251e-03	
286	7.244360e+05	2.038413e+00,	7.669828e-03	

Index   frequency       vop                             
--------------------------------------------------------------------------------
287	7.413102e+05	2.038415e+00,	7.848471e-03	
288	7.585776e+05	2.038418e+00,	8.031274e-03	
289	7.762471e+05	2.038420e+00,	8.218335e-03	
290	7.943282e+05	2.038422e+00,	8.409751e-03	
291	8.128305e+05	2.038425e+00,	8.605626e-03	
292	8.317638e+05	2.038428e+00,	8.806062e-03	
293	8.511380e+05	2.038430e+00,	9.011165e-03	
294	8.709636e+05	2.038433e+00,	9.221045e-03	
295	8.912509e+05	2.038436e+00,	9.435813e-03	
296	9.120108e+05	2.038440e+00,	9.655581e-03	
297	9.332543e+05	2.038443e+00,	9.880468e-03	
298	9.549926e+05	2.038447e+00,	1.011059e-02	
299	9.772372e+05	2.038450e+00,	1.034607e-02	
300	1.000000e+06	2.038454e+00,	1.058704e-02	
301	1.023293e+06	2.038458e+00,	1.083361e-02	
302	1.047129e+06	2.038463e+00,	1.108593e-02	
303	1.071519e+06	2.038467e+00,	1.134412e-02	
304	1.096478e+06	2.038472e+00,	1.160833e-02	
305	1.122018e+06	2.038477e+00,	1.187869e-02	
306	1.148154e+06	2.038482e+00,	1.215534e-02	
307	1.174898e+06	2.038487e+00,	1.243843e-02	
308	1.202264e+06	2.038493e+00,	1.272811e-02	
309	1.230269e+06	2.038499e+00,	1.302454e-02	
310	1.258925e+06	2.038505e+00,	1.332787e-02	
311	1.288250e+06	2.038511e+00,	1.363826e-02	
312	1.318257e+06	2.038518e+00,	1.395588e-02	
313	1.348963e+06	2.038525e+00,	1.428089e-02	
314	1.380384e+06	2.038532e+00,	1.461346e-02	
315	1.412538e+06	2.038540e+00,	1.495378e-02	
316	1.445440e+06	2.038548e+00,	1.530202e-02	
317	1.479108e+06	2.038557e+00,	1.565837e-02	
318	1.513561e+06	2.038566e+00,	1.602301e-02	
319	1.548817e+06	2.038575e+00,	1.639614e-02	
320	1.584893e+06	2.038585e+00,	1.677795e-02	
321	1.621810e+06	2.038595e+00,	1.716865e-02	
322	1.659587e+06	2.038606e+00,	1.756844e-02	
323	1.698244e+06	2.038617e+00,	1.797753e-02	
324	1.737801e+06	2.038628e+00,	1.839615e-02	
325	1.778279e+06	2.038641e+00,	1.882451e-02	
326	1.819701e+06	2.038654e+00,	1.926283e-02	
327	1.862087e+06	2.038667e+00,	1.971135e-02	
328	1.905461e+06	2.038681e+00,	2.017031e-02	
329	1.949845e+06	2.038696e+00,	2.063994e-02	
330	1.995262e+06	2.038711e+00,	2.112051e-02	
331	2.041738e+06	2.038728e+00,	2.161225e-02	
332	2.089296e+06	2.038744e+00,	2.211542e-02	
333	2.137962e+06	2.038762e+00,	2.263031e-02	
334	2.187762e+06	2.038781e+00,	2.315716e-02	
335	2.238721e+06	2.038800e+00,	2.369627e-02	
336	2.290868e+06	2.038821e+00,	2.424792e-02	
337	2.344229e+06	2.038842e+00,	2.481239e-02	
338	2.398833e+06	2.038864e+00,	2.538999e-02	
339	2.454709e+06	2.038888e+00,	2.598102e-02	
340	2.511886e+06	2.038912e+00,	2.658579e-02	
341	2.570396e+06	2.038938e+00,	2.720461e-02	
342	2.630268e+06	2.038965e+00,	2.783782e-02	
343	2.691535e+06	2.038993e+00,	2.848574e-02	
344	2.754229e+06	2.039022e+00,	2.914872e-02	

Index   frequency       vop                             
--------------------------------------------------------------------------------
345	2.818383e+06	2.039053e+00,	2.982710e-02	
346	2.884032e+06	2.039085e+00,	3.052125e-02	
347	2.951209e+06	2.039119e+00,	3.123151e-02	
348	3.019952e+06	2.039155e+00,	3.195828e-02	
349	3.090295e+06	2.039192e+00,	3.270192e-02	
350	3.162278e+06	2.039230e+00,	3.346283e-02	
351	3.235937e+06	2.039271e+00,	3.424140e-02	
352	3.311311e+06	2.039314e+00,	3.503805e-02	
353	3.388442e+06	2.039358e+00,	3.585319e-02	
354	3.467369e+06	2.039405e+00,	3.668724e-02	
355	3.548134e+06	2.039454e+00,	3.754064e-02	
356	3.630781e+06	2.039505e+00,	3.841384e-02	
357	3.715352e+06	2.039558e+00,	3.930729e-02	
358	3.801894e+06	2.039614e+00,	4.022146e-02	
359	3.890451e+06	2.039673e+00,	4.115682e-02	
360	3.981072e+06	2.039734e+00,	4.211386e-02	
361	4.073803e+06	2.039799e+00,	4.309307e-02	
362	4.168694e+06	2.039866e+00,	4.409497e-02	
363	4.265795e+06	2.039937e+00,	4.512007e-02	
364	4.365158e+06	2.040011e+00,	4.616891e-02	
365	4.466836e+06	2.040088e+00,	4.724202e-02	
366	4.570882e+06	2.040169e+00,	4.833996e-02	
367	4.677351e+06	2.040254e+00,	4.946331e-02	
368	4.786301e+06	2.040343e+00,	5.061263e-02	
369	4.897788e+06	2.040436e+00,	5.178852e-02	
370	5.011872e+06	2.040533e+00,	5.299158e-02	
371	5.128614e+06	2.040635e+00,	5.422244e-02	
372	5.248075e+06	2.040742e+00,	5.548171e-02	
373	5.370318e+06	2.040853e+00,	5.677006e-02	
374	5.495409e+06	2.040970e+00,	5.808812e-02	
375	5.623413e+06	2.041093e+00,	5.943659e-02	
376	5.754399e+06	2.041221e+00,	6.081613e-02	
377	5.888437e+06	2.041355e+00,	6.222746e-02	
378	6.025596e+06	2.041496e+00,	6.367129e-02	
379	6.165950e+06	2.041643e+00,	6.514834e-02	
380	6.309573e+06	2.041797e+00,	6.665937e-02	
381	6.456542e+06	2.041958e+00,	6.820513e-02	
382	6.606934e+06	2.042127e+00,	6.978641e-02	
383	6.760830e+06	2.042304e+00,	7.140398e-02	
384	6.918310e+06	2.042489e+00,	7.305867e-02	
385	7.079458e+06	2.042683e+00,	7.475129e-02	
386	7.244360e+06	2.042886e+00,	7.648269e-02	
387	7.413102e+06	2.043099e+00,	7.825371e-02	
388	7.585776e+06	2.043321e+00,	8.006524e-02	
389	7.762471e+06	2.043554e+00,	8.191817e-02	
390	7.943282e+06	2.043798e+00,	8.381339e-02	
391	8.128305e+06	2.044053e+00,	8.575185e-02	
392	8.317638e+06	2.044320e+00,	8.773447e-02	
393	8.511380e+06	2.044600e+00,	8.976221e-02	
394	8.709636e+06	2.044893e+00,	9.183606e-02	
395	8.912509e+06	2.045199e+00,	9.395700e-02	
396	9.120108e+06	2.045520e+00,	9.612605e-02	
397	9.332543e+06	2.045856e+00,	9.834424e-02	
398	9.549926e+06	2.046207e+00,	1.006126e-01	
399	9.772372e+06	2.046575e+00,	1.029322e-01	
400	1.000000e+07	2.046960e+00,	1.053041e-01	
401	1.023293e+07	2.047364e+00,	1.077295e-01	
402	1.047129e+07	2.047786e+00,	1.102094e-01	

Index   frequency       vop                             
--------------------------------------------------------------------------------
403	1.071519e+07	2.048228e+00,	1.127450e-01	
404	1.096478e+07	2.048690e+00,	1.153373e-01	
405	1.122018e+07	2.049174e+00,	1.179877e-01	
406	1.148154e+07	2.049680e+00,	1.206972e-01	
407	1.174898e+07	2.050211e+00,	1.234671e-01	
408	1.202264e+07	2.050765e+00,	1.262985e-01	
409	1.230269e+07	2.051346e+00,	1.291928e-01	
410	1.258925e+07	2.051954e+00,	1.321510e-01	
411	1.288250e+07	2.052590e+00,	1.351746e-01	
412	1.318257e+07	2.053255e+00,	1.382647e-01	
413	1.348963e+07	2.053951e+00,	1.414226e-01	
414	1.380384e+07	2.054680e+00,	1.446496e-01	
415	1.412538e+07	2.055443e+00,	1.479471e-01	
416	1.445440e+07	2.056240e+00,	1.513162e-01	
