** sch_path: /home/andylithia/openmpw/project-reisen-chip1/xschem/ota_wideband.sch
AC Analysis  Sun Oct 30 17:11:03  2022
--------------------------------------------------------------------------------
Index   frequency       vop                             
--------------------------------------------------------------------------------
0	1.000000e+03	3.449118e+00,	-1.65935e-06	
1	1.023293e+03	3.449118e+00,	-1.69801e-06	
2	1.047129e+03	3.449118e+00,	-1.73756e-06	
3	1.071519e+03	3.449118e+00,	-1.77803e-06	
4	1.096478e+03	3.449118e+00,	-1.81945e-06	
5	1.122018e+03	3.449118e+00,	-1.86183e-06	
6	1.148154e+03	3.449118e+00,	-1.90519e-06	
7	1.174898e+03	3.449118e+00,	-1.94957e-06	
8	1.202264e+03	3.449118e+00,	-1.99498e-06	
9	1.230269e+03	3.449118e+00,	-2.04145e-06	
10	1.258925e+03	3.449118e+00,	-2.08900e-06	
11	1.288250e+03	3.449118e+00,	-2.13766e-06	
12	1.318257e+03	3.449118e+00,	-2.18746e-06	
13	1.348963e+03	3.449118e+00,	-2.23841e-06	
14	1.380384e+03	3.449118e+00,	-2.29055e-06	
15	1.412538e+03	3.449118e+00,	-2.34390e-06	
16	1.445440e+03	3.449118e+00,	-2.39850e-06	
17	1.479108e+03	3.449118e+00,	-2.45437e-06	
18	1.513561e+03	3.449118e+00,	-2.51153e-06	
19	1.548817e+03	3.449118e+00,	-2.57004e-06	
20	1.584893e+03	3.449118e+00,	-2.62990e-06	
21	1.621810e+03	3.449118e+00,	-2.69116e-06	
22	1.659587e+03	3.449118e+00,	-2.75384e-06	
23	1.698244e+03	3.449118e+00,	-2.81799e-06	
24	1.737801e+03	3.449118e+00,	-2.88363e-06	
25	1.778279e+03	3.449118e+00,	-2.95080e-06	
26	1.819701e+03	3.449118e+00,	-3.01953e-06	
27	1.862087e+03	3.449118e+00,	-3.08986e-06	
28	1.905461e+03	3.449118e+00,	-3.16184e-06	
29	1.949845e+03	3.449118e+00,	-3.23548e-06	
30	1.995262e+03	3.449118e+00,	-3.31085e-06	
31	2.041738e+03	3.449118e+00,	-3.38797e-06	
32	2.089296e+03	3.449118e+00,	-3.46688e-06	
33	2.137962e+03	3.449118e+00,	-3.54764e-06	
34	2.187762e+03	3.449118e+00,	-3.63027e-06	
35	2.238721e+03	3.449118e+00,	-3.71483e-06	
36	2.290868e+03	3.449118e+00,	-3.80136e-06	
37	2.344229e+03	3.449118e+00,	-3.88991e-06	
38	2.398833e+03	3.449118e+00,	-3.98051e-06	
39	2.454709e+03	3.449118e+00,	-4.07323e-06	
40	2.511886e+03	3.449118e+00,	-4.16811e-06	
41	2.570396e+03	3.449118e+00,	-4.26520e-06	
42	2.630268e+03	3.449118e+00,	-4.36455e-06	
43	2.691535e+03	3.449118e+00,	-4.46621e-06	
44	2.754229e+03	3.449118e+00,	-4.57024e-06	
45	2.818383e+03	3.449118e+00,	-4.67670e-06	
46	2.884032e+03	3.449118e+00,	-4.78563e-06	
47	2.951209e+03	3.449118e+00,	-4.89710e-06	
48	3.019952e+03	3.449118e+00,	-5.01117e-06	
49	3.090295e+03	3.449118e+00,	-5.12790e-06	
50	3.162278e+03	3.449118e+00,	-5.24734e-06	
51	3.235937e+03	3.449118e+00,	-5.36957e-06	
52	3.311311e+03	3.449118e+00,	-5.49464e-06	
53	3.388442e+03	3.449118e+00,	-5.62263e-06	
54	3.467369e+03	3.449118e+00,	-5.75359e-06	

Index   frequency       vop                             
--------------------------------------------------------------------------------
55	3.548134e+03	3.449118e+00,	-5.88761e-06	
56	3.630781e+03	3.449118e+00,	-6.02475e-06	
57	3.715352e+03	3.449118e+00,	-6.16509e-06	
58	3.801894e+03	3.449118e+00,	-6.30869e-06	
59	3.890451e+03	3.449118e+00,	-6.45564e-06	
60	3.981072e+03	3.449118e+00,	-6.60601e-06	
61	4.073803e+03	3.449118e+00,	-6.75988e-06	
62	4.168694e+03	3.449118e+00,	-6.91734e-06	
63	4.265795e+03	3.449118e+00,	-7.07847e-06	
64	4.365158e+03	3.449118e+00,	-7.24335e-06	
65	4.466836e+03	3.449118e+00,	-7.41207e-06	
66	4.570882e+03	3.449118e+00,	-7.58471e-06	
67	4.677351e+03	3.449118e+00,	-7.76138e-06	
68	4.786301e+03	3.449118e+00,	-7.94217e-06	
69	4.897788e+03	3.449118e+00,	-8.12717e-06	
70	5.011872e+03	3.449118e+00,	-8.31647e-06	
71	5.128614e+03	3.449118e+00,	-8.51019e-06	
72	5.248075e+03	3.449118e+00,	-8.70842e-06	
73	5.370318e+03	3.449118e+00,	-8.91126e-06	
74	5.495409e+03	3.449118e+00,	-9.11883e-06	
75	5.623413e+03	3.449118e+00,	-9.33124e-06	
76	5.754399e+03	3.449118e+00,	-9.54859e-06	
77	5.888437e+03	3.449118e+00,	-9.77100e-06	
78	6.025596e+03	3.449118e+00,	-9.99860e-06	
79	6.165950e+03	3.449118e+00,	-1.02315e-05	
80	6.309573e+03	3.449118e+00,	-1.04698e-05	
81	6.456542e+03	3.449118e+00,	-1.07137e-05	
82	6.606934e+03	3.449118e+00,	-1.09632e-05	
83	6.760830e+03	3.449118e+00,	-1.12186e-05	
84	6.918310e+03	3.449118e+00,	-1.14799e-05	
85	7.079458e+03	3.449118e+00,	-1.17473e-05	
86	7.244360e+03	3.449118e+00,	-1.20210e-05	
87	7.413102e+03	3.449118e+00,	-1.23010e-05	
88	7.585776e+03	3.449118e+00,	-1.25875e-05	
89	7.762471e+03	3.449118e+00,	-1.28807e-05	
90	7.943282e+03	3.449118e+00,	-1.31807e-05	
91	8.128305e+03	3.449118e+00,	-1.34877e-05	
92	8.317638e+03	3.449118e+00,	-1.38019e-05	
93	8.511380e+03	3.449118e+00,	-1.41234e-05	
94	8.709636e+03	3.449118e+00,	-1.44524e-05	
95	8.912509e+03	3.449118e+00,	-1.47890e-05	
96	9.120108e+03	3.449118e+00,	-1.51335e-05	
97	9.332543e+03	3.449118e+00,	-1.54860e-05	
98	9.549926e+03	3.449118e+00,	-1.58467e-05	
99	9.772372e+03	3.449118e+00,	-1.62158e-05	
100	1.000000e+04	3.449118e+00,	-1.65935e-05	
101	1.023293e+04	3.449118e+00,	-1.69801e-05	
102	1.047129e+04	3.449118e+00,	-1.73756e-05	
103	1.071519e+04	3.449118e+00,	-1.77803e-05	
104	1.096478e+04	3.449118e+00,	-1.81945e-05	
105	1.122018e+04	3.449118e+00,	-1.86183e-05	
106	1.148154e+04	3.449118e+00,	-1.90519e-05	
107	1.174898e+04	3.449118e+00,	-1.94957e-05	
108	1.202264e+04	3.449118e+00,	-1.99498e-05	
109	1.230269e+04	3.449118e+00,	-2.04145e-05	
110	1.258925e+04	3.449118e+00,	-2.08900e-05	
111	1.288250e+04	3.449118e+00,	-2.13766e-05	
112	1.318257e+04	3.449118e+00,	-2.18746e-05	

Index   frequency       vop                             
--------------------------------------------------------------------------------
113	1.348963e+04	3.449118e+00,	-2.23841e-05	
114	1.380384e+04	3.449118e+00,	-2.29055e-05	
115	1.412538e+04	3.449118e+00,	-2.34390e-05	
116	1.445440e+04	3.449118e+00,	-2.39850e-05	
117	1.479108e+04	3.449118e+00,	-2.45437e-05	
118	1.513561e+04	3.449118e+00,	-2.51153e-05	
119	1.548817e+04	3.449118e+00,	-2.57004e-05	
120	1.584893e+04	3.449118e+00,	-2.62990e-05	
121	1.621810e+04	3.449118e+00,	-2.69116e-05	
122	1.659587e+04	3.449118e+00,	-2.75384e-05	
123	1.698244e+04	3.449118e+00,	-2.81799e-05	
124	1.737801e+04	3.449118e+00,	-2.88363e-05	
125	1.778279e+04	3.449118e+00,	-2.95080e-05	
126	1.819701e+04	3.449118e+00,	-3.01953e-05	
127	1.862087e+04	3.449118e+00,	-3.08986e-05	
128	1.905461e+04	3.449118e+00,	-3.16184e-05	
129	1.949845e+04	3.449118e+00,	-3.23548e-05	
130	1.995262e+04	3.449118e+00,	-3.31085e-05	
131	2.041738e+04	3.449118e+00,	-3.38797e-05	
132	2.089296e+04	3.449118e+00,	-3.46688e-05	
133	2.137962e+04	3.449118e+00,	-3.54764e-05	
134	2.187762e+04	3.449118e+00,	-3.63027e-05	
135	2.238721e+04	3.449118e+00,	-3.71483e-05	
136	2.290868e+04	3.449118e+00,	-3.80136e-05	
137	2.344229e+04	3.449118e+00,	-3.88991e-05	
138	2.398833e+04	3.449118e+00,	-3.98051e-05	
139	2.454709e+04	3.449118e+00,	-4.07323e-05	
140	2.511886e+04	3.449118e+00,	-4.16811e-05	
141	2.570396e+04	3.449118e+00,	-4.26520e-05	
142	2.630268e+04	3.449118e+00,	-4.36455e-05	
143	2.691535e+04	3.449118e+00,	-4.46621e-05	
144	2.754229e+04	3.449118e+00,	-4.57024e-05	
145	2.818383e+04	3.449118e+00,	-4.67670e-05	
146	2.884032e+04	3.449118e+00,	-4.78563e-05	
147	2.951209e+04	3.449118e+00,	-4.89710e-05	
148	3.019952e+04	3.449118e+00,	-5.01117e-05	
149	3.090295e+04	3.449118e+00,	-5.12790e-05	
150	3.162278e+04	3.449118e+00,	-5.24734e-05	
151	3.235937e+04	3.449118e+00,	-5.36957e-05	
152	3.311311e+04	3.449118e+00,	-5.49464e-05	
153	3.388442e+04	3.449118e+00,	-5.62263e-05	
154	3.467369e+04	3.449118e+00,	-5.75359e-05	
155	3.548134e+04	3.449118e+00,	-5.88761e-05	
156	3.630781e+04	3.449118e+00,	-6.02475e-05	
157	3.715352e+04	3.449118e+00,	-6.16509e-05	
158	3.801894e+04	3.449118e+00,	-6.30869e-05	
159	3.890451e+04	3.449118e+00,	-6.45564e-05	
160	3.981072e+04	3.449118e+00,	-6.60601e-05	
161	4.073803e+04	3.449118e+00,	-6.75988e-05	
162	4.168694e+04	3.449118e+00,	-6.91734e-05	
163	4.265795e+04	3.449118e+00,	-7.07847e-05	
164	4.365158e+04	3.449118e+00,	-7.24335e-05	
165	4.466836e+04	3.449118e+00,	-7.41206e-05	
166	4.570882e+04	3.449118e+00,	-7.58471e-05	
167	4.677351e+04	3.449118e+00,	-7.76138e-05	
168	4.786301e+04	3.449118e+00,	-7.94217e-05	
169	4.897788e+04	3.449118e+00,	-8.12717e-05	
170	5.011872e+04	3.449118e+00,	-8.31647e-05	

Index   frequency       vop                             
--------------------------------------------------------------------------------
171	5.128614e+04	3.449118e+00,	-8.51019e-05	
172	5.248075e+04	3.449118e+00,	-8.70842e-05	
173	5.370318e+04	3.449118e+00,	-8.91126e-05	
174	5.495409e+04	3.449118e+00,	-9.11883e-05	
175	5.623413e+04	3.449118e+00,	-9.33124e-05	
176	5.754399e+04	3.449118e+00,	-9.54859e-05	
177	5.888437e+04	3.449118e+00,	-9.77100e-05	
178	6.025596e+04	3.449118e+00,	-9.99860e-05	
179	6.165950e+04	3.449118e+00,	-1.02315e-04	
180	6.309573e+04	3.449118e+00,	-1.04698e-04	
181	6.456542e+04	3.449118e+00,	-1.07137e-04	
182	6.606934e+04	3.449118e+00,	-1.09632e-04	
183	6.760830e+04	3.449118e+00,	-1.12186e-04	
184	6.918310e+04	3.449118e+00,	-1.14799e-04	
185	7.079458e+04	3.449118e+00,	-1.17473e-04	
186	7.244360e+04	3.449118e+00,	-1.20210e-04	
187	7.413102e+04	3.449118e+00,	-1.23010e-04	
188	7.585776e+04	3.449118e+00,	-1.25875e-04	
189	7.762471e+04	3.449118e+00,	-1.28807e-04	
190	7.943282e+04	3.449118e+00,	-1.31807e-04	
191	8.128305e+04	3.449118e+00,	-1.34877e-04	
192	8.317638e+04	3.449118e+00,	-1.38019e-04	
193	8.511380e+04	3.449118e+00,	-1.41234e-04	
194	8.709636e+04	3.449118e+00,	-1.44524e-04	
195	8.912509e+04	3.449118e+00,	-1.47890e-04	
196	9.120108e+04	3.449118e+00,	-1.51335e-04	
197	9.332543e+04	3.449118e+00,	-1.54860e-04	
198	9.549926e+04	3.449118e+00,	-1.58467e-04	
199	9.772372e+04	3.449118e+00,	-1.62158e-04	
200	1.000000e+05	3.449118e+00,	-1.65935e-04	
201	1.023293e+05	3.449118e+00,	-1.69801e-04	
202	1.047129e+05	3.449118e+00,	-1.73756e-04	
203	1.071519e+05	3.449118e+00,	-1.77803e-04	
204	1.096478e+05	3.449118e+00,	-1.81945e-04	
205	1.122018e+05	3.449118e+00,	-1.86183e-04	
206	1.148154e+05	3.449118e+00,	-1.90519e-04	
207	1.174898e+05	3.449118e+00,	-1.94957e-04	
208	1.202264e+05	3.449118e+00,	-1.99498e-04	
209	1.230269e+05	3.449118e+00,	-2.04145e-04	
210	1.258925e+05	3.449118e+00,	-2.08900e-04	
211	1.288250e+05	3.449118e+00,	-2.13766e-04	
212	1.318257e+05	3.449118e+00,	-2.18746e-04	
213	1.348963e+05	3.449118e+00,	-2.23841e-04	
214	1.380384e+05	3.449118e+00,	-2.29055e-04	
215	1.412538e+05	3.449118e+00,	-2.34390e-04	
216	1.445440e+05	3.449118e+00,	-2.39850e-04	
217	1.479108e+05	3.449118e+00,	-2.45437e-04	
218	1.513561e+05	3.449118e+00,	-2.51153e-04	
219	1.548817e+05	3.449118e+00,	-2.57004e-04	
220	1.584893e+05	3.449118e+00,	-2.62990e-04	
221	1.621810e+05	3.449118e+00,	-2.69116e-04	
222	1.659587e+05	3.449118e+00,	-2.75384e-04	
223	1.698244e+05	3.449118e+00,	-2.81799e-04	
224	1.737801e+05	3.449118e+00,	-2.88363e-04	
225	1.778279e+05	3.449118e+00,	-2.95080e-04	
226	1.819701e+05	3.449118e+00,	-3.01953e-04	
227	1.862087e+05	3.449118e+00,	-3.08986e-04	
228	1.905461e+05	3.449118e+00,	-3.16183e-04	

Index   frequency       vop                             
--------------------------------------------------------------------------------
229	1.949845e+05	3.449118e+00,	-3.23548e-04	
230	1.995262e+05	3.449118e+00,	-3.31085e-04	
231	2.041738e+05	3.449118e+00,	-3.38797e-04	
232	2.089296e+05	3.449118e+00,	-3.46688e-04	
233	2.137962e+05	3.449118e+00,	-3.54764e-04	
234	2.187762e+05	3.449118e+00,	-3.63027e-04	
235	2.238721e+05	3.449118e+00,	-3.71483e-04	
236	2.290868e+05	3.449118e+00,	-3.80136e-04	
237	2.344229e+05	3.449118e+00,	-3.88991e-04	
238	2.398833e+05	3.449118e+00,	-3.98051e-04	
239	2.454709e+05	3.449118e+00,	-4.07323e-04	
240	2.511886e+05	3.449118e+00,	-4.16811e-04	
241	2.570396e+05	3.449118e+00,	-4.26520e-04	
242	2.630268e+05	3.449118e+00,	-4.36455e-04	
243	2.691535e+05	3.449118e+00,	-4.46621e-04	
244	2.754229e+05	3.449118e+00,	-4.57024e-04	
245	2.818383e+05	3.449118e+00,	-4.67670e-04	
246	2.884032e+05	3.449118e+00,	-4.78563e-04	
247	2.951209e+05	3.449118e+00,	-4.89710e-04	
248	3.019952e+05	3.449118e+00,	-5.01117e-04	
249	3.090295e+05	3.449118e+00,	-5.12789e-04	
250	3.162278e+05	3.449118e+00,	-5.24734e-04	
251	3.235937e+05	3.449118e+00,	-5.36956e-04	
252	3.311311e+05	3.449118e+00,	-5.49464e-04	
253	3.388442e+05	3.449118e+00,	-5.62262e-04	
254	3.467369e+05	3.449118e+00,	-5.75359e-04	
255	3.548134e+05	3.449118e+00,	-5.88761e-04	
256	3.630781e+05	3.449118e+00,	-6.02475e-04	
257	3.715352e+05	3.449118e+00,	-6.16508e-04	
258	3.801894e+05	3.449118e+00,	-6.30869e-04	
259	3.890451e+05	3.449118e+00,	-6.45564e-04	
260	3.981072e+05	3.449118e+00,	-6.60601e-04	
261	4.073803e+05	3.449118e+00,	-6.75988e-04	
262	4.168694e+05	3.449118e+00,	-6.91734e-04	
263	4.265795e+05	3.449118e+00,	-7.07846e-04	
264	4.365158e+05	3.449118e+00,	-7.24334e-04	
265	4.466836e+05	3.449118e+00,	-7.41206e-04	
266	4.570882e+05	3.449118e+00,	-7.58471e-04	
267	4.677351e+05	3.449118e+00,	-7.76138e-04	
268	4.786301e+05	3.449118e+00,	-7.94217e-04	
269	4.897788e+05	3.449118e+00,	-8.12716e-04	
270	5.011872e+05	3.449118e+00,	-8.31647e-04	
271	5.128614e+05	3.449118e+00,	-8.51018e-04	
272	5.248075e+05	3.449118e+00,	-8.70841e-04	
273	5.370318e+05	3.449118e+00,	-8.91125e-04	
274	5.495409e+05	3.449118e+00,	-9.11882e-04	
275	5.623413e+05	3.449118e+00,	-9.33123e-04	
276	5.754399e+05	3.449118e+00,	-9.54858e-04	
277	5.888437e+05	3.449118e+00,	-9.77100e-04	
278	6.025596e+05	3.449118e+00,	-9.99859e-04	
279	6.165950e+05	3.449118e+00,	-1.02315e-03	
280	6.309573e+05	3.449118e+00,	-1.04698e-03	
281	6.456542e+05	3.449118e+00,	-1.07137e-03	
282	6.606934e+05	3.449118e+00,	-1.09632e-03	
283	6.760830e+05	3.449118e+00,	-1.12186e-03	
284	6.918310e+05	3.449118e+00,	-1.14799e-03	
285	7.079458e+05	3.449118e+00,	-1.17473e-03	
286	7.244360e+05	3.449118e+00,	-1.20209e-03	

Index   frequency       vop                             
--------------------------------------------------------------------------------
287	7.413102e+05	3.449118e+00,	-1.23009e-03	
288	7.585776e+05	3.449118e+00,	-1.25875e-03	
289	7.762471e+05	3.449118e+00,	-1.28807e-03	
290	7.943282e+05	3.449118e+00,	-1.31807e-03	
291	8.128305e+05	3.449118e+00,	-1.34877e-03	
292	8.317638e+05	3.449118e+00,	-1.38019e-03	
293	8.511380e+05	3.449118e+00,	-1.41234e-03	
294	8.709636e+05	3.449118e+00,	-1.44523e-03	
295	8.912509e+05	3.449118e+00,	-1.47890e-03	
296	9.120108e+05	3.449118e+00,	-1.51335e-03	
297	9.332543e+05	3.449118e+00,	-1.54860e-03	
298	9.549926e+05	3.449118e+00,	-1.58467e-03	
299	9.772372e+05	3.449118e+00,	-1.62158e-03	
300	1.000000e+06	3.449118e+00,	-1.65935e-03	
301	1.023293e+06	3.449118e+00,	-1.69800e-03	
302	1.047129e+06	3.449117e+00,	-1.73755e-03	
303	1.071519e+06	3.449117e+00,	-1.77802e-03	
304	1.096478e+06	3.449117e+00,	-1.81944e-03	
305	1.122018e+06	3.449117e+00,	-1.86182e-03	
306	1.148154e+06	3.449117e+00,	-1.90519e-03	
307	1.174898e+06	3.449117e+00,	-1.94956e-03	
308	1.202264e+06	3.449117e+00,	-1.99497e-03	
309	1.230269e+06	3.449117e+00,	-2.04144e-03	
310	1.258925e+06	3.449117e+00,	-2.08899e-03	
311	1.288250e+06	3.449117e+00,	-2.13765e-03	
312	1.318257e+06	3.449117e+00,	-2.18744e-03	
313	1.348963e+06	3.449117e+00,	-2.23840e-03	
314	1.380384e+06	3.449117e+00,	-2.29053e-03	
315	1.412538e+06	3.449117e+00,	-2.34389e-03	
316	1.445440e+06	3.449117e+00,	-2.39848e-03	
317	1.479108e+06	3.449117e+00,	-2.45435e-03	
318	1.513561e+06	3.449117e+00,	-2.51152e-03	
319	1.548817e+06	3.449117e+00,	-2.57002e-03	
320	1.584893e+06	3.449117e+00,	-2.62988e-03	
321	1.621810e+06	3.449117e+00,	-2.69114e-03	
322	1.659587e+06	3.449117e+00,	-2.75382e-03	
323	1.698244e+06	3.449117e+00,	-2.81797e-03	
324	1.737801e+06	3.449116e+00,	-2.88360e-03	
325	1.778279e+06	3.449116e+00,	-2.95077e-03	
326	1.819701e+06	3.449116e+00,	-3.01950e-03	
327	1.862087e+06	3.449116e+00,	-3.08983e-03	
328	1.905461e+06	3.449116e+00,	-3.16180e-03	
329	1.949845e+06	3.449116e+00,	-3.23545e-03	
330	1.995262e+06	3.449116e+00,	-3.31081e-03	
331	2.041738e+06	3.449116e+00,	-3.38793e-03	
332	2.089296e+06	3.449116e+00,	-3.46684e-03	
333	2.137962e+06	3.449116e+00,	-3.54759e-03	
334	2.187762e+06	3.449116e+00,	-3.63022e-03	
335	2.238721e+06	3.449115e+00,	-3.71478e-03	
336	2.290868e+06	3.449115e+00,	-3.80131e-03	
337	2.344229e+06	3.449115e+00,	-3.88985e-03	
338	2.398833e+06	3.449115e+00,	-3.98045e-03	
339	2.454709e+06	3.449115e+00,	-4.07316e-03	
340	2.511886e+06	3.449115e+00,	-4.16804e-03	
341	2.570396e+06	3.449115e+00,	-4.26512e-03	
342	2.630268e+06	3.449114e+00,	-4.36446e-03	
343	2.691535e+06	3.449114e+00,	-4.46612e-03	
344	2.754229e+06	3.449114e+00,	-4.57014e-03	

Index   frequency       vop                             
--------------------------------------------------------------------------------
345	2.818383e+06	3.449114e+00,	-4.67659e-03	
346	2.884032e+06	3.449114e+00,	-4.78552e-03	
347	2.951209e+06	3.449114e+00,	-4.89698e-03	
348	3.019952e+06	3.449113e+00,	-5.01104e-03	
349	3.090295e+06	3.449113e+00,	-5.12776e-03	
350	3.162278e+06	3.449113e+00,	-5.24719e-03	
351	3.235937e+06	3.449113e+00,	-5.36941e-03	
352	3.311311e+06	3.449112e+00,	-5.49447e-03	
353	3.388442e+06	3.449112e+00,	-5.62244e-03	
354	3.467369e+06	3.449112e+00,	-5.75340e-03	
355	3.548134e+06	3.449112e+00,	-5.88740e-03	
356	3.630781e+06	3.449111e+00,	-6.02453e-03	
357	3.715352e+06	3.449111e+00,	-6.16485e-03	
358	3.801894e+06	3.449111e+00,	-6.30843e-03	
359	3.890451e+06	3.449110e+00,	-6.45536e-03	
360	3.981072e+06	3.449110e+00,	-6.60571e-03	
361	4.073803e+06	3.449109e+00,	-6.75957e-03	
362	4.168694e+06	3.449109e+00,	-6.91700e-03	
363	4.265795e+06	3.449109e+00,	-7.07810e-03	
364	4.365158e+06	3.449108e+00,	-7.24296e-03	
365	4.466836e+06	3.449108e+00,	-7.41165e-03	
366	4.570882e+06	3.449107e+00,	-7.58427e-03	
367	4.677351e+06	3.449107e+00,	-7.76091e-03	
368	4.786301e+06	3.449106e+00,	-7.94166e-03	
369	4.897788e+06	3.449106e+00,	-8.12662e-03	
370	5.011872e+06	3.449105e+00,	-8.31589e-03	
371	5.128614e+06	3.449104e+00,	-8.50956e-03	
372	5.248075e+06	3.449104e+00,	-8.70774e-03	
373	5.370318e+06	3.449103e+00,	-8.91054e-03	
374	5.495409e+06	3.449102e+00,	-9.11806e-03	
375	5.623413e+06	3.449102e+00,	-9.33041e-03	
376	5.754399e+06	3.449101e+00,	-9.54770e-03	
377	5.888437e+06	3.449100e+00,	-9.77005e-03	
378	6.025596e+06	3.449099e+00,	-9.99758e-03	
379	6.165950e+06	3.449098e+00,	-1.02304e-02	
380	6.309573e+06	3.449098e+00,	-1.04687e-02	
381	6.456542e+06	3.449097e+00,	-1.07124e-02	
382	6.606934e+06	3.449096e+00,	-1.09619e-02	
383	6.760830e+06	3.449095e+00,	-1.12172e-02	
384	6.918310e+06	3.449093e+00,	-1.14784e-02	
385	7.079458e+06	3.449092e+00,	-1.17457e-02	
386	7.244360e+06	3.449091e+00,	-1.20192e-02	
387	7.413102e+06	3.449090e+00,	-1.22991e-02	
388	7.585776e+06	3.449088e+00,	-1.25855e-02	
389	7.762471e+06	3.449087e+00,	-1.28785e-02	
390	7.943282e+06	3.449086e+00,	-1.31784e-02	
391	8.128305e+06	3.449084e+00,	-1.34853e-02	
392	8.317638e+06	3.449083e+00,	-1.37993e-02	
393	8.511380e+06	3.449081e+00,	-1.41206e-02	
394	8.709636e+06	3.449079e+00,	-1.44493e-02	
395	8.912509e+06	3.449077e+00,	-1.47858e-02	
396	9.120108e+06	3.449075e+00,	-1.51300e-02	
397	9.332543e+06	3.449074e+00,	-1.54823e-02	
398	9.549926e+06	3.449071e+00,	-1.58427e-02	
399	9.772372e+06	3.449069e+00,	-1.62116e-02	
400	1.000000e+07	3.449067e+00,	-1.65890e-02	
401	1.023293e+07	3.449065e+00,	-1.69752e-02	
402	1.047129e+07	3.449062e+00,	-1.73703e-02	

Index   frequency       vop                             
--------------------------------------------------------------------------------
403	1.071519e+07	3.449060e+00,	-1.77747e-02	
404	1.096478e+07	3.449057e+00,	-1.81885e-02	
405	1.122018e+07	3.449054e+00,	-1.86118e-02	
406	1.148154e+07	3.449051e+00,	-1.90451e-02	
407	1.174898e+07	3.449048e+00,	-1.94884e-02	
408	1.202264e+07	3.449045e+00,	-1.99420e-02	
409	1.230269e+07	3.449041e+00,	-2.04061e-02	
410	1.258925e+07	3.449038e+00,	-2.08810e-02	
411	1.288250e+07	3.449034e+00,	-2.13670e-02	
412	1.318257e+07	3.449030e+00,	-2.18643e-02	
413	1.348963e+07	3.449026e+00,	-2.23731e-02	
414	1.380384e+07	3.449022e+00,	-2.28937e-02	
415	1.412538e+07	3.449018e+00,	-2.34264e-02	
416	1.445440e+07	3.449013e+00,	-2.39715e-02	
