** sch_path: /home/andylithia/openmpw/project-reisen-chip1/xschem/ota_wideband.sch
AC Analysis  Sun Oct 30 17:11:03  2022
--------------------------------------------------------------------------------
Index   frequency       vop                             
--------------------------------------------------------------------------------
0	1.000000e+03	3.356492e+00,	-1.32248e-06	
1	1.023293e+03	3.356492e+00,	-1.35329e-06	
2	1.047129e+03	3.356492e+00,	-1.38481e-06	
3	1.071519e+03	3.356492e+00,	-1.41707e-06	
4	1.096478e+03	3.356492e+00,	-1.45007e-06	
5	1.122018e+03	3.356492e+00,	-1.48385e-06	
6	1.148154e+03	3.356492e+00,	-1.51841e-06	
7	1.174898e+03	3.356492e+00,	-1.55378e-06	
8	1.202264e+03	3.356492e+00,	-1.58998e-06	
9	1.230269e+03	3.356492e+00,	-1.62701e-06	
10	1.258925e+03	3.356492e+00,	-1.66491e-06	
11	1.288250e+03	3.356492e+00,	-1.70369e-06	
12	1.318257e+03	3.356492e+00,	-1.74337e-06	
13	1.348963e+03	3.356492e+00,	-1.78398e-06	
14	1.380384e+03	3.356492e+00,	-1.82554e-06	
15	1.412538e+03	3.356492e+00,	-1.86806e-06	
16	1.445440e+03	3.356492e+00,	-1.91157e-06	
17	1.479108e+03	3.356492e+00,	-1.95610e-06	
18	1.513561e+03	3.356492e+00,	-2.00166e-06	
19	1.548817e+03	3.356492e+00,	-2.04828e-06	
20	1.584893e+03	3.356492e+00,	-2.09600e-06	
21	1.621810e+03	3.356492e+00,	-2.14482e-06	
22	1.659587e+03	3.356492e+00,	-2.19478e-06	
23	1.698244e+03	3.356492e+00,	-2.24590e-06	
24	1.737801e+03	3.356492e+00,	-2.29821e-06	
25	1.778279e+03	3.356492e+00,	-2.35175e-06	
26	1.819701e+03	3.356492e+00,	-2.40652e-06	
27	1.862087e+03	3.356492e+00,	-2.46258e-06	
28	1.905461e+03	3.356492e+00,	-2.51994e-06	
29	1.949845e+03	3.356492e+00,	-2.57864e-06	
30	1.995262e+03	3.356492e+00,	-2.63870e-06	
31	2.041738e+03	3.356492e+00,	-2.70017e-06	
32	2.089296e+03	3.356492e+00,	-2.76306e-06	
33	2.137962e+03	3.356492e+00,	-2.82742e-06	
34	2.187762e+03	3.356492e+00,	-2.89328e-06	
35	2.238721e+03	3.356492e+00,	-2.96067e-06	
36	2.290868e+03	3.356492e+00,	-3.02964e-06	
37	2.344229e+03	3.356492e+00,	-3.10020e-06	
38	2.398833e+03	3.356492e+00,	-3.17242e-06	
39	2.454709e+03	3.356492e+00,	-3.24631e-06	
40	2.511886e+03	3.356492e+00,	-3.32193e-06	
41	2.570396e+03	3.356492e+00,	-3.39931e-06	
42	2.630268e+03	3.356492e+00,	-3.47849e-06	
43	2.691535e+03	3.356492e+00,	-3.55951e-06	
44	2.754229e+03	3.356492e+00,	-3.64242e-06	
45	2.818383e+03	3.356492e+00,	-3.72727e-06	
46	2.884032e+03	3.356492e+00,	-3.81409e-06	
47	2.951209e+03	3.356492e+00,	-3.90293e-06	
48	3.019952e+03	3.356492e+00,	-3.99384e-06	
49	3.090295e+03	3.356492e+00,	-4.08687e-06	
50	3.162278e+03	3.356492e+00,	-4.18206e-06	
51	3.235937e+03	3.356492e+00,	-4.27947e-06	
52	3.311311e+03	3.356492e+00,	-4.37916e-06	
53	3.388442e+03	3.356492e+00,	-4.48116e-06	
54	3.467369e+03	3.356492e+00,	-4.58554e-06	

Index   frequency       vop                             
--------------------------------------------------------------------------------
55	3.548134e+03	3.356492e+00,	-4.69235e-06	
56	3.630781e+03	3.356492e+00,	-4.80165e-06	
57	3.715352e+03	3.356492e+00,	-4.91349e-06	
58	3.801894e+03	3.356492e+00,	-5.02794e-06	
59	3.890451e+03	3.356492e+00,	-5.14506e-06	
60	3.981072e+03	3.356492e+00,	-5.26490e-06	
61	4.073803e+03	3.356492e+00,	-5.38754e-06	
62	4.168694e+03	3.356492e+00,	-5.51303e-06	
63	4.265795e+03	3.356492e+00,	-5.64145e-06	
64	4.365158e+03	3.356492e+00,	-5.77285e-06	
65	4.466836e+03	3.356492e+00,	-5.90732e-06	
66	4.570882e+03	3.356492e+00,	-6.04492e-06	
67	4.677351e+03	3.356492e+00,	-6.18572e-06	
68	4.786301e+03	3.356492e+00,	-6.32981e-06	
69	4.897788e+03	3.356492e+00,	-6.47725e-06	
70	5.011872e+03	3.356492e+00,	-6.62812e-06	
71	5.128614e+03	3.356492e+00,	-6.78251e-06	
72	5.248075e+03	3.356492e+00,	-6.94049e-06	
73	5.370318e+03	3.356492e+00,	-7.10216e-06	
74	5.495409e+03	3.356492e+00,	-7.26759e-06	
75	5.623413e+03	3.356492e+00,	-7.43687e-06	
76	5.754399e+03	3.356492e+00,	-7.61010e-06	
77	5.888437e+03	3.356492e+00,	-7.78736e-06	
78	6.025596e+03	3.356492e+00,	-7.96875e-06	
79	6.165950e+03	3.356492e+00,	-8.15437e-06	
80	6.309573e+03	3.356492e+00,	-8.34431e-06	
81	6.456542e+03	3.356492e+00,	-8.53867e-06	
82	6.606934e+03	3.356492e+00,	-8.73756e-06	
83	6.760830e+03	3.356492e+00,	-8.94109e-06	
84	6.918310e+03	3.356492e+00,	-9.14935e-06	
85	7.079458e+03	3.356492e+00,	-9.36247e-06	
86	7.244360e+03	3.356492e+00,	-9.58055e-06	
87	7.413102e+03	3.356492e+00,	-9.80371e-06	
88	7.585776e+03	3.356492e+00,	-1.00321e-05	
89	7.762471e+03	3.356492e+00,	-1.02657e-05	
90	7.943282e+03	3.356492e+00,	-1.05049e-05	
91	8.128305e+03	3.356492e+00,	-1.07496e-05	
92	8.317638e+03	3.356492e+00,	-1.09999e-05	
93	8.511380e+03	3.356492e+00,	-1.12562e-05	
94	8.709636e+03	3.356492e+00,	-1.15184e-05	
95	8.912509e+03	3.356492e+00,	-1.17866e-05	
96	9.120108e+03	3.356492e+00,	-1.20612e-05	
97	9.332543e+03	3.356492e+00,	-1.23421e-05	
98	9.549926e+03	3.356492e+00,	-1.26296e-05	
99	9.772372e+03	3.356492e+00,	-1.29238e-05	
100	1.000000e+04	3.356492e+00,	-1.32248e-05	
101	1.023293e+04	3.356492e+00,	-1.35329e-05	
102	1.047129e+04	3.356492e+00,	-1.38481e-05	
103	1.071519e+04	3.356492e+00,	-1.41707e-05	
104	1.096478e+04	3.356492e+00,	-1.45007e-05	
105	1.122018e+04	3.356492e+00,	-1.48385e-05	
106	1.148154e+04	3.356492e+00,	-1.51841e-05	
107	1.174898e+04	3.356492e+00,	-1.55378e-05	
108	1.202264e+04	3.356492e+00,	-1.58998e-05	
109	1.230269e+04	3.356492e+00,	-1.62701e-05	
110	1.258925e+04	3.356492e+00,	-1.66491e-05	
111	1.288250e+04	3.356492e+00,	-1.70369e-05	
112	1.318257e+04	3.356492e+00,	-1.74337e-05	

Index   frequency       vop                             
--------------------------------------------------------------------------------
113	1.348963e+04	3.356492e+00,	-1.78398e-05	
114	1.380384e+04	3.356492e+00,	-1.82554e-05	
115	1.412538e+04	3.356492e+00,	-1.86806e-05	
116	1.445440e+04	3.356492e+00,	-1.91157e-05	
117	1.479108e+04	3.356492e+00,	-1.95610e-05	
118	1.513561e+04	3.356492e+00,	-2.00166e-05	
119	1.548817e+04	3.356492e+00,	-2.04828e-05	
120	1.584893e+04	3.356492e+00,	-2.09600e-05	
121	1.621810e+04	3.356492e+00,	-2.14482e-05	
122	1.659587e+04	3.356492e+00,	-2.19478e-05	
123	1.698244e+04	3.356492e+00,	-2.24590e-05	
124	1.737801e+04	3.356492e+00,	-2.29821e-05	
125	1.778279e+04	3.356492e+00,	-2.35175e-05	
126	1.819701e+04	3.356492e+00,	-2.40652e-05	
127	1.862087e+04	3.356492e+00,	-2.46258e-05	
128	1.905461e+04	3.356492e+00,	-2.51994e-05	
129	1.949845e+04	3.356492e+00,	-2.57864e-05	
130	1.995262e+04	3.356492e+00,	-2.63870e-05	
131	2.041738e+04	3.356492e+00,	-2.70017e-05	
132	2.089296e+04	3.356492e+00,	-2.76306e-05	
133	2.137962e+04	3.356492e+00,	-2.82742e-05	
134	2.187762e+04	3.356492e+00,	-2.89328e-05	
135	2.238721e+04	3.356492e+00,	-2.96067e-05	
136	2.290868e+04	3.356492e+00,	-3.02964e-05	
137	2.344229e+04	3.356492e+00,	-3.10020e-05	
138	2.398833e+04	3.356492e+00,	-3.17242e-05	
139	2.454709e+04	3.356492e+00,	-3.24631e-05	
140	2.511886e+04	3.356492e+00,	-3.32193e-05	
141	2.570396e+04	3.356492e+00,	-3.39931e-05	
142	2.630268e+04	3.356492e+00,	-3.47849e-05	
143	2.691535e+04	3.356492e+00,	-3.55951e-05	
144	2.754229e+04	3.356492e+00,	-3.64242e-05	
145	2.818383e+04	3.356492e+00,	-3.72727e-05	
146	2.884032e+04	3.356492e+00,	-3.81409e-05	
147	2.951209e+04	3.356492e+00,	-3.90293e-05	
148	3.019952e+04	3.356492e+00,	-3.99384e-05	
149	3.090295e+04	3.356492e+00,	-4.08687e-05	
150	3.162278e+04	3.356492e+00,	-4.18206e-05	
151	3.235937e+04	3.356492e+00,	-4.27947e-05	
152	3.311311e+04	3.356492e+00,	-4.37916e-05	
153	3.388442e+04	3.356492e+00,	-4.48116e-05	
154	3.467369e+04	3.356492e+00,	-4.58554e-05	
155	3.548134e+04	3.356492e+00,	-4.69235e-05	
156	3.630781e+04	3.356492e+00,	-4.80165e-05	
157	3.715352e+04	3.356492e+00,	-4.91349e-05	
158	3.801894e+04	3.356492e+00,	-5.02794e-05	
159	3.890451e+04	3.356492e+00,	-5.14506e-05	
160	3.981072e+04	3.356492e+00,	-5.26490e-05	
161	4.073803e+04	3.356492e+00,	-5.38754e-05	
162	4.168694e+04	3.356492e+00,	-5.51303e-05	
163	4.265795e+04	3.356492e+00,	-5.64145e-05	
164	4.365158e+04	3.356492e+00,	-5.77285e-05	
165	4.466836e+04	3.356492e+00,	-5.90732e-05	
166	4.570882e+04	3.356492e+00,	-6.04492e-05	
167	4.677351e+04	3.356492e+00,	-6.18572e-05	
168	4.786301e+04	3.356492e+00,	-6.32981e-05	
169	4.897788e+04	3.356492e+00,	-6.47725e-05	
170	5.011872e+04	3.356492e+00,	-6.62812e-05	

Index   frequency       vop                             
--------------------------------------------------------------------------------
171	5.128614e+04	3.356492e+00,	-6.78251e-05	
172	5.248075e+04	3.356492e+00,	-6.94049e-05	
173	5.370318e+04	3.356492e+00,	-7.10216e-05	
174	5.495409e+04	3.356492e+00,	-7.26759e-05	
175	5.623413e+04	3.356492e+00,	-7.43687e-05	
176	5.754399e+04	3.356492e+00,	-7.61010e-05	
177	5.888437e+04	3.356492e+00,	-7.78736e-05	
178	6.025596e+04	3.356492e+00,	-7.96875e-05	
179	6.165950e+04	3.356492e+00,	-8.15437e-05	
180	6.309573e+04	3.356492e+00,	-8.34431e-05	
181	6.456542e+04	3.356492e+00,	-8.53867e-05	
182	6.606934e+04	3.356492e+00,	-8.73756e-05	
183	6.760830e+04	3.356492e+00,	-8.94109e-05	
184	6.918310e+04	3.356492e+00,	-9.14935e-05	
185	7.079458e+04	3.356492e+00,	-9.36247e-05	
186	7.244360e+04	3.356492e+00,	-9.58055e-05	
187	7.413102e+04	3.356492e+00,	-9.80371e-05	
188	7.585776e+04	3.356492e+00,	-1.00321e-04	
189	7.762471e+04	3.356492e+00,	-1.02657e-04	
190	7.943282e+04	3.356492e+00,	-1.05049e-04	
191	8.128305e+04	3.356492e+00,	-1.07496e-04	
192	8.317638e+04	3.356492e+00,	-1.09999e-04	
193	8.511380e+04	3.356492e+00,	-1.12562e-04	
194	8.709636e+04	3.356492e+00,	-1.15184e-04	
195	8.912509e+04	3.356492e+00,	-1.17866e-04	
196	9.120108e+04	3.356492e+00,	-1.20612e-04	
197	9.332543e+04	3.356492e+00,	-1.23421e-04	
198	9.549926e+04	3.356492e+00,	-1.26296e-04	
199	9.772372e+04	3.356492e+00,	-1.29238e-04	
200	1.000000e+05	3.356492e+00,	-1.32248e-04	
201	1.023293e+05	3.356492e+00,	-1.35329e-04	
202	1.047129e+05	3.356492e+00,	-1.38481e-04	
203	1.071519e+05	3.356492e+00,	-1.41707e-04	
204	1.096478e+05	3.356492e+00,	-1.45007e-04	
205	1.122018e+05	3.356492e+00,	-1.48385e-04	
206	1.148154e+05	3.356492e+00,	-1.51841e-04	
207	1.174898e+05	3.356492e+00,	-1.55378e-04	
208	1.202264e+05	3.356492e+00,	-1.58998e-04	
209	1.230269e+05	3.356492e+00,	-1.62701e-04	
210	1.258925e+05	3.356492e+00,	-1.66491e-04	
211	1.288250e+05	3.356492e+00,	-1.70369e-04	
212	1.318257e+05	3.356492e+00,	-1.74337e-04	
213	1.348963e+05	3.356492e+00,	-1.78398e-04	
214	1.380384e+05	3.356492e+00,	-1.82554e-04	
215	1.412538e+05	3.356492e+00,	-1.86806e-04	
216	1.445440e+05	3.356492e+00,	-1.91157e-04	
217	1.479108e+05	3.356492e+00,	-1.95610e-04	
218	1.513561e+05	3.356492e+00,	-2.00166e-04	
219	1.548817e+05	3.356492e+00,	-2.04828e-04	
220	1.584893e+05	3.356492e+00,	-2.09600e-04	
221	1.621810e+05	3.356492e+00,	-2.14482e-04	
222	1.659587e+05	3.356492e+00,	-2.19478e-04	
223	1.698244e+05	3.356492e+00,	-2.24590e-04	
224	1.737801e+05	3.356492e+00,	-2.29821e-04	
225	1.778279e+05	3.356492e+00,	-2.35175e-04	
226	1.819701e+05	3.356492e+00,	-2.40652e-04	
227	1.862087e+05	3.356492e+00,	-2.46258e-04	
228	1.905461e+05	3.356492e+00,	-2.51994e-04	

Index   frequency       vop                             
--------------------------------------------------------------------------------
229	1.949845e+05	3.356492e+00,	-2.57864e-04	
230	1.995262e+05	3.356492e+00,	-2.63870e-04	
231	2.041738e+05	3.356492e+00,	-2.70017e-04	
232	2.089296e+05	3.356492e+00,	-2.76306e-04	
233	2.137962e+05	3.356492e+00,	-2.82742e-04	
234	2.187762e+05	3.356492e+00,	-2.89328e-04	
235	2.238721e+05	3.356492e+00,	-2.96067e-04	
236	2.290868e+05	3.356492e+00,	-3.02963e-04	
237	2.344229e+05	3.356492e+00,	-3.10020e-04	
238	2.398833e+05	3.356492e+00,	-3.17242e-04	
239	2.454709e+05	3.356492e+00,	-3.24631e-04	
240	2.511886e+05	3.356492e+00,	-3.32193e-04	
241	2.570396e+05	3.356492e+00,	-3.39931e-04	
242	2.630268e+05	3.356492e+00,	-3.47849e-04	
243	2.691535e+05	3.356492e+00,	-3.55951e-04	
244	2.754229e+05	3.356492e+00,	-3.64242e-04	
245	2.818383e+05	3.356492e+00,	-3.72726e-04	
246	2.884032e+05	3.356492e+00,	-3.81408e-04	
247	2.951209e+05	3.356492e+00,	-3.90293e-04	
248	3.019952e+05	3.356492e+00,	-3.99384e-04	
249	3.090295e+05	3.356492e+00,	-4.08686e-04	
250	3.162278e+05	3.356492e+00,	-4.18206e-04	
251	3.235937e+05	3.356492e+00,	-4.27947e-04	
252	3.311311e+05	3.356492e+00,	-4.37915e-04	
253	3.388442e+05	3.356492e+00,	-4.48116e-04	
254	3.467369e+05	3.356492e+00,	-4.58554e-04	
255	3.548134e+05	3.356492e+00,	-4.69235e-04	
256	3.630781e+05	3.356492e+00,	-4.80165e-04	
257	3.715352e+05	3.356492e+00,	-4.91349e-04	
258	3.801894e+05	3.356492e+00,	-5.02794e-04	
259	3.890451e+05	3.356492e+00,	-5.14506e-04	
260	3.981072e+05	3.356492e+00,	-5.26490e-04	
261	4.073803e+05	3.356492e+00,	-5.38754e-04	
262	4.168694e+05	3.356492e+00,	-5.51303e-04	
263	4.265795e+05	3.356492e+00,	-5.64144e-04	
264	4.365158e+05	3.356492e+00,	-5.77285e-04	
265	4.466836e+05	3.356492e+00,	-5.90731e-04	
266	4.570882e+05	3.356492e+00,	-6.04491e-04	
267	4.677351e+05	3.356492e+00,	-6.18572e-04	
268	4.786301e+05	3.356492e+00,	-6.32980e-04	
269	4.897788e+05	3.356492e+00,	-6.47724e-04	
270	5.011872e+05	3.356492e+00,	-6.62811e-04	
271	5.128614e+05	3.356492e+00,	-6.78250e-04	
272	5.248075e+05	3.356492e+00,	-6.94049e-04	
273	5.370318e+05	3.356492e+00,	-7.10215e-04	
274	5.495409e+05	3.356492e+00,	-7.26758e-04	
275	5.623413e+05	3.356492e+00,	-7.43687e-04	
276	5.754399e+05	3.356492e+00,	-7.61009e-04	
277	5.888437e+05	3.356492e+00,	-7.78735e-04	
278	6.025596e+05	3.356492e+00,	-7.96874e-04	
279	6.165950e+05	3.356492e+00,	-8.15436e-04	
280	6.309573e+05	3.356492e+00,	-8.34430e-04	
281	6.456542e+05	3.356492e+00,	-8.53866e-04	
282	6.606934e+05	3.356492e+00,	-8.73755e-04	
283	6.760830e+05	3.356492e+00,	-8.94107e-04	
284	6.918310e+05	3.356492e+00,	-9.14934e-04	
285	7.079458e+05	3.356492e+00,	-9.36245e-04	
286	7.244360e+05	3.356492e+00,	-9.58053e-04	

Index   frequency       vop                             
--------------------------------------------------------------------------------
287	7.413102e+05	3.356492e+00,	-9.80369e-04	
288	7.585776e+05	3.356492e+00,	-1.00320e-03	
289	7.762471e+05	3.356492e+00,	-1.02657e-03	
290	7.943282e+05	3.356492e+00,	-1.05048e-03	
291	8.128305e+05	3.356492e+00,	-1.07495e-03	
292	8.317638e+05	3.356492e+00,	-1.09999e-03	
293	8.511380e+05	3.356492e+00,	-1.12561e-03	
294	8.709636e+05	3.356492e+00,	-1.15183e-03	
295	8.912509e+05	3.356492e+00,	-1.17866e-03	
296	9.120108e+05	3.356492e+00,	-1.20612e-03	
297	9.332543e+05	3.356492e+00,	-1.23421e-03	
298	9.549926e+05	3.356492e+00,	-1.26296e-03	
299	9.772372e+05	3.356492e+00,	-1.29238e-03	
300	1.000000e+06	3.356492e+00,	-1.32248e-03	
301	1.023293e+06	3.356492e+00,	-1.35328e-03	
302	1.047129e+06	3.356492e+00,	-1.38481e-03	
303	1.071519e+06	3.356492e+00,	-1.41706e-03	
304	1.096478e+06	3.356492e+00,	-1.45007e-03	
305	1.122018e+06	3.356492e+00,	-1.48385e-03	
306	1.148154e+06	3.356492e+00,	-1.51841e-03	
307	1.174898e+06	3.356492e+00,	-1.55378e-03	
308	1.202264e+06	3.356492e+00,	-1.58997e-03	
309	1.230269e+06	3.356492e+00,	-1.62700e-03	
310	1.258925e+06	3.356492e+00,	-1.66490e-03	
311	1.288250e+06	3.356492e+00,	-1.70368e-03	
312	1.318257e+06	3.356492e+00,	-1.74336e-03	
313	1.348963e+06	3.356492e+00,	-1.78397e-03	
314	1.380384e+06	3.356492e+00,	-1.82552e-03	
315	1.412538e+06	3.356492e+00,	-1.86805e-03	
316	1.445440e+06	3.356492e+00,	-1.91156e-03	
317	1.479108e+06	3.356492e+00,	-1.95608e-03	
318	1.513561e+06	3.356492e+00,	-2.00165e-03	
319	1.548817e+06	3.356493e+00,	-2.04827e-03	
320	1.584893e+06	3.356493e+00,	-2.09598e-03	
321	1.621810e+06	3.356493e+00,	-2.14480e-03	
322	1.659587e+06	3.356493e+00,	-2.19476e-03	
323	1.698244e+06	3.356493e+00,	-2.24588e-03	
324	1.737801e+06	3.356493e+00,	-2.29819e-03	
325	1.778279e+06	3.356493e+00,	-2.35172e-03	
326	1.819701e+06	3.356493e+00,	-2.40650e-03	
327	1.862087e+06	3.356493e+00,	-2.46255e-03	
328	1.905461e+06	3.356493e+00,	-2.51991e-03	
329	1.949845e+06	3.356493e+00,	-2.57861e-03	
330	1.995262e+06	3.356493e+00,	-2.63867e-03	
331	2.041738e+06	3.356493e+00,	-2.70013e-03	
332	2.089296e+06	3.356493e+00,	-2.76302e-03	
333	2.137962e+06	3.356493e+00,	-2.82738e-03	
334	2.187762e+06	3.356493e+00,	-2.89323e-03	
335	2.238721e+06	3.356493e+00,	-2.96062e-03	
336	2.290868e+06	3.356493e+00,	-3.02958e-03	
337	2.344229e+06	3.356493e+00,	-3.10015e-03	
338	2.398833e+06	3.356493e+00,	-3.17236e-03	
339	2.454709e+06	3.356493e+00,	-3.24625e-03	
340	2.511886e+06	3.356494e+00,	-3.32186e-03	
341	2.570396e+06	3.356494e+00,	-3.39923e-03	
342	2.630268e+06	3.356494e+00,	-3.47841e-03	
343	2.691535e+06	3.356494e+00,	-3.55943e-03	
344	2.754229e+06	3.356494e+00,	-3.64233e-03	

Index   frequency       vop                             
--------------------------------------------------------------------------------
345	2.818383e+06	3.356494e+00,	-3.72717e-03	
346	2.884032e+06	3.356494e+00,	-3.81398e-03	
347	2.951209e+06	3.356494e+00,	-3.90282e-03	
348	3.019952e+06	3.356494e+00,	-3.99372e-03	
349	3.090295e+06	3.356494e+00,	-4.08674e-03	
350	3.162278e+06	3.356495e+00,	-4.18193e-03	
351	3.235937e+06	3.356495e+00,	-4.27933e-03	
352	3.311311e+06	3.356495e+00,	-4.37900e-03	
353	3.388442e+06	3.356495e+00,	-4.48099e-03	
354	3.467369e+06	3.356495e+00,	-4.58536e-03	
355	3.548134e+06	3.356495e+00,	-4.69216e-03	
356	3.630781e+06	3.356495e+00,	-4.80144e-03	
357	3.715352e+06	3.356496e+00,	-4.91327e-03	
358	3.801894e+06	3.356496e+00,	-5.02771e-03	
359	3.890451e+06	3.356496e+00,	-5.14481e-03	
360	3.981072e+06	3.356496e+00,	-5.26463e-03	
361	4.073803e+06	3.356496e+00,	-5.38725e-03	
362	4.168694e+06	3.356497e+00,	-5.51272e-03	
363	4.265795e+06	3.356497e+00,	-5.64111e-03	
364	4.365158e+06	3.356497e+00,	-5.77250e-03	
365	4.466836e+06	3.356497e+00,	-5.90694e-03	
366	4.570882e+06	3.356498e+00,	-6.04451e-03	
367	4.677351e+06	3.356498e+00,	-6.18529e-03	
368	4.786301e+06	3.356498e+00,	-6.32934e-03	
369	4.897788e+06	3.356498e+00,	-6.47675e-03	
370	5.011872e+06	3.356499e+00,	-6.62758e-03	
371	5.128614e+06	3.356499e+00,	-6.78194e-03	
372	5.248075e+06	3.356499e+00,	-6.93988e-03	
373	5.370318e+06	3.356500e+00,	-7.10150e-03	
374	5.495409e+06	3.356500e+00,	-7.26688e-03	
375	5.623413e+06	3.356501e+00,	-7.43612e-03	
376	5.754399e+06	3.356501e+00,	-7.60929e-03	
377	5.888437e+06	3.356501e+00,	-7.78650e-03	
378	6.025596e+06	3.356502e+00,	-7.96783e-03	
379	6.165950e+06	3.356502e+00,	-8.15338e-03	
380	6.309573e+06	3.356503e+00,	-8.34325e-03	
381	6.456542e+06	3.356503e+00,	-8.53753e-03	
382	6.606934e+06	3.356504e+00,	-8.73635e-03	
383	6.760830e+06	3.356505e+00,	-8.93978e-03	
384	6.918310e+06	3.356505e+00,	-9.14796e-03	
385	7.079458e+06	3.356506e+00,	-9.36097e-03	
386	7.244360e+06	3.356506e+00,	-9.57895e-03	
387	7.413102e+06	3.356507e+00,	-9.80199e-03	
388	7.585776e+06	3.356508e+00,	-1.00302e-02	
389	7.762471e+06	3.356509e+00,	-1.02638e-02	
390	7.943282e+06	3.356510e+00,	-1.05028e-02	
391	8.128305e+06	3.356510e+00,	-1.07473e-02	
392	8.317638e+06	3.356511e+00,	-1.09975e-02	
393	8.511380e+06	3.356512e+00,	-1.12536e-02	
394	8.709636e+06	3.356513e+00,	-1.15156e-02	
395	8.912509e+06	3.356514e+00,	-1.17837e-02	
396	9.120108e+06	3.356515e+00,	-1.20580e-02	
397	9.332543e+06	3.356516e+00,	-1.23388e-02	
398	9.549926e+06	3.356518e+00,	-1.26260e-02	
399	9.772372e+06	3.356519e+00,	-1.29199e-02	
400	1.000000e+07	3.356520e+00,	-1.32207e-02	
401	1.023293e+07	3.356522e+00,	-1.35285e-02	
402	1.047129e+07	3.356523e+00,	-1.38434e-02	

Index   frequency       vop                             
--------------------------------------------------------------------------------
403	1.071519e+07	3.356525e+00,	-1.41656e-02	
404	1.096478e+07	3.356526e+00,	-1.44953e-02	
405	1.122018e+07	3.356528e+00,	-1.48327e-02	
406	1.148154e+07	3.356530e+00,	-1.51780e-02	
407	1.174898e+07	3.356532e+00,	-1.55312e-02	
408	1.202264e+07	3.356533e+00,	-1.58927e-02	
409	1.230269e+07	3.356536e+00,	-1.62626e-02	
410	1.258925e+07	3.356538e+00,	-1.66410e-02	
411	1.288250e+07	3.356540e+00,	-1.70283e-02	
412	1.318257e+07	3.356542e+00,	-1.74245e-02	
413	1.348963e+07	3.356545e+00,	-1.78300e-02	
414	1.380384e+07	3.356548e+00,	-1.82448e-02	
415	1.412538e+07	3.356550e+00,	-1.86694e-02	
416	1.445440e+07	3.356553e+00,	-1.91037e-02	
