  ** sch_path: /home/andylithia/openmpw/project-reisen-chip1/xschem/ctle_3.sch
  AC Analysis  Sun Oct 30 23:20:13  2022
--------------------------------------------------------------------------------
Index   frequency       vop                             
--------------------------------------------------------------------------------
0	1.000000e+03	6.556479e-01,	3.618830e-07	
1	1.023293e+03	6.556479e-01,	3.703123e-07	
2	1.047129e+03	6.556479e-01,	3.789380e-07	
3	1.071519e+03	6.556479e-01,	3.877646e-07	
4	1.096478e+03	6.556479e-01,	3.967968e-07	
5	1.122018e+03	6.556479e-01,	4.060394e-07	
6	1.148154e+03	6.556479e-01,	4.154972e-07	
7	1.174898e+03	6.556479e-01,	4.251754e-07	
8	1.202264e+03	6.556479e-01,	4.350790e-07	
9	1.230269e+03	6.556479e-01,	4.452133e-07	
10	1.258925e+03	6.556479e-01,	4.555837e-07	
11	1.288250e+03	6.556479e-01,	4.661956e-07	
12	1.318257e+03	6.556479e-01,	4.770547e-07	
13	1.348963e+03	6.556479e-01,	4.881667e-07	
14	1.380384e+03	6.556479e-01,	4.995376e-07	
15	1.412538e+03	6.556479e-01,	5.111733e-07	
16	1.445440e+03	6.556479e-01,	5.230800e-07	
17	1.479108e+03	6.556479e-01,	5.352641e-07	
18	1.513561e+03	6.556479e-01,	5.477320e-07	
19	1.548817e+03	6.556479e-01,	5.604904e-07	
20	1.584893e+03	6.556479e-01,	5.735459e-07	
21	1.621810e+03	6.556479e-01,	5.869055e-07	
22	1.659587e+03	6.556479e-01,	6.005762e-07	
23	1.698244e+03	6.556479e-01,	6.145655e-07	
24	1.737801e+03	6.556479e-01,	6.288805e-07	
25	1.778279e+03	6.556479e-01,	6.435290e-07	
26	1.819701e+03	6.556479e-01,	6.585187e-07	
27	1.862087e+03	6.556479e-01,	6.738576e-07	
28	1.905461e+03	6.556479e-01,	6.895538e-07	
29	1.949845e+03	6.556479e-01,	7.056156e-07	
30	1.995262e+03	6.556479e-01,	7.220515e-07	
31	2.041738e+03	6.556479e-01,	7.388702e-07	
32	2.089296e+03	6.556479e-01,	7.560807e-07	
33	2.137962e+03	6.556479e-01,	7.736921e-07	
34	2.187762e+03	6.556479e-01,	7.917137e-07	
35	2.238721e+03	6.556479e-01,	8.101551e-07	
36	2.290868e+03	6.556479e-01,	8.290260e-07	
37	2.344229e+03	6.556479e-01,	8.483365e-07	
38	2.398833e+03	6.556479e-01,	8.680968e-07	
39	2.454709e+03	6.556479e-01,	8.883173e-07	
40	2.511886e+03	6.556479e-01,	9.090089e-07	
41	2.570396e+03	6.556479e-01,	9.301825e-07	
42	2.630268e+03	6.556479e-01,	9.518492e-07	
43	2.691535e+03	6.556479e-01,	9.740206e-07	
44	2.754229e+03	6.556479e-01,	9.967085e-07	
45	2.818383e+03	6.556479e-01,	1.019925e-06	
46	2.884032e+03	6.556479e-01,	1.043682e-06	
47	2.951209e+03	6.556479e-01,	1.067992e-06	
48	3.019952e+03	6.556479e-01,	1.092869e-06	
49	3.090295e+03	6.556479e-01,	1.118325e-06	
50	3.162278e+03	6.556479e-01,	1.144374e-06	
51	3.235937e+03	6.556479e-01,	1.171030e-06	
52	3.311311e+03	6.556479e-01,	1.198307e-06	
53	3.388442e+03	6.556479e-01,	1.226219e-06	
54	3.467369e+03	6.556479e-01,	1.254782e-06	

Index   frequency       vop                             
--------------------------------------------------------------------------------
55	3.548134e+03	6.556479e-01,	1.284009e-06	
56	3.630781e+03	6.556479e-01,	1.313918e-06	
57	3.715352e+03	6.556479e-01,	1.344523e-06	
58	3.801894e+03	6.556479e-01,	1.375841e-06	
59	3.890451e+03	6.556479e-01,	1.407888e-06	
60	3.981072e+03	6.556479e-01,	1.440682e-06	
61	4.073803e+03	6.556479e-01,	1.474240e-06	
62	4.168694e+03	6.556479e-01,	1.508579e-06	
63	4.265795e+03	6.556479e-01,	1.543719e-06	
64	4.365158e+03	6.556479e-01,	1.579676e-06	
65	4.466836e+03	6.556479e-01,	1.616472e-06	
66	4.570882e+03	6.556479e-01,	1.654124e-06	
67	4.677351e+03	6.556479e-01,	1.692654e-06	
68	4.786301e+03	6.556479e-01,	1.732081e-06	
69	4.897788e+03	6.556479e-01,	1.772426e-06	
70	5.011872e+03	6.556479e-01,	1.813711e-06	
71	5.128614e+03	6.556479e-01,	1.855958e-06	
72	5.248075e+03	6.556479e-01,	1.899189e-06	
73	5.370318e+03	6.556479e-01,	1.943427e-06	
74	5.495409e+03	6.556479e-01,	1.988695e-06	
75	5.623413e+03	6.556479e-01,	2.035017e-06	
76	5.754399e+03	6.556479e-01,	2.082419e-06	
77	5.888437e+03	6.556479e-01,	2.130925e-06	
78	6.025596e+03	6.556479e-01,	2.180561e-06	
79	6.165950e+03	6.556479e-01,	2.231352e-06	
80	6.309573e+03	6.556479e-01,	2.283327e-06	
81	6.456542e+03	6.556479e-01,	2.336513e-06	
82	6.606934e+03	6.556479e-01,	2.390937e-06	
83	6.760830e+03	6.556479e-01,	2.446629e-06	
84	6.918310e+03	6.556479e-01,	2.503618e-06	
85	7.079458e+03	6.556479e-01,	2.561935e-06	
86	7.244360e+03	6.556479e-01,	2.621610e-06	
87	7.413102e+03	6.556479e-01,	2.682676e-06	
88	7.585776e+03	6.556479e-01,	2.745163e-06	
89	7.762471e+03	6.556479e-01,	2.809106e-06	
90	7.943282e+03	6.556479e-01,	2.874539e-06	
91	8.128305e+03	6.556479e-01,	2.941495e-06	
92	8.317638e+03	6.556479e-01,	3.010011e-06	
93	8.511380e+03	6.556479e-01,	3.080124e-06	
94	8.709636e+03	6.556479e-01,	3.151869e-06	
95	8.912509e+03	6.556479e-01,	3.225285e-06	
96	9.120108e+03	6.556479e-01,	3.300412e-06	
97	9.332543e+03	6.556479e-01,	3.377288e-06	
98	9.549926e+03	6.556479e-01,	3.455956e-06	
99	9.772372e+03	6.556479e-01,	3.536455e-06	
100	1.000000e+04	6.556479e-01,	3.618830e-06	
101	1.023293e+04	6.556479e-01,	3.703123e-06	
102	1.047129e+04	6.556479e-01,	3.789380e-06	
103	1.071519e+04	6.556479e-01,	3.877646e-06	
104	1.096478e+04	6.556479e-01,	3.967968e-06	
105	1.122018e+04	6.556479e-01,	4.060394e-06	
106	1.148154e+04	6.556479e-01,	4.154972e-06	
107	1.174898e+04	6.556479e-01,	4.251754e-06	
108	1.202264e+04	6.556479e-01,	4.350790e-06	
109	1.230269e+04	6.556479e-01,	4.452133e-06	
110	1.258925e+04	6.556479e-01,	4.555837e-06	
111	1.288250e+04	6.556479e-01,	4.661956e-06	
112	1.318257e+04	6.556479e-01,	4.770547e-06	

Index   frequency       vop                             
--------------------------------------------------------------------------------
113	1.348963e+04	6.556479e-01,	4.881667e-06	
114	1.380384e+04	6.556479e-01,	4.995376e-06	
115	1.412538e+04	6.556479e-01,	5.111733e-06	
116	1.445440e+04	6.556479e-01,	5.230800e-06	
117	1.479108e+04	6.556479e-01,	5.352641e-06	
118	1.513561e+04	6.556479e-01,	5.477320e-06	
119	1.548817e+04	6.556479e-01,	5.604904e-06	
120	1.584893e+04	6.556479e-01,	5.735459e-06	
121	1.621810e+04	6.556479e-01,	5.869055e-06	
122	1.659587e+04	6.556479e-01,	6.005762e-06	
123	1.698244e+04	6.556479e-01,	6.145655e-06	
124	1.737801e+04	6.556479e-01,	6.288805e-06	
125	1.778279e+04	6.556479e-01,	6.435290e-06	
126	1.819701e+04	6.556479e-01,	6.585187e-06	
127	1.862087e+04	6.556479e-01,	6.738576e-06	
128	1.905461e+04	6.556479e-01,	6.895538e-06	
129	1.949845e+04	6.556479e-01,	7.056156e-06	
130	1.995262e+04	6.556479e-01,	7.220514e-06	
131	2.041738e+04	6.556479e-01,	7.388702e-06	
132	2.089296e+04	6.556479e-01,	7.560807e-06	
133	2.137962e+04	6.556479e-01,	7.736921e-06	
134	2.187762e+04	6.556479e-01,	7.917137e-06	
135	2.238721e+04	6.556479e-01,	8.101551e-06	
136	2.290868e+04	6.556479e-01,	8.290260e-06	
137	2.344229e+04	6.556479e-01,	8.483365e-06	
138	2.398833e+04	6.556479e-01,	8.680968e-06	
139	2.454709e+04	6.556479e-01,	8.883173e-06	
140	2.511886e+04	6.556479e-01,	9.090089e-06	
141	2.570396e+04	6.556479e-01,	9.301825e-06	
142	2.630268e+04	6.556479e-01,	9.518492e-06	
143	2.691535e+04	6.556479e-01,	9.740206e-06	
144	2.754229e+04	6.556479e-01,	9.967085e-06	
145	2.818383e+04	6.556479e-01,	1.019925e-05	
146	2.884032e+04	6.556479e-01,	1.043682e-05	
147	2.951209e+04	6.556479e-01,	1.067992e-05	
148	3.019952e+04	6.556479e-01,	1.092869e-05	
149	3.090295e+04	6.556479e-01,	1.118325e-05	
150	3.162278e+04	6.556479e-01,	1.144374e-05	
151	3.235937e+04	6.556479e-01,	1.171030e-05	
152	3.311311e+04	6.556479e-01,	1.198307e-05	
153	3.388442e+04	6.556479e-01,	1.226219e-05	
154	3.467369e+04	6.556479e-01,	1.254782e-05	
155	3.548134e+04	6.556479e-01,	1.284009e-05	
156	3.630781e+04	6.556479e-01,	1.313918e-05	
157	3.715352e+04	6.556479e-01,	1.344523e-05	
158	3.801894e+04	6.556479e-01,	1.375841e-05	
159	3.890451e+04	6.556479e-01,	1.407888e-05	
160	3.981072e+04	6.556479e-01,	1.440682e-05	
161	4.073803e+04	6.556479e-01,	1.474240e-05	
162	4.168694e+04	6.556479e-01,	1.508579e-05	
163	4.265795e+04	6.556479e-01,	1.543719e-05	
164	4.365158e+04	6.556479e-01,	1.579676e-05	
165	4.466836e+04	6.556479e-01,	1.616472e-05	
166	4.570882e+04	6.556479e-01,	1.654124e-05	
167	4.677351e+04	6.556479e-01,	1.692654e-05	
168	4.786301e+04	6.556479e-01,	1.732081e-05	
169	4.897788e+04	6.556479e-01,	1.772426e-05	
170	5.011872e+04	6.556479e-01,	1.813711e-05	

Index   frequency       vop                             
--------------------------------------------------------------------------------
171	5.128614e+04	6.556479e-01,	1.855958e-05	
172	5.248075e+04	6.556479e-01,	1.899189e-05	
173	5.370318e+04	6.556479e-01,	1.943427e-05	
174	5.495409e+04	6.556479e-01,	1.988695e-05	
175	5.623413e+04	6.556479e-01,	2.035017e-05	
176	5.754399e+04	6.556479e-01,	2.082419e-05	
177	5.888437e+04	6.556479e-01,	2.130925e-05	
178	6.025596e+04	6.556479e-01,	2.180561e-05	
179	6.165950e+04	6.556479e-01,	2.231352e-05	
180	6.309573e+04	6.556479e-01,	2.283327e-05	
181	6.456542e+04	6.556479e-01,	2.336513e-05	
182	6.606934e+04	6.556479e-01,	2.390937e-05	
183	6.760830e+04	6.556479e-01,	2.446629e-05	
184	6.918310e+04	6.556479e-01,	2.503618e-05	
185	7.079458e+04	6.556479e-01,	2.561935e-05	
186	7.244360e+04	6.556479e-01,	2.621610e-05	
187	7.413102e+04	6.556479e-01,	2.682676e-05	
188	7.585776e+04	6.556479e-01,	2.745163e-05	
189	7.762471e+04	6.556479e-01,	2.809106e-05	
190	7.943282e+04	6.556479e-01,	2.874539e-05	
191	8.128305e+04	6.556479e-01,	2.941495e-05	
192	8.317638e+04	6.556479e-01,	3.010011e-05	
193	8.511380e+04	6.556479e-01,	3.080124e-05	
194	8.709636e+04	6.556479e-01,	3.151869e-05	
195	8.912509e+04	6.556479e-01,	3.225285e-05	
196	9.120108e+04	6.556479e-01,	3.300412e-05	
197	9.332543e+04	6.556479e-01,	3.377288e-05	
198	9.549926e+04	6.556479e-01,	3.455956e-05	
199	9.772372e+04	6.556479e-01,	3.536455e-05	
200	1.000000e+05	6.556479e-01,	3.618830e-05	
201	1.023293e+05	6.556479e-01,	3.703123e-05	
202	1.047129e+05	6.556479e-01,	3.789380e-05	
203	1.071519e+05	6.556479e-01,	3.877646e-05	
204	1.096478e+05	6.556479e-01,	3.967968e-05	
205	1.122018e+05	6.556479e-01,	4.060394e-05	
206	1.148154e+05	6.556479e-01,	4.154972e-05	
207	1.174898e+05	6.556479e-01,	4.251754e-05	
208	1.202264e+05	6.556479e-01,	4.350790e-05	
209	1.230269e+05	6.556479e-01,	4.452133e-05	
210	1.258925e+05	6.556479e-01,	4.555837e-05	
211	1.288250e+05	6.556479e-01,	4.661956e-05	
212	1.318257e+05	6.556479e-01,	4.770547e-05	
213	1.348963e+05	6.556479e-01,	4.881667e-05	
214	1.380384e+05	6.556479e-01,	4.995376e-05	
215	1.412538e+05	6.556479e-01,	5.111733e-05	
216	1.445440e+05	6.556479e-01,	5.230800e-05	
217	1.479108e+05	6.556479e-01,	5.352641e-05	
218	1.513561e+05	6.556479e-01,	5.477320e-05	
219	1.548817e+05	6.556479e-01,	5.604904e-05	
220	1.584893e+05	6.556479e-01,	5.735458e-05	
221	1.621810e+05	6.556479e-01,	5.869054e-05	
222	1.659587e+05	6.556479e-01,	6.005762e-05	
223	1.698244e+05	6.556479e-01,	6.145654e-05	
224	1.737801e+05	6.556479e-01,	6.288805e-05	
225	1.778279e+05	6.556479e-01,	6.435290e-05	
226	1.819701e+05	6.556479e-01,	6.585187e-05	
227	1.862087e+05	6.556479e-01,	6.738576e-05	
228	1.905461e+05	6.556479e-01,	6.895538e-05	

Index   frequency       vop                             
--------------------------------------------------------------------------------
229	1.949845e+05	6.556479e-01,	7.056155e-05	
230	1.995262e+05	6.556479e-01,	7.220514e-05	
231	2.041738e+05	6.556479e-01,	7.388702e-05	
232	2.089296e+05	6.556479e-01,	7.560807e-05	
233	2.137962e+05	6.556479e-01,	7.736921e-05	
234	2.187762e+05	6.556479e-01,	7.917137e-05	
235	2.238721e+05	6.556479e-01,	8.101550e-05	
236	2.290868e+05	6.556479e-01,	8.290260e-05	
237	2.344229e+05	6.556479e-01,	8.483365e-05	
238	2.398833e+05	6.556479e-01,	8.680968e-05	
239	2.454709e+05	6.556479e-01,	8.883173e-05	
240	2.511886e+05	6.556479e-01,	9.090089e-05	
241	2.570396e+05	6.556479e-01,	9.301824e-05	
242	2.630268e+05	6.556479e-01,	9.518492e-05	
243	2.691535e+05	6.556479e-01,	9.740206e-05	
244	2.754229e+05	6.556479e-01,	9.967084e-05	
245	2.818383e+05	6.556479e-01,	1.019925e-04	
246	2.884032e+05	6.556479e-01,	1.043682e-04	
247	2.951209e+05	6.556479e-01,	1.067992e-04	
248	3.019952e+05	6.556479e-01,	1.092869e-04	
249	3.090295e+05	6.556479e-01,	1.118325e-04	
250	3.162278e+05	6.556479e-01,	1.144374e-04	
251	3.235937e+05	6.556479e-01,	1.171030e-04	
252	3.311311e+05	6.556479e-01,	1.198307e-04	
253	3.388442e+05	6.556480e-01,	1.226219e-04	
254	3.467369e+05	6.556480e-01,	1.254782e-04	
255	3.548134e+05	6.556480e-01,	1.284009e-04	
256	3.630781e+05	6.556480e-01,	1.313918e-04	
257	3.715352e+05	6.556480e-01,	1.344523e-04	
258	3.801894e+05	6.556480e-01,	1.375841e-04	
259	3.890451e+05	6.556480e-01,	1.407888e-04	
260	3.981072e+05	6.556480e-01,	1.440682e-04	
261	4.073803e+05	6.556480e-01,	1.474240e-04	
262	4.168694e+05	6.556480e-01,	1.508579e-04	
263	4.265795e+05	6.556480e-01,	1.543719e-04	
264	4.365158e+05	6.556480e-01,	1.579676e-04	
265	4.466836e+05	6.556480e-01,	1.616472e-04	
266	4.570882e+05	6.556480e-01,	1.654124e-04	
267	4.677351e+05	6.556480e-01,	1.692654e-04	
268	4.786301e+05	6.556480e-01,	1.732081e-04	
269	4.897788e+05	6.556480e-01,	1.772426e-04	
270	5.011872e+05	6.556480e-01,	1.813711e-04	
271	5.128614e+05	6.556480e-01,	1.855958e-04	
272	5.248075e+05	6.556480e-01,	1.899189e-04	
273	5.370318e+05	6.556480e-01,	1.943426e-04	
274	5.495409e+05	6.556480e-01,	1.988695e-04	
275	5.623413e+05	6.556480e-01,	2.035017e-04	
276	5.754399e+05	6.556480e-01,	2.082419e-04	
277	5.888437e+05	6.556480e-01,	2.130925e-04	
278	6.025596e+05	6.556480e-01,	2.180560e-04	
279	6.165950e+05	6.556480e-01,	2.231352e-04	
280	6.309573e+05	6.556480e-01,	2.283327e-04	
281	6.456542e+05	6.556480e-01,	2.336512e-04	
282	6.606934e+05	6.556480e-01,	2.390937e-04	
283	6.760830e+05	6.556480e-01,	2.446629e-04	
284	6.918310e+05	6.556480e-01,	2.503618e-04	
285	7.079458e+05	6.556480e-01,	2.561935e-04	
286	7.244360e+05	6.556480e-01,	2.621610e-04	

Index   frequency       vop                             
--------------------------------------------------------------------------------
287	7.413102e+05	6.556480e-01,	2.682675e-04	
288	7.585776e+05	6.556480e-01,	2.745162e-04	
289	7.762471e+05	6.556481e-01,	2.809105e-04	
290	7.943282e+05	6.556481e-01,	2.874538e-04	
291	8.128305e+05	6.556481e-01,	2.941494e-04	
292	8.317638e+05	6.556481e-01,	3.010011e-04	
293	8.511380e+05	6.556481e-01,	3.080123e-04	
294	8.709636e+05	6.556481e-01,	3.151868e-04	
295	8.912509e+05	6.556481e-01,	3.225284e-04	
296	9.120108e+05	6.556481e-01,	3.300411e-04	
297	9.332543e+05	6.556481e-01,	3.377287e-04	
298	9.549926e+05	6.556481e-01,	3.455954e-04	
299	9.772372e+05	6.556481e-01,	3.536454e-04	
300	1.000000e+06	6.556481e-01,	3.618828e-04	
301	1.023293e+06	6.556481e-01,	3.703122e-04	
302	1.047129e+06	6.556482e-01,	3.789378e-04	
303	1.071519e+06	6.556482e-01,	3.877644e-04	
304	1.096478e+06	6.556482e-01,	3.967966e-04	
305	1.122018e+06	6.556482e-01,	4.060392e-04	
306	1.148154e+06	6.556482e-01,	4.154970e-04	
307	1.174898e+06	6.556482e-01,	4.251752e-04	
308	1.202264e+06	6.556482e-01,	4.350788e-04	
309	1.230269e+06	6.556482e-01,	4.452131e-04	
310	1.258925e+06	6.556483e-01,	4.555834e-04	
311	1.288250e+06	6.556483e-01,	4.661953e-04	
312	1.318257e+06	6.556483e-01,	4.770543e-04	
313	1.348963e+06	6.556483e-01,	4.881664e-04	
314	1.380384e+06	6.556483e-01,	4.995372e-04	
315	1.412538e+06	6.556483e-01,	5.111729e-04	
316	1.445440e+06	6.556484e-01,	5.230796e-04	
317	1.479108e+06	6.556484e-01,	5.352637e-04	
318	1.513561e+06	6.556484e-01,	5.477316e-04	
319	1.548817e+06	6.556484e-01,	5.604898e-04	
320	1.584893e+06	6.556485e-01,	5.735453e-04	
321	1.621810e+06	6.556485e-01,	5.869049e-04	
322	1.659587e+06	6.556485e-01,	6.005756e-04	
323	1.698244e+06	6.556485e-01,	6.145648e-04	
324	1.737801e+06	6.556486e-01,	6.288798e-04	
325	1.778279e+06	6.556486e-01,	6.435283e-04	
326	1.819701e+06	6.556486e-01,	6.585179e-04	
327	1.862087e+06	6.556487e-01,	6.738567e-04	
328	1.905461e+06	6.556487e-01,	6.895528e-04	
329	1.949845e+06	6.556487e-01,	7.056145e-04	
330	1.995262e+06	6.556488e-01,	7.220504e-04	
331	2.041738e+06	6.556488e-01,	7.388690e-04	
332	2.089296e+06	6.556489e-01,	7.560794e-04	
333	2.137962e+06	6.556489e-01,	7.736907e-04	
334	2.187762e+06	6.556489e-01,	7.917122e-04	
335	2.238721e+06	6.556490e-01,	8.101535e-04	
336	2.290868e+06	6.556490e-01,	8.290243e-04	
337	2.344229e+06	6.556491e-01,	8.483347e-04	
338	2.398833e+06	6.556491e-01,	8.680949e-04	
339	2.454709e+06	6.556492e-01,	8.883153e-04	
340	2.511886e+06	6.556493e-01,	9.090067e-04	
341	2.570396e+06	6.556493e-01,	9.301801e-04	
342	2.630268e+06	6.556494e-01,	9.518467e-04	
343	2.691535e+06	6.556495e-01,	9.740179e-04	
344	2.754229e+06	6.556495e-01,	9.967056e-04	

Index   frequency       vop                             
--------------------------------------------------------------------------------
345	2.818383e+06	6.556496e-01,	1.019922e-03	
346	2.884032e+06	6.556497e-01,	1.043679e-03	
347	2.951209e+06	6.556498e-01,	1.067989e-03	
348	3.019952e+06	6.556499e-01,	1.092865e-03	
349	3.090295e+06	6.556499e-01,	1.118321e-03	
350	3.162278e+06	6.556500e-01,	1.144370e-03	
351	3.235937e+06	6.556501e-01,	1.171026e-03	
352	3.311311e+06	6.556502e-01,	1.198302e-03	
353	3.388442e+06	6.556504e-01,	1.226214e-03	
354	3.467369e+06	6.556505e-01,	1.254776e-03	
355	3.548134e+06	6.556506e-01,	1.284003e-03	
356	3.630781e+06	6.556507e-01,	1.313911e-03	
357	3.715352e+06	6.556508e-01,	1.344516e-03	
358	3.801894e+06	6.556510e-01,	1.375833e-03	
359	3.890451e+06	6.556511e-01,	1.407880e-03	
360	3.981072e+06	6.556513e-01,	1.440673e-03	
361	4.073803e+06	6.556514e-01,	1.474231e-03	
362	4.168694e+06	6.556516e-01,	1.508569e-03	
363	4.265795e+06	6.556518e-01,	1.543708e-03	
364	4.365158e+06	6.556520e-01,	1.579665e-03	
365	4.466836e+06	6.556521e-01,	1.616460e-03	
366	4.570882e+06	6.556523e-01,	1.654111e-03	
367	4.677351e+06	6.556526e-01,	1.692640e-03	
368	4.786301e+06	6.556528e-01,	1.732066e-03	
369	4.897788e+06	6.556530e-01,	1.772410e-03	
370	5.011872e+06	6.556532e-01,	1.813694e-03	
371	5.128614e+06	6.556535e-01,	1.855939e-03	
372	5.248075e+06	6.556538e-01,	1.899169e-03	
373	5.370318e+06	6.556540e-01,	1.943405e-03	
374	5.495409e+06	6.556543e-01,	1.988672e-03	
375	5.623413e+06	6.556546e-01,	2.034993e-03	
376	5.754399e+06	6.556549e-01,	2.082393e-03	
377	5.888437e+06	6.556553e-01,	2.130897e-03	
378	6.025596e+06	6.556556e-01,	2.180530e-03	
379	6.165950e+06	6.556560e-01,	2.231320e-03	
380	6.309573e+06	6.556563e-01,	2.283293e-03	
381	6.456542e+06	6.556567e-01,	2.336476e-03	
382	6.606934e+06	6.556572e-01,	2.390897e-03	
383	6.760830e+06	6.556576e-01,	2.446587e-03	
384	6.918310e+06	6.556581e-01,	2.503573e-03	
385	7.079458e+06	6.556585e-01,	2.561886e-03	
386	7.244360e+06	6.556590e-01,	2.621558e-03	
387	7.413102e+06	6.556596e-01,	2.682619e-03	
388	7.585776e+06	6.556601e-01,	2.745103e-03	
389	7.762471e+06	6.556607e-01,	2.809042e-03	
390	7.943282e+06	6.556613e-01,	2.874470e-03	
391	8.128305e+06	6.556619e-01,	2.941421e-03	
392	8.317638e+06	6.556626e-01,	3.009932e-03	
393	8.511380e+06	6.556633e-01,	3.080039e-03	
394	8.709636e+06	6.556640e-01,	3.151778e-03	
395	8.912509e+06	6.556647e-01,	3.225188e-03	
396	9.120108e+06	6.556655e-01,	3.300307e-03	
397	9.332543e+06	6.556664e-01,	3.377176e-03	
398	9.549926e+06	6.556672e-01,	3.455835e-03	
399	9.772372e+06	6.556681e-01,	3.536326e-03	
400	1.000000e+07	6.556691e-01,	3.618692e-03	
401	1.023293e+07	6.556701e-01,	3.702975e-03	
402	1.047129e+07	6.556711e-01,	3.789222e-03	

Index   frequency       vop                             
--------------------------------------------------------------------------------
403	1.071519e+07	6.556722e-01,	3.877476e-03	
404	1.096478e+07	6.556734e-01,	3.967786e-03	
405	1.122018e+07	6.556746e-01,	4.060199e-03	
406	1.148154e+07	6.556758e-01,	4.154764e-03	
407	1.174898e+07	6.556771e-01,	4.251531e-03	
408	1.202264e+07	6.556785e-01,	4.350551e-03	
409	1.230269e+07	6.556799e-01,	4.451876e-03	
410	1.258925e+07	6.556815e-01,	4.555562e-03	
411	1.288250e+07	6.556830e-01,	4.661661e-03	
412	1.318257e+07	6.556847e-01,	4.770231e-03	
413	1.348963e+07	6.556864e-01,	4.881329e-03	
414	1.380384e+07	6.556882e-01,	4.995013e-03	
415	1.412538e+07	6.556901e-01,	5.111344e-03	
416	1.445440e+07	6.556921e-01,	5.230384e-03	
