  ** sch_path: /home/andylithia/openmpw/project-reisen-chip1/xschem/ctle_3.sch
  AC Analysis  Sun Oct 30 23:20:13  2022
--------------------------------------------------------------------------------
Index   frequency       vop                             
--------------------------------------------------------------------------------
0	1.000000e+03	1.304586e+00,	2.618776e-08	
1	1.023293e+03	1.304586e+00,	2.679775e-08	
2	1.047129e+03	1.304586e+00,	2.742195e-08	
3	1.071519e+03	1.304586e+00,	2.806069e-08	
4	1.096478e+03	1.304586e+00,	2.871430e-08	
5	1.122018e+03	1.304586e+00,	2.938315e-08	
6	1.148154e+03	1.304586e+00,	3.006757e-08	
7	1.174898e+03	1.304586e+00,	3.076793e-08	
8	1.202264e+03	1.304586e+00,	3.148461e-08	
9	1.230269e+03	1.304586e+00,	3.221798e-08	
10	1.258925e+03	1.304586e+00,	3.296843e-08	
11	1.288250e+03	1.304586e+00,	3.373637e-08	
12	1.318257e+03	1.304586e+00,	3.452219e-08	
13	1.348963e+03	1.304586e+00,	3.532631e-08	
14	1.380384e+03	1.304586e+00,	3.614917e-08	
15	1.412538e+03	1.304586e+00,	3.699119e-08	
16	1.445440e+03	1.304586e+00,	3.785283e-08	
17	1.479108e+03	1.304586e+00,	3.873453e-08	
18	1.513561e+03	1.304586e+00,	3.963677e-08	
19	1.548817e+03	1.304586e+00,	4.056003e-08	
20	1.584893e+03	1.304586e+00,	4.150480e-08	
21	1.621810e+03	1.304586e+00,	4.247157e-08	
22	1.659587e+03	1.304586e+00,	4.346086e-08	
23	1.698244e+03	1.304586e+00,	4.447319e-08	
24	1.737801e+03	1.304586e+00,	4.550911e-08	
25	1.778279e+03	1.304586e+00,	4.656915e-08	
26	1.819701e+03	1.304586e+00,	4.765388e-08	
27	1.862087e+03	1.304586e+00,	4.876389e-08	
28	1.905461e+03	1.304586e+00,	4.989974e-08	
29	1.949845e+03	1.304586e+00,	5.106206e-08	
30	1.995262e+03	1.304586e+00,	5.225144e-08	
31	2.041738e+03	1.304586e+00,	5.346854e-08	
32	2.089296e+03	1.304586e+00,	5.471398e-08	
33	2.137962e+03	1.304586e+00,	5.598843e-08	
34	2.187762e+03	1.304586e+00,	5.729257e-08	
35	2.238721e+03	1.304586e+00,	5.862708e-08	
36	2.290868e+03	1.304586e+00,	5.999268e-08	
37	2.344229e+03	1.304586e+00,	6.139009e-08	
38	2.398833e+03	1.304586e+00,	6.282005e-08	
39	2.454709e+03	1.304586e+00,	6.428332e-08	
40	2.511886e+03	1.304586e+00,	6.578067e-08	
41	2.570396e+03	1.304586e+00,	6.731290e-08	
42	2.630268e+03	1.304586e+00,	6.888082e-08	
43	2.691535e+03	1.304586e+00,	7.048526e-08	
44	2.754229e+03	1.304586e+00,	7.212707e-08	
45	2.818383e+03	1.304586e+00,	7.380713e-08	
46	2.884032e+03	1.304586e+00,	7.552632e-08	
47	2.951209e+03	1.304586e+00,	7.728555e-08	
48	3.019952e+03	1.304586e+00,	7.908576e-08	
49	3.090295e+03	1.304586e+00,	8.092791e-08	
50	3.162278e+03	1.304586e+00,	8.281296e-08	
51	3.235937e+03	1.304586e+00,	8.474192e-08	
52	3.311311e+03	1.304586e+00,	8.671581e-08	
53	3.388442e+03	1.304586e+00,	8.873568e-08	
54	3.467369e+03	1.304586e+00,	9.080260e-08	

Index   frequency       vop                             
--------------------------------------------------------------------------------
55	3.548134e+03	1.304586e+00,	9.291767e-08	
56	3.630781e+03	1.304586e+00,	9.508200e-08	
57	3.715352e+03	1.304586e+00,	9.729674e-08	
58	3.801894e+03	1.304586e+00,	9.956307e-08	
59	3.890451e+03	1.304586e+00,	1.018822e-07	
60	3.981072e+03	1.304586e+00,	1.042553e-07	
61	4.073803e+03	1.304586e+00,	1.066838e-07	
62	4.168694e+03	1.304586e+00,	1.091687e-07	
63	4.265795e+03	1.304586e+00,	1.117116e-07	
64	4.365158e+03	1.304586e+00,	1.143137e-07	
65	4.466836e+03	1.304586e+00,	1.169764e-07	
66	4.570882e+03	1.304586e+00,	1.197011e-07	
67	4.677351e+03	1.304586e+00,	1.224893e-07	
68	4.786301e+03	1.304586e+00,	1.253425e-07	
69	4.897788e+03	1.304586e+00,	1.282621e-07	
70	5.011872e+03	1.304586e+00,	1.312497e-07	
71	5.128614e+03	1.304586e+00,	1.343069e-07	
72	5.248075e+03	1.304586e+00,	1.374353e-07	
73	5.370318e+03	1.304586e+00,	1.406366e-07	
74	5.495409e+03	1.304586e+00,	1.439124e-07	
75	5.623413e+03	1.304586e+00,	1.472646e-07	
76	5.754399e+03	1.304586e+00,	1.506948e-07	
77	5.888437e+03	1.304586e+00,	1.542049e-07	
78	6.025596e+03	1.304586e+00,	1.577968e-07	
79	6.165950e+03	1.304586e+00,	1.614724e-07	
80	6.309573e+03	1.304586e+00,	1.652336e-07	
81	6.456542e+03	1.304586e+00,	1.690824e-07	
82	6.606934e+03	1.304586e+00,	1.730208e-07	
83	6.760830e+03	1.304586e+00,	1.770510e-07	
84	6.918310e+03	1.304586e+00,	1.811750e-07	
85	7.079458e+03	1.304586e+00,	1.853951e-07	
86	7.244360e+03	1.304586e+00,	1.897135e-07	
87	7.413102e+03	1.304586e+00,	1.941325e-07	
88	7.585776e+03	1.304586e+00,	1.986545e-07	
89	7.762471e+03	1.304586e+00,	2.032817e-07	
90	7.943282e+03	1.304586e+00,	2.080167e-07	
91	8.128305e+03	1.304586e+00,	2.128621e-07	
92	8.317638e+03	1.304586e+00,	2.178203e-07	
93	8.511380e+03	1.304586e+00,	2.228940e-07	
94	8.709636e+03	1.304586e+00,	2.280858e-07	
95	8.912509e+03	1.304586e+00,	2.333986e-07	
96	9.120108e+03	1.304586e+00,	2.388352e-07	
97	9.332543e+03	1.304586e+00,	2.443984e-07	
98	9.549926e+03	1.304586e+00,	2.500911e-07	
99	9.772372e+03	1.304586e+00,	2.559165e-07	
100	1.000000e+04	1.304586e+00,	2.618776e-07	
101	1.023293e+04	1.304586e+00,	2.679775e-07	
102	1.047129e+04	1.304586e+00,	2.742195e-07	
103	1.071519e+04	1.304586e+00,	2.806069e-07	
104	1.096478e+04	1.304586e+00,	2.871430e-07	
105	1.122018e+04	1.304586e+00,	2.938315e-07	
106	1.148154e+04	1.304586e+00,	3.006757e-07	
107	1.174898e+04	1.304586e+00,	3.076793e-07	
108	1.202264e+04	1.304586e+00,	3.148461e-07	
109	1.230269e+04	1.304586e+00,	3.221798e-07	
110	1.258925e+04	1.304586e+00,	3.296843e-07	
111	1.288250e+04	1.304586e+00,	3.373637e-07	
112	1.318257e+04	1.304586e+00,	3.452219e-07	

Index   frequency       vop                             
--------------------------------------------------------------------------------
113	1.348963e+04	1.304586e+00,	3.532631e-07	
114	1.380384e+04	1.304586e+00,	3.614917e-07	
115	1.412538e+04	1.304586e+00,	3.699119e-07	
116	1.445440e+04	1.304586e+00,	3.785283e-07	
117	1.479108e+04	1.304586e+00,	3.873453e-07	
118	1.513561e+04	1.304586e+00,	3.963677e-07	
119	1.548817e+04	1.304586e+00,	4.056003e-07	
120	1.584893e+04	1.304586e+00,	4.150480e-07	
121	1.621810e+04	1.304586e+00,	4.247157e-07	
122	1.659587e+04	1.304586e+00,	4.346086e-07	
123	1.698244e+04	1.304586e+00,	4.447319e-07	
124	1.737801e+04	1.304586e+00,	4.550911e-07	
125	1.778279e+04	1.304586e+00,	4.656915e-07	
126	1.819701e+04	1.304586e+00,	4.765388e-07	
127	1.862087e+04	1.304586e+00,	4.876389e-07	
128	1.905461e+04	1.304586e+00,	4.989974e-07	
129	1.949845e+04	1.304586e+00,	5.106206e-07	
130	1.995262e+04	1.304586e+00,	5.225144e-07	
131	2.041738e+04	1.304586e+00,	5.346854e-07	
132	2.089296e+04	1.304586e+00,	5.471398e-07	
133	2.137962e+04	1.304586e+00,	5.598843e-07	
134	2.187762e+04	1.304586e+00,	5.729257e-07	
135	2.238721e+04	1.304586e+00,	5.862708e-07	
136	2.290868e+04	1.304586e+00,	5.999268e-07	
137	2.344229e+04	1.304586e+00,	6.139009e-07	
138	2.398833e+04	1.304586e+00,	6.282005e-07	
139	2.454709e+04	1.304586e+00,	6.428332e-07	
140	2.511886e+04	1.304586e+00,	6.578067e-07	
141	2.570396e+04	1.304586e+00,	6.731290e-07	
142	2.630268e+04	1.304586e+00,	6.888082e-07	
143	2.691535e+04	1.304586e+00,	7.048526e-07	
144	2.754229e+04	1.304586e+00,	7.212707e-07	
145	2.818383e+04	1.304586e+00,	7.380713e-07	
146	2.884032e+04	1.304586e+00,	7.552632e-07	
147	2.951209e+04	1.304586e+00,	7.728555e-07	
148	3.019952e+04	1.304586e+00,	7.908576e-07	
149	3.090295e+04	1.304586e+00,	8.092791e-07	
150	3.162278e+04	1.304586e+00,	8.281296e-07	
151	3.235937e+04	1.304586e+00,	8.474192e-07	
152	3.311311e+04	1.304586e+00,	8.671581e-07	
153	3.388442e+04	1.304586e+00,	8.873568e-07	
154	3.467369e+04	1.304586e+00,	9.080260e-07	
155	3.548134e+04	1.304586e+00,	9.291767e-07	
156	3.630781e+04	1.304586e+00,	9.508200e-07	
157	3.715352e+04	1.304586e+00,	9.729674e-07	
158	3.801894e+04	1.304586e+00,	9.956307e-07	
159	3.890451e+04	1.304586e+00,	1.018822e-06	
160	3.981072e+04	1.304586e+00,	1.042553e-06	
161	4.073803e+04	1.304586e+00,	1.066838e-06	
162	4.168694e+04	1.304586e+00,	1.091687e-06	
163	4.265795e+04	1.304586e+00,	1.117116e-06	
164	4.365158e+04	1.304586e+00,	1.143137e-06	
165	4.466836e+04	1.304586e+00,	1.169764e-06	
166	4.570882e+04	1.304586e+00,	1.197011e-06	
167	4.677351e+04	1.304586e+00,	1.224893e-06	
168	4.786301e+04	1.304586e+00,	1.253425e-06	
169	4.897788e+04	1.304586e+00,	1.282621e-06	
170	5.011872e+04	1.304586e+00,	1.312497e-06	

Index   frequency       vop                             
--------------------------------------------------------------------------------
171	5.128614e+04	1.304586e+00,	1.343069e-06	
172	5.248075e+04	1.304586e+00,	1.374353e-06	
173	5.370318e+04	1.304586e+00,	1.406366e-06	
174	5.495409e+04	1.304586e+00,	1.439124e-06	
175	5.623413e+04	1.304586e+00,	1.472646e-06	
176	5.754399e+04	1.304586e+00,	1.506948e-06	
177	5.888437e+04	1.304586e+00,	1.542049e-06	
178	6.025596e+04	1.304586e+00,	1.577968e-06	
179	6.165950e+04	1.304586e+00,	1.614724e-06	
180	6.309573e+04	1.304586e+00,	1.652336e-06	
181	6.456542e+04	1.304586e+00,	1.690824e-06	
182	6.606934e+04	1.304586e+00,	1.730208e-06	
183	6.760830e+04	1.304586e+00,	1.770510e-06	
184	6.918310e+04	1.304586e+00,	1.811750e-06	
185	7.079458e+04	1.304586e+00,	1.853951e-06	
186	7.244360e+04	1.304586e+00,	1.897135e-06	
187	7.413102e+04	1.304586e+00,	1.941325e-06	
188	7.585776e+04	1.304586e+00,	1.986544e-06	
189	7.762471e+04	1.304586e+00,	2.032817e-06	
190	7.943282e+04	1.304586e+00,	2.080167e-06	
191	8.128305e+04	1.304586e+00,	2.128621e-06	
192	8.317638e+04	1.304586e+00,	2.178203e-06	
193	8.511380e+04	1.304586e+00,	2.228940e-06	
194	8.709636e+04	1.304586e+00,	2.280858e-06	
195	8.912509e+04	1.304586e+00,	2.333986e-06	
196	9.120108e+04	1.304586e+00,	2.388352e-06	
197	9.332543e+04	1.304586e+00,	2.443984e-06	
198	9.549926e+04	1.304586e+00,	2.500911e-06	
199	9.772372e+04	1.304586e+00,	2.559165e-06	
200	1.000000e+05	1.304586e+00,	2.618776e-06	
201	1.023293e+05	1.304586e+00,	2.679775e-06	
202	1.047129e+05	1.304586e+00,	2.742195e-06	
203	1.071519e+05	1.304586e+00,	2.806069e-06	
204	1.096478e+05	1.304586e+00,	2.871430e-06	
205	1.122018e+05	1.304586e+00,	2.938315e-06	
206	1.148154e+05	1.304586e+00,	3.006757e-06	
207	1.174898e+05	1.304586e+00,	3.076793e-06	
208	1.202264e+05	1.304586e+00,	3.148461e-06	
209	1.230269e+05	1.304586e+00,	3.221798e-06	
210	1.258925e+05	1.304586e+00,	3.296843e-06	
211	1.288250e+05	1.304586e+00,	3.373637e-06	
212	1.318257e+05	1.304586e+00,	3.452219e-06	
213	1.348963e+05	1.304586e+00,	3.532631e-06	
214	1.380384e+05	1.304586e+00,	3.614917e-06	
215	1.412538e+05	1.304586e+00,	3.699119e-06	
216	1.445440e+05	1.304586e+00,	3.785282e-06	
217	1.479108e+05	1.304586e+00,	3.873453e-06	
218	1.513561e+05	1.304586e+00,	3.963677e-06	
219	1.548817e+05	1.304586e+00,	4.056003e-06	
220	1.584893e+05	1.304586e+00,	4.150480e-06	
221	1.621810e+05	1.304586e+00,	4.247157e-06	
222	1.659587e+05	1.304586e+00,	4.346086e-06	
223	1.698244e+05	1.304586e+00,	4.447319e-06	
224	1.737801e+05	1.304586e+00,	4.550910e-06	
225	1.778279e+05	1.304586e+00,	4.656915e-06	
226	1.819701e+05	1.304586e+00,	4.765388e-06	
227	1.862087e+05	1.304586e+00,	4.876388e-06	
228	1.905461e+05	1.304586e+00,	4.989974e-06	

Index   frequency       vop                             
--------------------------------------------------------------------------------
229	1.949845e+05	1.304586e+00,	5.106205e-06	
230	1.995262e+05	1.304586e+00,	5.225144e-06	
231	2.041738e+05	1.304586e+00,	5.346853e-06	
232	2.089296e+05	1.304586e+00,	5.471398e-06	
233	2.137962e+05	1.304586e+00,	5.598843e-06	
234	2.187762e+05	1.304586e+00,	5.729257e-06	
235	2.238721e+05	1.304586e+00,	5.862708e-06	
236	2.290868e+05	1.304586e+00,	5.999268e-06	
237	2.344229e+05	1.304586e+00,	6.139009e-06	
238	2.398833e+05	1.304586e+00,	6.282005e-06	
239	2.454709e+05	1.304586e+00,	6.428331e-06	
240	2.511886e+05	1.304586e+00,	6.578066e-06	
241	2.570396e+05	1.304586e+00,	6.731289e-06	
242	2.630268e+05	1.304586e+00,	6.888081e-06	
243	2.691535e+05	1.304586e+00,	7.048525e-06	
244	2.754229e+05	1.304586e+00,	7.212706e-06	
245	2.818383e+05	1.304586e+00,	7.380712e-06	
246	2.884032e+05	1.304586e+00,	7.552631e-06	
247	2.951209e+05	1.304586e+00,	7.728554e-06	
248	3.019952e+05	1.304586e+00,	7.908575e-06	
249	3.090295e+05	1.304586e+00,	8.092789e-06	
250	3.162278e+05	1.304586e+00,	8.281295e-06	
251	3.235937e+05	1.304586e+00,	8.474191e-06	
252	3.311311e+05	1.304586e+00,	8.671580e-06	
253	3.388442e+05	1.304586e+00,	8.873567e-06	
254	3.467369e+05	1.304586e+00,	9.080259e-06	
255	3.548134e+05	1.304586e+00,	9.291765e-06	
256	3.630781e+05	1.304586e+00,	9.508198e-06	
257	3.715352e+05	1.304586e+00,	9.729672e-06	
258	3.801894e+05	1.304586e+00,	9.956305e-06	
259	3.890451e+05	1.304586e+00,	1.018822e-05	
260	3.981072e+05	1.304586e+00,	1.042553e-05	
261	4.073803e+05	1.304586e+00,	1.066837e-05	
262	4.168694e+05	1.304586e+00,	1.091687e-05	
263	4.265795e+05	1.304586e+00,	1.117116e-05	
264	4.365158e+05	1.304586e+00,	1.143137e-05	
265	4.466836e+05	1.304586e+00,	1.169764e-05	
266	4.570882e+05	1.304586e+00,	1.197011e-05	
267	4.677351e+05	1.304586e+00,	1.224893e-05	
268	4.786301e+05	1.304586e+00,	1.253424e-05	
269	4.897788e+05	1.304586e+00,	1.282620e-05	
270	5.011872e+05	1.304586e+00,	1.312496e-05	
271	5.128614e+05	1.304586e+00,	1.343068e-05	
272	5.248075e+05	1.304586e+00,	1.374352e-05	
273	5.370318e+05	1.304586e+00,	1.406365e-05	
274	5.495409e+05	1.304586e+00,	1.439124e-05	
275	5.623413e+05	1.304586e+00,	1.472645e-05	
276	5.754399e+05	1.304586e+00,	1.506947e-05	
277	5.888437e+05	1.304586e+00,	1.542049e-05	
278	6.025596e+05	1.304586e+00,	1.577967e-05	
279	6.165950e+05	1.304586e+00,	1.614723e-05	
280	6.309573e+05	1.304586e+00,	1.652335e-05	
281	6.456542e+05	1.304586e+00,	1.690822e-05	
282	6.606934e+05	1.304586e+00,	1.730207e-05	
283	6.760830e+05	1.304586e+00,	1.770508e-05	
284	6.918310e+05	1.304586e+00,	1.811749e-05	
285	7.079458e+05	1.304586e+00,	1.853950e-05	
286	7.244360e+05	1.304586e+00,	1.897134e-05	

Index   frequency       vop                             
--------------------------------------------------------------------------------
287	7.413102e+05	1.304586e+00,	1.941324e-05	
288	7.585776e+05	1.304586e+00,	1.986543e-05	
289	7.762471e+05	1.304586e+00,	2.032815e-05	
290	7.943282e+05	1.304586e+00,	2.080165e-05	
291	8.128305e+05	1.304586e+00,	2.128619e-05	
292	8.317638e+05	1.304586e+00,	2.178200e-05	
293	8.511380e+05	1.304586e+00,	2.228937e-05	
294	8.709636e+05	1.304586e+00,	2.280856e-05	
295	8.912509e+05	1.304586e+00,	2.333983e-05	
296	9.120108e+05	1.304586e+00,	2.388349e-05	
297	9.332543e+05	1.304586e+00,	2.443980e-05	
298	9.549926e+05	1.304586e+00,	2.500908e-05	
299	9.772372e+05	1.304586e+00,	2.559161e-05	
300	1.000000e+06	1.304586e+00,	2.618772e-05	
301	1.023293e+06	1.304586e+00,	2.679770e-05	
302	1.047129e+06	1.304586e+00,	2.742190e-05	
303	1.071519e+06	1.304586e+00,	2.806064e-05	
304	1.096478e+06	1.304586e+00,	2.871425e-05	
305	1.122018e+06	1.304586e+00,	2.938309e-05	
306	1.148154e+06	1.304586e+00,	3.006751e-05	
307	1.174898e+06	1.304586e+00,	3.076786e-05	
308	1.202264e+06	1.304586e+00,	3.148454e-05	
309	1.230269e+06	1.304586e+00,	3.221790e-05	
310	1.258925e+06	1.304586e+00,	3.296835e-05	
311	1.288250e+06	1.304586e+00,	3.373628e-05	
312	1.318257e+06	1.304586e+00,	3.452209e-05	
313	1.348963e+06	1.304586e+00,	3.532621e-05	
314	1.380384e+06	1.304586e+00,	3.614906e-05	
315	1.412538e+06	1.304586e+00,	3.699107e-05	
316	1.445440e+06	1.304586e+00,	3.785270e-05	
317	1.479108e+06	1.304586e+00,	3.873440e-05	
318	1.513561e+06	1.304586e+00,	3.963663e-05	
319	1.548817e+06	1.304586e+00,	4.055988e-05	
320	1.584893e+06	1.304586e+00,	4.150463e-05	
321	1.621810e+06	1.304586e+00,	4.247139e-05	
322	1.659587e+06	1.304586e+00,	4.346067e-05	
323	1.698244e+06	1.304586e+00,	4.447299e-05	
324	1.737801e+06	1.304586e+00,	4.550889e-05	
325	1.778279e+06	1.304586e+00,	4.656892e-05	
326	1.819701e+06	1.304586e+00,	4.765363e-05	
327	1.862087e+06	1.304586e+00,	4.876362e-05	
328	1.905461e+06	1.304586e+00,	4.989946e-05	
329	1.949845e+06	1.304586e+00,	5.106175e-05	
330	1.995262e+06	1.304586e+00,	5.225112e-05	
331	2.041738e+06	1.304586e+00,	5.346818e-05	
332	2.089296e+06	1.304586e+00,	5.471360e-05	
333	2.137962e+06	1.304586e+00,	5.598803e-05	
334	2.187762e+06	1.304586e+00,	5.729214e-05	
335	2.238721e+06	1.304586e+00,	5.862662e-05	
336	2.290868e+06	1.304586e+00,	5.999219e-05	
337	2.344229e+06	1.304586e+00,	6.138956e-05	
338	2.398833e+06	1.304586e+00,	6.281948e-05	
339	2.454709e+06	1.304586e+00,	6.428271e-05	
340	2.511886e+06	1.304586e+00,	6.578001e-05	
341	2.570396e+06	1.304586e+00,	6.731220e-05	
342	2.630268e+06	1.304586e+00,	6.888007e-05	
343	2.691535e+06	1.304586e+00,	7.048445e-05	
344	2.754229e+06	1.304586e+00,	7.212621e-05	

Index   frequency       vop                             
--------------------------------------------------------------------------------
345	2.818383e+06	1.304586e+00,	7.380620e-05	
346	2.884032e+06	1.304586e+00,	7.552532e-05	
347	2.951209e+06	1.304586e+00,	7.728449e-05	
348	3.019952e+06	1.304586e+00,	7.908462e-05	
349	3.090295e+06	1.304586e+00,	8.092668e-05	
350	3.162278e+06	1.304586e+00,	8.281165e-05	
351	3.235937e+06	1.304586e+00,	8.474052e-05	
352	3.311311e+06	1.304586e+00,	8.671431e-05	
353	3.388442e+06	1.304586e+00,	8.873407e-05	
354	3.467369e+06	1.304586e+00,	9.080088e-05	
355	3.548134e+06	1.304586e+00,	9.291582e-05	
356	3.630781e+06	1.304586e+00,	9.508002e-05	
357	3.715352e+06	1.304586e+00,	9.729462e-05	
358	3.801894e+06	1.304586e+00,	9.956080e-05	
359	3.890451e+06	1.304586e+00,	1.018798e-04	
360	3.981072e+06	1.304586e+00,	1.042527e-04	
361	4.073803e+06	1.304587e+00,	1.066810e-04	
362	4.168694e+06	1.304587e+00,	1.091657e-04	
363	4.265795e+06	1.304587e+00,	1.117084e-04	
364	4.365158e+06	1.304587e+00,	1.143103e-04	
365	4.466836e+06	1.304587e+00,	1.169727e-04	
366	4.570882e+06	1.304587e+00,	1.196972e-04	
367	4.677351e+06	1.304587e+00,	1.224851e-04	
368	4.786301e+06	1.304587e+00,	1.253379e-04	
369	4.897788e+06	1.304587e+00,	1.282572e-04	
370	5.011872e+06	1.304587e+00,	1.312445e-04	
371	5.128614e+06	1.304587e+00,	1.343013e-04	
372	5.248075e+06	1.304587e+00,	1.374293e-04	
373	5.370318e+06	1.304587e+00,	1.406302e-04	
374	5.495409e+06	1.304587e+00,	1.439056e-04	
375	5.623413e+06	1.304587e+00,	1.472572e-04	
376	5.754399e+06	1.304587e+00,	1.506869e-04	
377	5.888437e+06	1.304587e+00,	1.541965e-04	
378	6.025596e+06	1.304588e+00,	1.577878e-04	
379	6.165950e+06	1.304588e+00,	1.614627e-04	
380	6.309573e+06	1.304588e+00,	1.652232e-04	
381	6.456542e+06	1.304588e+00,	1.690712e-04	
382	6.606934e+06	1.304588e+00,	1.730089e-04	
383	6.760830e+06	1.304588e+00,	1.770382e-04	
384	6.918310e+06	1.304588e+00,	1.811613e-04	
385	7.079458e+06	1.304588e+00,	1.853804e-04	
386	7.244360e+06	1.304588e+00,	1.896978e-04	
387	7.413102e+06	1.304589e+00,	1.941157e-04	
388	7.585776e+06	1.304589e+00,	1.986364e-04	
389	7.762471e+06	1.304589e+00,	2.032623e-04	
390	7.943282e+06	1.304589e+00,	2.079960e-04	
391	8.128305e+06	1.304589e+00,	2.128398e-04	
392	8.317638e+06	1.304589e+00,	2.177965e-04	
393	8.511380e+06	1.304590e+00,	2.228684e-04	
394	8.709636e+06	1.304590e+00,	2.280585e-04	
395	8.912509e+06	1.304590e+00,	2.333693e-04	
396	9.120108e+06	1.304590e+00,	2.388038e-04	
397	9.332543e+06	1.304590e+00,	2.443647e-04	
398	9.549926e+06	1.304591e+00,	2.500551e-04	
399	9.772372e+06	1.304591e+00,	2.558779e-04	
400	1.000000e+07	1.304591e+00,	2.618362e-04	
401	1.023293e+07	1.304591e+00,	2.679331e-04	
402	1.047129e+07	1.304592e+00,	2.741719e-04	

Index   frequency       vop                             
--------------------------------------------------------------------------------
403	1.071519e+07	1.304592e+00,	2.805559e-04	
404	1.096478e+07	1.304592e+00,	2.870885e-04	
405	1.122018e+07	1.304592e+00,	2.937730e-04	
406	1.148154e+07	1.304593e+00,	3.006130e-04	
407	1.174898e+07	1.304593e+00,	3.076122e-04	
408	1.202264e+07	1.304593e+00,	3.147741e-04	
409	1.230269e+07	1.304594e+00,	3.221027e-04	
410	1.258925e+07	1.304594e+00,	3.296017e-04	
411	1.288250e+07	1.304595e+00,	3.372752e-04	
412	1.318257e+07	1.304595e+00,	3.451270e-04	
413	1.348963e+07	1.304595e+00,	3.531615e-04	
414	1.380384e+07	1.304596e+00,	3.613828e-04	
415	1.412538e+07	1.304596e+00,	3.697952e-04	
416	1.445440e+07	1.304597e+00,	3.784032e-04	
