** sch_path: /home/andylithia/openmpw/project-reisen-chip1/xschem/ota_wideband.sch
AC Analysis  Sun Oct 30 17:11:03  2022
--------------------------------------------------------------------------------
Index   frequency       vop                             
--------------------------------------------------------------------------------
0	1.000000e+03	3.492961e+00,	-1.75582e-06	
1	1.023293e+03	3.492961e+00,	-1.79672e-06	
2	1.047129e+03	3.492961e+00,	-1.83857e-06	
3	1.071519e+03	3.492961e+00,	-1.88140e-06	
4	1.096478e+03	3.492961e+00,	-1.92522e-06	
5	1.122018e+03	3.492961e+00,	-1.97006e-06	
6	1.148154e+03	3.492961e+00,	-2.01595e-06	
7	1.174898e+03	3.492961e+00,	-2.06291e-06	
8	1.202264e+03	3.492961e+00,	-2.11096e-06	
9	1.230269e+03	3.492961e+00,	-2.16013e-06	
10	1.258925e+03	3.492961e+00,	-2.21045e-06	
11	1.288250e+03	3.492961e+00,	-2.26194e-06	
12	1.318257e+03	3.492961e+00,	-2.31462e-06	
13	1.348963e+03	3.492961e+00,	-2.36854e-06	
14	1.380384e+03	3.492961e+00,	-2.42371e-06	
15	1.412538e+03	3.492961e+00,	-2.48016e-06	
16	1.445440e+03	3.492961e+00,	-2.53793e-06	
17	1.479108e+03	3.492961e+00,	-2.59705e-06	
18	1.513561e+03	3.492961e+00,	-2.65754e-06	
19	1.548817e+03	3.492961e+00,	-2.71944e-06	
20	1.584893e+03	3.492961e+00,	-2.78279e-06	
21	1.621810e+03	3.492961e+00,	-2.84761e-06	
22	1.659587e+03	3.492961e+00,	-2.91394e-06	
23	1.698244e+03	3.492961e+00,	-2.98181e-06	
24	1.737801e+03	3.492961e+00,	-3.05127e-06	
25	1.778279e+03	3.492961e+00,	-3.12234e-06	
26	1.819701e+03	3.492961e+00,	-3.19507e-06	
27	1.862087e+03	3.492961e+00,	-3.26949e-06	
28	1.905461e+03	3.492961e+00,	-3.34565e-06	
29	1.949845e+03	3.492961e+00,	-3.42358e-06	
30	1.995262e+03	3.492961e+00,	-3.50332e-06	
31	2.041738e+03	3.492961e+00,	-3.58493e-06	
32	2.089296e+03	3.492961e+00,	-3.66843e-06	
33	2.137962e+03	3.492961e+00,	-3.75388e-06	
34	2.187762e+03	3.492961e+00,	-3.84132e-06	
35	2.238721e+03	3.492961e+00,	-3.93079e-06	
36	2.290868e+03	3.492961e+00,	-4.02235e-06	
37	2.344229e+03	3.492961e+00,	-4.11605e-06	
38	2.398833e+03	3.492961e+00,	-4.21192e-06	
39	2.454709e+03	3.492961e+00,	-4.31003e-06	
40	2.511886e+03	3.492961e+00,	-4.41042e-06	
41	2.570396e+03	3.492961e+00,	-4.51315e-06	
42	2.630268e+03	3.492961e+00,	-4.61828e-06	
43	2.691535e+03	3.492961e+00,	-4.72585e-06	
44	2.754229e+03	3.492961e+00,	-4.83593e-06	
45	2.818383e+03	3.492961e+00,	-4.94858e-06	
46	2.884032e+03	3.492961e+00,	-5.06384e-06	
47	2.951209e+03	3.492961e+00,	-5.18179e-06	
48	3.019952e+03	3.492961e+00,	-5.30249e-06	
49	3.090295e+03	3.492961e+00,	-5.42601e-06	
50	3.162278e+03	3.492961e+00,	-5.55239e-06	
51	3.235937e+03	3.492961e+00,	-5.68173e-06	
52	3.311311e+03	3.492961e+00,	-5.81407e-06	
53	3.388442e+03	3.492961e+00,	-5.94950e-06	
54	3.467369e+03	3.492961e+00,	-6.08808e-06	

Index   frequency       vop                             
--------------------------------------------------------------------------------
55	3.548134e+03	3.492961e+00,	-6.22989e-06	
56	3.630781e+03	3.492961e+00,	-6.37500e-06	
57	3.715352e+03	3.492961e+00,	-6.52349e-06	
58	3.801894e+03	3.492961e+00,	-6.67545e-06	
59	3.890451e+03	3.492961e+00,	-6.83094e-06	
60	3.981072e+03	3.492961e+00,	-6.99005e-06	
61	4.073803e+03	3.492961e+00,	-7.15287e-06	
62	4.168694e+03	3.492961e+00,	-7.31948e-06	
63	4.265795e+03	3.492961e+00,	-7.48997e-06	
64	4.365158e+03	3.492961e+00,	-7.66444e-06	
65	4.466836e+03	3.492961e+00,	-7.84296e-06	
66	4.570882e+03	3.492961e+00,	-8.02565e-06	
67	4.677351e+03	3.492961e+00,	-8.21259e-06	
68	4.786301e+03	3.492961e+00,	-8.40389e-06	
69	4.897788e+03	3.492961e+00,	-8.59964e-06	
70	5.011872e+03	3.492961e+00,	-8.79995e-06	
71	5.128614e+03	3.492961e+00,	-9.00493e-06	
72	5.248075e+03	3.492961e+00,	-9.21468e-06	
73	5.370318e+03	3.492961e+00,	-9.42932e-06	
74	5.495409e+03	3.492961e+00,	-9.64895e-06	
75	5.623413e+03	3.492961e+00,	-9.87371e-06	
76	5.754399e+03	3.492961e+00,	-1.01037e-05	
77	5.888437e+03	3.492961e+00,	-1.03390e-05	
78	6.025596e+03	3.492961e+00,	-1.05799e-05	
79	6.165950e+03	3.492961e+00,	-1.08263e-05	
80	6.309573e+03	3.492961e+00,	-1.10785e-05	
81	6.456542e+03	3.492961e+00,	-1.13365e-05	
82	6.606934e+03	3.492961e+00,	-1.16006e-05	
83	6.760830e+03	3.492961e+00,	-1.18708e-05	
84	6.918310e+03	3.492961e+00,	-1.21473e-05	
85	7.079458e+03	3.492961e+00,	-1.24303e-05	
86	7.244360e+03	3.492961e+00,	-1.27198e-05	
87	7.413102e+03	3.492961e+00,	-1.30161e-05	
88	7.585776e+03	3.492961e+00,	-1.33193e-05	
89	7.762471e+03	3.492961e+00,	-1.36295e-05	
90	7.943282e+03	3.492961e+00,	-1.39470e-05	
91	8.128305e+03	3.492961e+00,	-1.42718e-05	
92	8.317638e+03	3.492961e+00,	-1.46043e-05	
93	8.511380e+03	3.492961e+00,	-1.49445e-05	
94	8.709636e+03	3.492961e+00,	-1.52926e-05	
95	8.912509e+03	3.492961e+00,	-1.56488e-05	
96	9.120108e+03	3.492961e+00,	-1.60133e-05	
97	9.332543e+03	3.492961e+00,	-1.63863e-05	
98	9.549926e+03	3.492961e+00,	-1.67680e-05	
99	9.772372e+03	3.492961e+00,	-1.71585e-05	
100	1.000000e+04	3.492961e+00,	-1.75582e-05	
101	1.023293e+04	3.492961e+00,	-1.79672e-05	
102	1.047129e+04	3.492961e+00,	-1.83857e-05	
103	1.071519e+04	3.492961e+00,	-1.88140e-05	
104	1.096478e+04	3.492961e+00,	-1.92522e-05	
105	1.122018e+04	3.492961e+00,	-1.97006e-05	
106	1.148154e+04	3.492961e+00,	-2.01595e-05	
107	1.174898e+04	3.492961e+00,	-2.06291e-05	
108	1.202264e+04	3.492961e+00,	-2.11096e-05	
109	1.230269e+04	3.492961e+00,	-2.16013e-05	
110	1.258925e+04	3.492961e+00,	-2.21045e-05	
111	1.288250e+04	3.492961e+00,	-2.26194e-05	
112	1.318257e+04	3.492961e+00,	-2.31462e-05	

Index   frequency       vop                             
--------------------------------------------------------------------------------
113	1.348963e+04	3.492961e+00,	-2.36854e-05	
114	1.380384e+04	3.492961e+00,	-2.42371e-05	
115	1.412538e+04	3.492961e+00,	-2.48016e-05	
116	1.445440e+04	3.492961e+00,	-2.53793e-05	
117	1.479108e+04	3.492961e+00,	-2.59705e-05	
118	1.513561e+04	3.492961e+00,	-2.65754e-05	
119	1.548817e+04	3.492961e+00,	-2.71944e-05	
120	1.584893e+04	3.492961e+00,	-2.78279e-05	
121	1.621810e+04	3.492961e+00,	-2.84761e-05	
122	1.659587e+04	3.492961e+00,	-2.91394e-05	
123	1.698244e+04	3.492961e+00,	-2.98181e-05	
124	1.737801e+04	3.492961e+00,	-3.05127e-05	
125	1.778279e+04	3.492961e+00,	-3.12234e-05	
126	1.819701e+04	3.492961e+00,	-3.19507e-05	
127	1.862087e+04	3.492961e+00,	-3.26949e-05	
128	1.905461e+04	3.492961e+00,	-3.34565e-05	
129	1.949845e+04	3.492961e+00,	-3.42358e-05	
130	1.995262e+04	3.492961e+00,	-3.50332e-05	
131	2.041738e+04	3.492961e+00,	-3.58493e-05	
132	2.089296e+04	3.492961e+00,	-3.66843e-05	
133	2.137962e+04	3.492961e+00,	-3.75388e-05	
134	2.187762e+04	3.492961e+00,	-3.84132e-05	
135	2.238721e+04	3.492961e+00,	-3.93079e-05	
136	2.290868e+04	3.492961e+00,	-4.02235e-05	
137	2.344229e+04	3.492961e+00,	-4.11605e-05	
138	2.398833e+04	3.492961e+00,	-4.21192e-05	
139	2.454709e+04	3.492961e+00,	-4.31003e-05	
140	2.511886e+04	3.492961e+00,	-4.41042e-05	
141	2.570396e+04	3.492961e+00,	-4.51315e-05	
142	2.630268e+04	3.492961e+00,	-4.61828e-05	
143	2.691535e+04	3.492961e+00,	-4.72585e-05	
144	2.754229e+04	3.492961e+00,	-4.83593e-05	
145	2.818383e+04	3.492961e+00,	-4.94858e-05	
146	2.884032e+04	3.492961e+00,	-5.06384e-05	
147	2.951209e+04	3.492961e+00,	-5.18179e-05	
148	3.019952e+04	3.492961e+00,	-5.30249e-05	
149	3.090295e+04	3.492961e+00,	-5.42601e-05	
150	3.162278e+04	3.492961e+00,	-5.55239e-05	
151	3.235937e+04	3.492961e+00,	-5.68173e-05	
152	3.311311e+04	3.492961e+00,	-5.81407e-05	
153	3.388442e+04	3.492961e+00,	-5.94950e-05	
154	3.467369e+04	3.492961e+00,	-6.08808e-05	
155	3.548134e+04	3.492961e+00,	-6.22989e-05	
156	3.630781e+04	3.492961e+00,	-6.37500e-05	
157	3.715352e+04	3.492961e+00,	-6.52349e-05	
158	3.801894e+04	3.492961e+00,	-6.67545e-05	
159	3.890451e+04	3.492961e+00,	-6.83094e-05	
160	3.981072e+04	3.492961e+00,	-6.99005e-05	
161	4.073803e+04	3.492961e+00,	-7.15287e-05	
162	4.168694e+04	3.492961e+00,	-7.31948e-05	
163	4.265795e+04	3.492961e+00,	-7.48997e-05	
164	4.365158e+04	3.492961e+00,	-7.66444e-05	
165	4.466836e+04	3.492961e+00,	-7.84296e-05	
166	4.570882e+04	3.492961e+00,	-8.02565e-05	
167	4.677351e+04	3.492961e+00,	-8.21259e-05	
168	4.786301e+04	3.492961e+00,	-8.40389e-05	
169	4.897788e+04	3.492961e+00,	-8.59964e-05	
170	5.011872e+04	3.492961e+00,	-8.79995e-05	

Index   frequency       vop                             
--------------------------------------------------------------------------------
171	5.128614e+04	3.492961e+00,	-9.00493e-05	
172	5.248075e+04	3.492961e+00,	-9.21468e-05	
173	5.370318e+04	3.492961e+00,	-9.42932e-05	
174	5.495409e+04	3.492961e+00,	-9.64895e-05	
175	5.623413e+04	3.492961e+00,	-9.87371e-05	
176	5.754399e+04	3.492961e+00,	-1.01037e-04	
177	5.888437e+04	3.492961e+00,	-1.03390e-04	
178	6.025596e+04	3.492961e+00,	-1.05799e-04	
179	6.165950e+04	3.492961e+00,	-1.08263e-04	
180	6.309573e+04	3.492961e+00,	-1.10785e-04	
181	6.456542e+04	3.492961e+00,	-1.13365e-04	
182	6.606934e+04	3.492961e+00,	-1.16006e-04	
183	6.760830e+04	3.492961e+00,	-1.18708e-04	
184	6.918310e+04	3.492961e+00,	-1.21473e-04	
185	7.079458e+04	3.492961e+00,	-1.24303e-04	
186	7.244360e+04	3.492961e+00,	-1.27198e-04	
187	7.413102e+04	3.492961e+00,	-1.30161e-04	
188	7.585776e+04	3.492961e+00,	-1.33193e-04	
189	7.762471e+04	3.492961e+00,	-1.36295e-04	
190	7.943282e+04	3.492961e+00,	-1.39470e-04	
191	8.128305e+04	3.492961e+00,	-1.42718e-04	
192	8.317638e+04	3.492961e+00,	-1.46043e-04	
193	8.511380e+04	3.492961e+00,	-1.49445e-04	
194	8.709636e+04	3.492961e+00,	-1.52926e-04	
195	8.912509e+04	3.492961e+00,	-1.56488e-04	
196	9.120108e+04	3.492961e+00,	-1.60133e-04	
197	9.332543e+04	3.492961e+00,	-1.63863e-04	
198	9.549926e+04	3.492961e+00,	-1.67680e-04	
199	9.772372e+04	3.492961e+00,	-1.71585e-04	
200	1.000000e+05	3.492961e+00,	-1.75582e-04	
201	1.023293e+05	3.492961e+00,	-1.79672e-04	
202	1.047129e+05	3.492961e+00,	-1.83857e-04	
203	1.071519e+05	3.492961e+00,	-1.88140e-04	
204	1.096478e+05	3.492961e+00,	-1.92522e-04	
205	1.122018e+05	3.492961e+00,	-1.97006e-04	
206	1.148154e+05	3.492961e+00,	-2.01595e-04	
207	1.174898e+05	3.492961e+00,	-2.06291e-04	
208	1.202264e+05	3.492961e+00,	-2.11096e-04	
209	1.230269e+05	3.492961e+00,	-2.16013e-04	
210	1.258925e+05	3.492961e+00,	-2.21045e-04	
211	1.288250e+05	3.492961e+00,	-2.26194e-04	
212	1.318257e+05	3.492961e+00,	-2.31462e-04	
213	1.348963e+05	3.492961e+00,	-2.36854e-04	
214	1.380384e+05	3.492961e+00,	-2.42371e-04	
215	1.412538e+05	3.492961e+00,	-2.48016e-04	
216	1.445440e+05	3.492961e+00,	-2.53793e-04	
217	1.479108e+05	3.492961e+00,	-2.59705e-04	
218	1.513561e+05	3.492961e+00,	-2.65754e-04	
219	1.548817e+05	3.492961e+00,	-2.71944e-04	
220	1.584893e+05	3.492961e+00,	-2.78279e-04	
221	1.621810e+05	3.492961e+00,	-2.84761e-04	
222	1.659587e+05	3.492961e+00,	-2.91394e-04	
223	1.698244e+05	3.492961e+00,	-2.98181e-04	
224	1.737801e+05	3.492961e+00,	-3.05127e-04	
225	1.778279e+05	3.492961e+00,	-3.12234e-04	
226	1.819701e+05	3.492961e+00,	-3.19507e-04	
227	1.862087e+05	3.492961e+00,	-3.26949e-04	
228	1.905461e+05	3.492961e+00,	-3.34565e-04	

Index   frequency       vop                             
--------------------------------------------------------------------------------
229	1.949845e+05	3.492961e+00,	-3.42358e-04	
230	1.995262e+05	3.492961e+00,	-3.50332e-04	
231	2.041738e+05	3.492961e+00,	-3.58493e-04	
232	2.089296e+05	3.492961e+00,	-3.66843e-04	
233	2.137962e+05	3.492961e+00,	-3.75388e-04	
234	2.187762e+05	3.492961e+00,	-3.84132e-04	
235	2.238721e+05	3.492961e+00,	-3.93079e-04	
236	2.290868e+05	3.492961e+00,	-4.02235e-04	
237	2.344229e+05	3.492961e+00,	-4.11605e-04	
238	2.398833e+05	3.492961e+00,	-4.21192e-04	
239	2.454709e+05	3.492961e+00,	-4.31003e-04	
240	2.511886e+05	3.492961e+00,	-4.41042e-04	
241	2.570396e+05	3.492961e+00,	-4.51316e-04	
242	2.630268e+05	3.492961e+00,	-4.61828e-04	
243	2.691535e+05	3.492961e+00,	-4.72585e-04	
244	2.754229e+05	3.492961e+00,	-4.83593e-04	
245	2.818383e+05	3.492961e+00,	-4.94858e-04	
246	2.884032e+05	3.492961e+00,	-5.06384e-04	
247	2.951209e+05	3.492961e+00,	-5.18180e-04	
248	3.019952e+05	3.492961e+00,	-5.30250e-04	
249	3.090295e+05	3.492961e+00,	-5.42601e-04	
250	3.162278e+05	3.492961e+00,	-5.55240e-04	
251	3.235937e+05	3.492961e+00,	-5.68173e-04	
252	3.311311e+05	3.492961e+00,	-5.81407e-04	
253	3.388442e+05	3.492961e+00,	-5.94950e-04	
254	3.467369e+05	3.492961e+00,	-6.08808e-04	
255	3.548134e+05	3.492961e+00,	-6.22989e-04	
256	3.630781e+05	3.492961e+00,	-6.37500e-04	
257	3.715352e+05	3.492961e+00,	-6.52350e-04	
258	3.801894e+05	3.492961e+00,	-6.67545e-04	
259	3.890451e+05	3.492961e+00,	-6.83094e-04	
260	3.981072e+05	3.492961e+00,	-6.99005e-04	
261	4.073803e+05	3.492961e+00,	-7.15287e-04	
262	4.168694e+05	3.492961e+00,	-7.31948e-04	
263	4.265795e+05	3.492961e+00,	-7.48998e-04	
264	4.365158e+05	3.492961e+00,	-7.66444e-04	
265	4.466836e+05	3.492961e+00,	-7.84297e-04	
266	4.570882e+05	3.492961e+00,	-8.02566e-04	
267	4.677351e+05	3.492961e+00,	-8.21260e-04	
268	4.786301e+05	3.492961e+00,	-8.40389e-04	
269	4.897788e+05	3.492961e+00,	-8.59965e-04	
270	5.011872e+05	3.492961e+00,	-8.79996e-04	
271	5.128614e+05	3.492961e+00,	-9.00493e-04	
272	5.248075e+05	3.492961e+00,	-9.21469e-04	
273	5.370318e+05	3.492961e+00,	-9.42933e-04	
274	5.495409e+05	3.492961e+00,	-9.64896e-04	
275	5.623413e+05	3.492961e+00,	-9.87372e-04	
276	5.754399e+05	3.492961e+00,	-1.01037e-03	
277	5.888437e+05	3.492961e+00,	-1.03391e-03	
278	6.025596e+05	3.492961e+00,	-1.05799e-03	
279	6.165950e+05	3.492961e+00,	-1.08263e-03	
280	6.309573e+05	3.492961e+00,	-1.10785e-03	
281	6.456542e+05	3.492961e+00,	-1.13365e-03	
282	6.606934e+05	3.492961e+00,	-1.16006e-03	
283	6.760830e+05	3.492961e+00,	-1.18708e-03	
284	6.918310e+05	3.492961e+00,	-1.21473e-03	
285	7.079458e+05	3.492961e+00,	-1.24303e-03	
286	7.244360e+05	3.492961e+00,	-1.27198e-03	

Index   frequency       vop                             
--------------------------------------------------------------------------------
287	7.413102e+05	3.492961e+00,	-1.30161e-03	
288	7.585776e+05	3.492961e+00,	-1.33193e-03	
289	7.762471e+05	3.492961e+00,	-1.36295e-03	
290	7.943282e+05	3.492961e+00,	-1.39470e-03	
291	8.128305e+05	3.492961e+00,	-1.42719e-03	
292	8.317638e+05	3.492961e+00,	-1.46043e-03	
293	8.511380e+05	3.492960e+00,	-1.49445e-03	
294	8.709636e+05	3.492960e+00,	-1.52926e-03	
295	8.912509e+05	3.492960e+00,	-1.56488e-03	
296	9.120108e+05	3.492960e+00,	-1.60133e-03	
297	9.332543e+05	3.492960e+00,	-1.63863e-03	
298	9.549926e+05	3.492960e+00,	-1.67680e-03	
299	9.772372e+05	3.492960e+00,	-1.71586e-03	
300	1.000000e+06	3.492960e+00,	-1.75583e-03	
301	1.023293e+06	3.492960e+00,	-1.79673e-03	
302	1.047129e+06	3.492960e+00,	-1.83858e-03	
303	1.071519e+06	3.492960e+00,	-1.88140e-03	
304	1.096478e+06	3.492960e+00,	-1.92523e-03	
305	1.122018e+06	3.492960e+00,	-1.97007e-03	
306	1.148154e+06	3.492960e+00,	-2.01596e-03	
307	1.174898e+06	3.492960e+00,	-2.06292e-03	
308	1.202264e+06	3.492960e+00,	-2.11097e-03	
309	1.230269e+06	3.492960e+00,	-2.16014e-03	
310	1.258925e+06	3.492960e+00,	-2.21046e-03	
311	1.288250e+06	3.492960e+00,	-2.26195e-03	
312	1.318257e+06	3.492960e+00,	-2.31464e-03	
313	1.348963e+06	3.492960e+00,	-2.36855e-03	
314	1.380384e+06	3.492960e+00,	-2.42372e-03	
315	1.412538e+06	3.492960e+00,	-2.48018e-03	
316	1.445440e+06	3.492960e+00,	-2.53795e-03	
317	1.479108e+06	3.492960e+00,	-2.59707e-03	
318	1.513561e+06	3.492960e+00,	-2.65756e-03	
319	1.548817e+06	3.492960e+00,	-2.71946e-03	
320	1.584893e+06	3.492960e+00,	-2.78281e-03	
321	1.621810e+06	3.492960e+00,	-2.84763e-03	
322	1.659587e+06	3.492960e+00,	-2.91396e-03	
323	1.698244e+06	3.492960e+00,	-2.98184e-03	
324	1.737801e+06	3.492960e+00,	-3.05130e-03	
325	1.778279e+06	3.492960e+00,	-3.12237e-03	
326	1.819701e+06	3.492960e+00,	-3.19510e-03	
327	1.862087e+06	3.492960e+00,	-3.26953e-03	
328	1.905461e+06	3.492960e+00,	-3.34569e-03	
329	1.949845e+06	3.492960e+00,	-3.42362e-03	
330	1.995262e+06	3.492960e+00,	-3.50337e-03	
331	2.041738e+06	3.492960e+00,	-3.58497e-03	
332	2.089296e+06	3.492960e+00,	-3.66848e-03	
333	2.137962e+06	3.492960e+00,	-3.75393e-03	
334	2.187762e+06	3.492960e+00,	-3.84137e-03	
335	2.238721e+06	3.492960e+00,	-3.93085e-03	
336	2.290868e+06	3.492960e+00,	-4.02242e-03	
337	2.344229e+06	3.492960e+00,	-4.11612e-03	
338	2.398833e+06	3.492960e+00,	-4.21200e-03	
339	2.454709e+06	3.492960e+00,	-4.31011e-03	
340	2.511886e+06	3.492960e+00,	-4.41051e-03	
341	2.570396e+06	3.492960e+00,	-4.51325e-03	
342	2.630268e+06	3.492960e+00,	-4.61838e-03	
343	2.691535e+06	3.492960e+00,	-4.72596e-03	
344	2.754229e+06	3.492960e+00,	-4.83604e-03	

Index   frequency       vop                             
--------------------------------------------------------------------------------
345	2.818383e+06	3.492960e+00,	-4.94870e-03	
346	2.884032e+06	3.492960e+00,	-5.06397e-03	
347	2.951209e+06	3.492960e+00,	-5.18193e-03	
348	3.019952e+06	3.492959e+00,	-5.30264e-03	
349	3.090295e+06	3.492959e+00,	-5.42616e-03	
350	3.162278e+06	3.492959e+00,	-5.55256e-03	
351	3.235937e+06	3.492959e+00,	-5.68191e-03	
352	3.311311e+06	3.492959e+00,	-5.81427e-03	
353	3.388442e+06	3.492959e+00,	-5.94971e-03	
354	3.467369e+06	3.492959e+00,	-6.08830e-03	
355	3.548134e+06	3.492959e+00,	-6.23013e-03	
356	3.630781e+06	3.492959e+00,	-6.37526e-03	
357	3.715352e+06	3.492959e+00,	-6.52377e-03	
358	3.801894e+06	3.492959e+00,	-6.67574e-03	
359	3.890451e+06	3.492959e+00,	-6.83125e-03	
360	3.981072e+06	3.492959e+00,	-6.99039e-03	
361	4.073803e+06	3.492959e+00,	-7.15323e-03	
362	4.168694e+06	3.492958e+00,	-7.31987e-03	
363	4.265795e+06	3.492958e+00,	-7.49039e-03	
364	4.365158e+06	3.492958e+00,	-7.66488e-03	
365	4.466836e+06	3.492958e+00,	-7.84344e-03	
366	4.570882e+06	3.492958e+00,	-8.02616e-03	
367	4.677351e+06	3.492958e+00,	-8.21314e-03	
368	4.786301e+06	3.492958e+00,	-8.40448e-03	
369	4.897788e+06	3.492958e+00,	-8.60027e-03	
370	5.011872e+06	3.492958e+00,	-8.80063e-03	
371	5.128614e+06	3.492957e+00,	-9.00565e-03	
372	5.248075e+06	3.492957e+00,	-9.21545e-03	
373	5.370318e+06	3.492957e+00,	-9.43015e-03	
374	5.495409e+06	3.492957e+00,	-9.64984e-03	
375	5.623413e+06	3.492957e+00,	-9.87466e-03	
376	5.754399e+06	3.492957e+00,	-1.01047e-02	
377	5.888437e+06	3.492956e+00,	-1.03401e-02	
378	6.025596e+06	3.492956e+00,	-1.05810e-02	
379	6.165950e+06	3.492956e+00,	-1.08276e-02	
380	6.309573e+06	3.492956e+00,	-1.10798e-02	
381	6.456542e+06	3.492956e+00,	-1.13380e-02	
382	6.606934e+06	3.492955e+00,	-1.16021e-02	
383	6.760830e+06	3.492955e+00,	-1.18725e-02	
384	6.918310e+06	3.492955e+00,	-1.21491e-02	
385	7.079458e+06	3.492954e+00,	-1.24322e-02	
386	7.244360e+06	3.492954e+00,	-1.27218e-02	
387	7.413102e+06	3.492954e+00,	-1.30183e-02	
388	7.585776e+06	3.492954e+00,	-1.33216e-02	
389	7.762471e+06	3.492953e+00,	-1.36320e-02	
390	7.943282e+06	3.492953e+00,	-1.39497e-02	
391	8.128305e+06	3.492952e+00,	-1.42747e-02	
392	8.317638e+06	3.492952e+00,	-1.46073e-02	
393	8.511380e+06	3.492952e+00,	-1.49477e-02	
394	8.709636e+06	3.492951e+00,	-1.52961e-02	
395	8.912509e+06	3.492951e+00,	-1.56525e-02	
396	9.120108e+06	3.492950e+00,	-1.60173e-02	
397	9.332543e+06	3.492950e+00,	-1.63906e-02	
398	9.549926e+06	3.492949e+00,	-1.67726e-02	
399	9.772372e+06	3.492949e+00,	-1.71635e-02	
400	1.000000e+07	3.492948e+00,	-1.75635e-02	
401	1.023293e+07	3.492947e+00,	-1.79729e-02	
402	1.047129e+07	3.492947e+00,	-1.83918e-02	

Index   frequency       vop                             
--------------------------------------------------------------------------------
403	1.071519e+07	3.492946e+00,	-1.88204e-02	
404	1.096478e+07	3.492945e+00,	-1.92591e-02	
405	1.122018e+07	3.492944e+00,	-1.97081e-02	
406	1.148154e+07	3.492944e+00,	-2.01675e-02	
407	1.174898e+07	3.492943e+00,	-2.06376e-02	
408	1.202264e+07	3.492942e+00,	-2.11187e-02	
409	1.230269e+07	3.492941e+00,	-2.16111e-02	
410	1.258925e+07	3.492940e+00,	-2.21149e-02	
411	1.288250e+07	3.492939e+00,	-2.26305e-02	
412	1.318257e+07	3.492938e+00,	-2.31582e-02	
413	1.348963e+07	3.492937e+00,	-2.36981e-02	
414	1.380384e+07	3.492935e+00,	-2.42507e-02	
415	1.412538e+07	3.492934e+00,	-2.48162e-02	
416	1.445440e+07	3.492933e+00,	-2.53950e-02	
