** sch_path: /home/andylithia/openmpw/project-reisen-chip1/xschem/ota_wideband.sch
AC Analysis  Sun Oct 30 17:11:03  2022
--------------------------------------------------------------------------------
Index   frequency       vop                             
--------------------------------------------------------------------------------
0	1.000000e+03	3.374881e+00,	-1.39459e-06	
1	1.023293e+03	3.374881e+00,	-1.42707e-06	
2	1.047129e+03	3.374881e+00,	-1.46031e-06	
3	1.071519e+03	3.374881e+00,	-1.49432e-06	
4	1.096478e+03	3.374881e+00,	-1.52913e-06	
5	1.122018e+03	3.374881e+00,	-1.56475e-06	
6	1.148154e+03	3.374881e+00,	-1.60120e-06	
7	1.174898e+03	3.374881e+00,	-1.63849e-06	
8	1.202264e+03	3.374881e+00,	-1.67666e-06	
9	1.230269e+03	3.374881e+00,	-1.71571e-06	
10	1.258925e+03	3.374881e+00,	-1.75568e-06	
11	1.288250e+03	3.374881e+00,	-1.79657e-06	
12	1.318257e+03	3.374881e+00,	-1.83842e-06	
13	1.348963e+03	3.374881e+00,	-1.88124e-06	
14	1.380384e+03	3.374881e+00,	-1.92506e-06	
15	1.412538e+03	3.374881e+00,	-1.96990e-06	
16	1.445440e+03	3.374881e+00,	-2.01579e-06	
17	1.479108e+03	3.374881e+00,	-2.06274e-06	
18	1.513561e+03	3.374881e+00,	-2.11079e-06	
19	1.548817e+03	3.374881e+00,	-2.15996e-06	
20	1.584893e+03	3.374881e+00,	-2.21027e-06	
21	1.621810e+03	3.374881e+00,	-2.26175e-06	
22	1.659587e+03	3.374881e+00,	-2.31444e-06	
23	1.698244e+03	3.374881e+00,	-2.36835e-06	
24	1.737801e+03	3.374881e+00,	-2.42351e-06	
25	1.778279e+03	3.374881e+00,	-2.47996e-06	
26	1.819701e+03	3.374881e+00,	-2.53773e-06	
27	1.862087e+03	3.374881e+00,	-2.59684e-06	
28	1.905461e+03	3.374881e+00,	-2.65733e-06	
29	1.949845e+03	3.374881e+00,	-2.71922e-06	
30	1.995262e+03	3.374881e+00,	-2.78256e-06	
31	2.041738e+03	3.374881e+00,	-2.84738e-06	
32	2.089296e+03	3.374881e+00,	-2.91370e-06	
33	2.137962e+03	3.374881e+00,	-2.98157e-06	
34	2.187762e+03	3.374881e+00,	-3.05102e-06	
35	2.238721e+03	3.374881e+00,	-3.12209e-06	
36	2.290868e+03	3.374881e+00,	-3.19481e-06	
37	2.344229e+03	3.374881e+00,	-3.26923e-06	
38	2.398833e+03	3.374881e+00,	-3.34538e-06	
39	2.454709e+03	3.374881e+00,	-3.42330e-06	
40	2.511886e+03	3.374881e+00,	-3.50304e-06	
41	2.570396e+03	3.374881e+00,	-3.58464e-06	
42	2.630268e+03	3.374881e+00,	-3.66813e-06	
43	2.691535e+03	3.374881e+00,	-3.75357e-06	
44	2.754229e+03	3.374881e+00,	-3.84101e-06	
45	2.818383e+03	3.374881e+00,	-3.93047e-06	
46	2.884032e+03	3.374881e+00,	-4.02203e-06	
47	2.951209e+03	3.374881e+00,	-4.11571e-06	
48	3.019952e+03	3.374881e+00,	-4.21158e-06	
49	3.090295e+03	3.374881e+00,	-4.30968e-06	
50	3.162278e+03	3.374881e+00,	-4.41007e-06	
51	3.235937e+03	3.374881e+00,	-4.51279e-06	
52	3.311311e+03	3.374881e+00,	-4.61791e-06	
53	3.388442e+03	3.374881e+00,	-4.72547e-06	
54	3.467369e+03	3.374881e+00,	-4.83554e-06	

Index   frequency       vop                             
--------------------------------------------------------------------------------
55	3.548134e+03	3.374881e+00,	-4.94817e-06	
56	3.630781e+03	3.374881e+00,	-5.06343e-06	
57	3.715352e+03	3.374881e+00,	-5.18138e-06	
58	3.801894e+03	3.374881e+00,	-5.30206e-06	
59	3.890451e+03	3.374881e+00,	-5.42557e-06	
60	3.981072e+03	3.374881e+00,	-5.55194e-06	
61	4.073803e+03	3.374881e+00,	-5.68126e-06	
62	4.168694e+03	3.374881e+00,	-5.81360e-06	
63	4.265795e+03	3.374881e+00,	-5.94901e-06	
64	4.365158e+03	3.374881e+00,	-6.08758e-06	
65	4.466836e+03	3.374881e+00,	-6.22938e-06	
66	4.570882e+03	3.374881e+00,	-6.37448e-06	
67	4.677351e+03	3.374881e+00,	-6.52296e-06	
68	4.786301e+03	3.374881e+00,	-6.67490e-06	
69	4.897788e+03	3.374881e+00,	-6.83038e-06	
70	5.011872e+03	3.374881e+00,	-6.98948e-06	
71	5.128614e+03	3.374881e+00,	-7.15229e-06	
72	5.248075e+03	3.374881e+00,	-7.31889e-06	
73	5.370318e+03	3.374881e+00,	-7.48937e-06	
74	5.495409e+03	3.374881e+00,	-7.66382e-06	
75	5.623413e+03	3.374881e+00,	-7.84233e-06	
76	5.754399e+03	3.374881e+00,	-8.02500e-06	
77	5.888437e+03	3.374881e+00,	-8.21193e-06	
78	6.025596e+03	3.374881e+00,	-8.40321e-06	
79	6.165950e+03	3.374881e+00,	-8.59894e-06	
80	6.309573e+03	3.374881e+00,	-8.79924e-06	
81	6.456542e+03	3.374881e+00,	-9.00420e-06	
82	6.606934e+03	3.374881e+00,	-9.21393e-06	
83	6.760830e+03	3.374881e+00,	-9.42855e-06	
84	6.918310e+03	3.374881e+00,	-9.64817e-06	
85	7.079458e+03	3.374881e+00,	-9.87291e-06	
86	7.244360e+03	3.374881e+00,	-1.01029e-05	
87	7.413102e+03	3.374881e+00,	-1.03382e-05	
88	7.585776e+03	3.374881e+00,	-1.05790e-05	
89	7.762471e+03	3.374881e+00,	-1.08254e-05	
90	7.943282e+03	3.374881e+00,	-1.10776e-05	
91	8.128305e+03	3.374881e+00,	-1.13356e-05	
92	8.317638e+03	3.374881e+00,	-1.15997e-05	
93	8.511380e+03	3.374881e+00,	-1.18698e-05	
94	8.709636e+03	3.374881e+00,	-1.21463e-05	
95	8.912509e+03	3.374881e+00,	-1.24293e-05	
96	9.120108e+03	3.374881e+00,	-1.27188e-05	
97	9.332543e+03	3.374881e+00,	-1.30150e-05	
98	9.549926e+03	3.374881e+00,	-1.33182e-05	
99	9.772372e+03	3.374881e+00,	-1.36284e-05	
100	1.000000e+04	3.374881e+00,	-1.39459e-05	
101	1.023293e+04	3.374881e+00,	-1.42707e-05	
102	1.047129e+04	3.374881e+00,	-1.46031e-05	
103	1.071519e+04	3.374881e+00,	-1.49432e-05	
104	1.096478e+04	3.374881e+00,	-1.52913e-05	
105	1.122018e+04	3.374881e+00,	-1.56475e-05	
106	1.148154e+04	3.374881e+00,	-1.60120e-05	
107	1.174898e+04	3.374881e+00,	-1.63849e-05	
108	1.202264e+04	3.374881e+00,	-1.67666e-05	
109	1.230269e+04	3.374881e+00,	-1.71571e-05	
110	1.258925e+04	3.374881e+00,	-1.75568e-05	
111	1.288250e+04	3.374881e+00,	-1.79657e-05	
112	1.318257e+04	3.374881e+00,	-1.83842e-05	

Index   frequency       vop                             
--------------------------------------------------------------------------------
113	1.348963e+04	3.374881e+00,	-1.88124e-05	
114	1.380384e+04	3.374881e+00,	-1.92506e-05	
115	1.412538e+04	3.374881e+00,	-1.96990e-05	
116	1.445440e+04	3.374881e+00,	-2.01579e-05	
117	1.479108e+04	3.374881e+00,	-2.06274e-05	
118	1.513561e+04	3.374881e+00,	-2.11079e-05	
119	1.548817e+04	3.374881e+00,	-2.15996e-05	
120	1.584893e+04	3.374881e+00,	-2.21027e-05	
121	1.621810e+04	3.374881e+00,	-2.26175e-05	
122	1.659587e+04	3.374881e+00,	-2.31444e-05	
123	1.698244e+04	3.374881e+00,	-2.36835e-05	
124	1.737801e+04	3.374881e+00,	-2.42351e-05	
125	1.778279e+04	3.374881e+00,	-2.47996e-05	
126	1.819701e+04	3.374881e+00,	-2.53773e-05	
127	1.862087e+04	3.374881e+00,	-2.59684e-05	
128	1.905461e+04	3.374881e+00,	-2.65733e-05	
129	1.949845e+04	3.374881e+00,	-2.71922e-05	
130	1.995262e+04	3.374881e+00,	-2.78256e-05	
131	2.041738e+04	3.374881e+00,	-2.84738e-05	
132	2.089296e+04	3.374881e+00,	-2.91370e-05	
133	2.137962e+04	3.374881e+00,	-2.98157e-05	
134	2.187762e+04	3.374881e+00,	-3.05102e-05	
135	2.238721e+04	3.374881e+00,	-3.12209e-05	
136	2.290868e+04	3.374881e+00,	-3.19481e-05	
137	2.344229e+04	3.374881e+00,	-3.26923e-05	
138	2.398833e+04	3.374881e+00,	-3.34538e-05	
139	2.454709e+04	3.374881e+00,	-3.42330e-05	
140	2.511886e+04	3.374881e+00,	-3.50304e-05	
141	2.570396e+04	3.374881e+00,	-3.58464e-05	
142	2.630268e+04	3.374881e+00,	-3.66813e-05	
143	2.691535e+04	3.374881e+00,	-3.75357e-05	
144	2.754229e+04	3.374881e+00,	-3.84101e-05	
145	2.818383e+04	3.374881e+00,	-3.93047e-05	
146	2.884032e+04	3.374881e+00,	-4.02203e-05	
147	2.951209e+04	3.374881e+00,	-4.11571e-05	
148	3.019952e+04	3.374881e+00,	-4.21158e-05	
149	3.090295e+04	3.374881e+00,	-4.30968e-05	
150	3.162278e+04	3.374881e+00,	-4.41007e-05	
151	3.235937e+04	3.374881e+00,	-4.51279e-05	
152	3.311311e+04	3.374881e+00,	-4.61791e-05	
153	3.388442e+04	3.374881e+00,	-4.72547e-05	
154	3.467369e+04	3.374881e+00,	-4.83554e-05	
155	3.548134e+04	3.374881e+00,	-4.94817e-05	
156	3.630781e+04	3.374881e+00,	-5.06343e-05	
157	3.715352e+04	3.374881e+00,	-5.18138e-05	
158	3.801894e+04	3.374881e+00,	-5.30206e-05	
159	3.890451e+04	3.374881e+00,	-5.42557e-05	
160	3.981072e+04	3.374881e+00,	-5.55194e-05	
161	4.073803e+04	3.374881e+00,	-5.68126e-05	
162	4.168694e+04	3.374881e+00,	-5.81360e-05	
163	4.265795e+04	3.374881e+00,	-5.94901e-05	
164	4.365158e+04	3.374881e+00,	-6.08758e-05	
165	4.466836e+04	3.374881e+00,	-6.22938e-05	
166	4.570882e+04	3.374881e+00,	-6.37448e-05	
167	4.677351e+04	3.374881e+00,	-6.52296e-05	
168	4.786301e+04	3.374881e+00,	-6.67490e-05	
169	4.897788e+04	3.374881e+00,	-6.83038e-05	
170	5.011872e+04	3.374881e+00,	-6.98948e-05	

Index   frequency       vop                             
--------------------------------------------------------------------------------
171	5.128614e+04	3.374881e+00,	-7.15229e-05	
172	5.248075e+04	3.374881e+00,	-7.31889e-05	
173	5.370318e+04	3.374881e+00,	-7.48937e-05	
174	5.495409e+04	3.374881e+00,	-7.66382e-05	
175	5.623413e+04	3.374881e+00,	-7.84233e-05	
176	5.754399e+04	3.374881e+00,	-8.02500e-05	
177	5.888437e+04	3.374881e+00,	-8.21193e-05	
178	6.025596e+04	3.374881e+00,	-8.40321e-05	
179	6.165950e+04	3.374881e+00,	-8.59894e-05	
180	6.309573e+04	3.374881e+00,	-8.79924e-05	
181	6.456542e+04	3.374881e+00,	-9.00420e-05	
182	6.606934e+04	3.374881e+00,	-9.21393e-05	
183	6.760830e+04	3.374881e+00,	-9.42855e-05	
184	6.918310e+04	3.374881e+00,	-9.64817e-05	
185	7.079458e+04	3.374881e+00,	-9.87291e-05	
186	7.244360e+04	3.374881e+00,	-1.01029e-04	
187	7.413102e+04	3.374881e+00,	-1.03382e-04	
188	7.585776e+04	3.374881e+00,	-1.05790e-04	
189	7.762471e+04	3.374881e+00,	-1.08254e-04	
190	7.943282e+04	3.374881e+00,	-1.10776e-04	
191	8.128305e+04	3.374881e+00,	-1.13356e-04	
192	8.317638e+04	3.374881e+00,	-1.15997e-04	
193	8.511380e+04	3.374881e+00,	-1.18698e-04	
194	8.709636e+04	3.374881e+00,	-1.21463e-04	
195	8.912509e+04	3.374881e+00,	-1.24293e-04	
196	9.120108e+04	3.374881e+00,	-1.27188e-04	
197	9.332543e+04	3.374881e+00,	-1.30150e-04	
198	9.549926e+04	3.374881e+00,	-1.33182e-04	
199	9.772372e+04	3.374881e+00,	-1.36284e-04	
200	1.000000e+05	3.374881e+00,	-1.39459e-04	
201	1.023293e+05	3.374881e+00,	-1.42707e-04	
202	1.047129e+05	3.374881e+00,	-1.46031e-04	
203	1.071519e+05	3.374881e+00,	-1.49432e-04	
204	1.096478e+05	3.374881e+00,	-1.52913e-04	
205	1.122018e+05	3.374881e+00,	-1.56475e-04	
206	1.148154e+05	3.374881e+00,	-1.60120e-04	
207	1.174898e+05	3.374881e+00,	-1.63849e-04	
208	1.202264e+05	3.374881e+00,	-1.67666e-04	
209	1.230269e+05	3.374881e+00,	-1.71571e-04	
210	1.258925e+05	3.374881e+00,	-1.75568e-04	
211	1.288250e+05	3.374881e+00,	-1.79657e-04	
212	1.318257e+05	3.374881e+00,	-1.83842e-04	
213	1.348963e+05	3.374881e+00,	-1.88124e-04	
214	1.380384e+05	3.374881e+00,	-1.92506e-04	
215	1.412538e+05	3.374881e+00,	-1.96990e-04	
216	1.445440e+05	3.374881e+00,	-2.01579e-04	
217	1.479108e+05	3.374881e+00,	-2.06274e-04	
218	1.513561e+05	3.374881e+00,	-2.11079e-04	
219	1.548817e+05	3.374881e+00,	-2.15996e-04	
220	1.584893e+05	3.374881e+00,	-2.21027e-04	
221	1.621810e+05	3.374881e+00,	-2.26175e-04	
222	1.659587e+05	3.374881e+00,	-2.31444e-04	
223	1.698244e+05	3.374881e+00,	-2.36835e-04	
224	1.737801e+05	3.374881e+00,	-2.42351e-04	
225	1.778279e+05	3.374881e+00,	-2.47996e-04	
226	1.819701e+05	3.374881e+00,	-2.53773e-04	
227	1.862087e+05	3.374881e+00,	-2.59684e-04	
228	1.905461e+05	3.374881e+00,	-2.65733e-04	

Index   frequency       vop                             
--------------------------------------------------------------------------------
229	1.949845e+05	3.374881e+00,	-2.71922e-04	
230	1.995262e+05	3.374881e+00,	-2.78256e-04	
231	2.041738e+05	3.374881e+00,	-2.84738e-04	
232	2.089296e+05	3.374881e+00,	-2.91370e-04	
233	2.137962e+05	3.374881e+00,	-2.98157e-04	
234	2.187762e+05	3.374881e+00,	-3.05102e-04	
235	2.238721e+05	3.374881e+00,	-3.12209e-04	
236	2.290868e+05	3.374881e+00,	-3.19481e-04	
237	2.344229e+05	3.374881e+00,	-3.26923e-04	
238	2.398833e+05	3.374881e+00,	-3.34538e-04	
239	2.454709e+05	3.374881e+00,	-3.42330e-04	
240	2.511886e+05	3.374881e+00,	-3.50304e-04	
241	2.570396e+05	3.374881e+00,	-3.58463e-04	
242	2.630268e+05	3.374881e+00,	-3.66813e-04	
243	2.691535e+05	3.374881e+00,	-3.75357e-04	
244	2.754229e+05	3.374881e+00,	-3.84101e-04	
245	2.818383e+05	3.374881e+00,	-3.93047e-04	
246	2.884032e+05	3.374881e+00,	-4.02203e-04	
247	2.951209e+05	3.374881e+00,	-4.11571e-04	
248	3.019952e+05	3.374881e+00,	-4.21158e-04	
249	3.090295e+05	3.374881e+00,	-4.30968e-04	
250	3.162278e+05	3.374881e+00,	-4.41006e-04	
251	3.235937e+05	3.374881e+00,	-4.51279e-04	
252	3.311311e+05	3.374881e+00,	-4.61790e-04	
253	3.388442e+05	3.374881e+00,	-4.72547e-04	
254	3.467369e+05	3.374881e+00,	-4.83554e-04	
255	3.548134e+05	3.374881e+00,	-4.94817e-04	
256	3.630781e+05	3.374881e+00,	-5.06343e-04	
257	3.715352e+05	3.374881e+00,	-5.18137e-04	
258	3.801894e+05	3.374881e+00,	-5.30206e-04	
259	3.890451e+05	3.374881e+00,	-5.42556e-04	
260	3.981072e+05	3.374881e+00,	-5.55194e-04	
261	4.073803e+05	3.374881e+00,	-5.68126e-04	
262	4.168694e+05	3.374881e+00,	-5.81360e-04	
263	4.265795e+05	3.374881e+00,	-5.94901e-04	
264	4.365158e+05	3.374881e+00,	-6.08758e-04	
265	4.466836e+05	3.374881e+00,	-6.22938e-04	
266	4.570882e+05	3.374881e+00,	-6.37448e-04	
267	4.677351e+05	3.374881e+00,	-6.52296e-04	
268	4.786301e+05	3.374881e+00,	-6.67490e-04	
269	4.897788e+05	3.374881e+00,	-6.83038e-04	
270	5.011872e+05	3.374881e+00,	-6.98948e-04	
271	5.128614e+05	3.374881e+00,	-7.15228e-04	
272	5.248075e+05	3.374881e+00,	-7.31888e-04	
273	5.370318e+05	3.374881e+00,	-7.48936e-04	
274	5.495409e+05	3.374881e+00,	-7.66381e-04	
275	5.623413e+05	3.374881e+00,	-7.84232e-04	
276	5.754399e+05	3.374881e+00,	-8.02499e-04	
277	5.888437e+05	3.374881e+00,	-8.21192e-04	
278	6.025596e+05	3.374881e+00,	-8.40320e-04	
279	6.165950e+05	3.374881e+00,	-8.59893e-04	
280	6.309573e+05	3.374881e+00,	-8.79923e-04	
281	6.456542e+05	3.374881e+00,	-9.00419e-04	
282	6.606934e+05	3.374881e+00,	-9.21392e-04	
283	6.760830e+05	3.374881e+00,	-9.42854e-04	
284	6.918310e+05	3.374881e+00,	-9.64816e-04	
285	7.079458e+05	3.374881e+00,	-9.87289e-04	
286	7.244360e+05	3.374881e+00,	-1.01029e-03	

Index   frequency       vop                             
--------------------------------------------------------------------------------
287	7.413102e+05	3.374881e+00,	-1.03382e-03	
288	7.585776e+05	3.374881e+00,	-1.05790e-03	
289	7.762471e+05	3.374881e+00,	-1.08254e-03	
290	7.943282e+05	3.374881e+00,	-1.10776e-03	
291	8.128305e+05	3.374881e+00,	-1.13356e-03	
292	8.317638e+05	3.374881e+00,	-1.15996e-03	
293	8.511380e+05	3.374881e+00,	-1.18698e-03	
294	8.709636e+05	3.374881e+00,	-1.21463e-03	
295	8.912509e+05	3.374881e+00,	-1.24292e-03	
296	9.120108e+05	3.374881e+00,	-1.27187e-03	
297	9.332543e+05	3.374881e+00,	-1.30150e-03	
298	9.549926e+05	3.374881e+00,	-1.33181e-03	
299	9.772372e+05	3.374881e+00,	-1.36284e-03	
300	1.000000e+06	3.374881e+00,	-1.39458e-03	
301	1.023293e+06	3.374881e+00,	-1.42706e-03	
302	1.047129e+06	3.374881e+00,	-1.46030e-03	
303	1.071519e+06	3.374881e+00,	-1.49432e-03	
304	1.096478e+06	3.374881e+00,	-1.52913e-03	
305	1.122018e+06	3.374881e+00,	-1.56474e-03	
306	1.148154e+06	3.374881e+00,	-1.60119e-03	
307	1.174898e+06	3.374881e+00,	-1.63849e-03	
308	1.202264e+06	3.374881e+00,	-1.67665e-03	
309	1.230269e+06	3.374881e+00,	-1.71571e-03	
310	1.258925e+06	3.374881e+00,	-1.75567e-03	
311	1.288250e+06	3.374881e+00,	-1.79656e-03	
312	1.318257e+06	3.374881e+00,	-1.83841e-03	
313	1.348963e+06	3.374881e+00,	-1.88123e-03	
314	1.380384e+06	3.374881e+00,	-1.92505e-03	
315	1.412538e+06	3.374881e+00,	-1.96989e-03	
316	1.445440e+06	3.374881e+00,	-2.01578e-03	
317	1.479108e+06	3.374881e+00,	-2.06273e-03	
318	1.513561e+06	3.374881e+00,	-2.11077e-03	
319	1.548817e+06	3.374881e+00,	-2.15994e-03	
320	1.584893e+06	3.374881e+00,	-2.21025e-03	
321	1.621810e+06	3.374881e+00,	-2.26173e-03	
322	1.659587e+06	3.374881e+00,	-2.31441e-03	
323	1.698244e+06	3.374881e+00,	-2.36832e-03	
324	1.737801e+06	3.374881e+00,	-2.42349e-03	
325	1.778279e+06	3.374881e+00,	-2.47994e-03	
326	1.819701e+06	3.374881e+00,	-2.53770e-03	
327	1.862087e+06	3.374881e+00,	-2.59681e-03	
328	1.905461e+06	3.374881e+00,	-2.65730e-03	
329	1.949845e+06	3.374881e+00,	-2.71919e-03	
330	1.995262e+06	3.374881e+00,	-2.78253e-03	
331	2.041738e+06	3.374881e+00,	-2.84734e-03	
332	2.089296e+06	3.374881e+00,	-2.91366e-03	
333	2.137962e+06	3.374881e+00,	-2.98153e-03	
334	2.187762e+06	3.374881e+00,	-3.05097e-03	
335	2.238721e+06	3.374881e+00,	-3.12204e-03	
336	2.290868e+06	3.374881e+00,	-3.19476e-03	
337	2.344229e+06	3.374881e+00,	-3.26917e-03	
338	2.398833e+06	3.374881e+00,	-3.34532e-03	
339	2.454709e+06	3.374881e+00,	-3.42323e-03	
340	2.511886e+06	3.374882e+00,	-3.50297e-03	
341	2.570396e+06	3.374882e+00,	-3.58456e-03	
342	2.630268e+06	3.374882e+00,	-3.66805e-03	
343	2.691535e+06	3.374882e+00,	-3.75349e-03	
344	2.754229e+06	3.374882e+00,	-3.84091e-03	

Index   frequency       vop                             
--------------------------------------------------------------------------------
345	2.818383e+06	3.374882e+00,	-3.93038e-03	
346	2.884032e+06	3.374882e+00,	-4.02192e-03	
347	2.951209e+06	3.374882e+00,	-4.11560e-03	
348	3.019952e+06	3.374882e+00,	-4.21146e-03	
349	3.090295e+06	3.374882e+00,	-4.30955e-03	
350	3.162278e+06	3.374882e+00,	-4.40992e-03	
351	3.235937e+06	3.374882e+00,	-4.51264e-03	
352	3.311311e+06	3.374882e+00,	-4.61774e-03	
353	3.388442e+06	3.374882e+00,	-4.72530e-03	
354	3.467369e+06	3.374882e+00,	-4.83536e-03	
355	3.548134e+06	3.374882e+00,	-4.94798e-03	
356	3.630781e+06	3.374882e+00,	-5.06322e-03	
357	3.715352e+06	3.374882e+00,	-5.18115e-03	
358	3.801894e+06	3.374882e+00,	-5.30182e-03	
359	3.890451e+06	3.374882e+00,	-5.42530e-03	
360	3.981072e+06	3.374882e+00,	-5.55166e-03	
361	4.073803e+06	3.374882e+00,	-5.68096e-03	
362	4.168694e+06	3.374883e+00,	-5.81328e-03	
363	4.265795e+06	3.374883e+00,	-5.94867e-03	
364	4.365158e+06	3.374883e+00,	-6.08722e-03	
365	4.466836e+06	3.374883e+00,	-6.22899e-03	
366	4.570882e+06	3.374883e+00,	-6.37406e-03	
367	4.677351e+06	3.374883e+00,	-6.52251e-03	
368	4.786301e+06	3.374883e+00,	-6.67442e-03	
369	4.897788e+06	3.374883e+00,	-6.82986e-03	
370	5.011872e+06	3.374883e+00,	-6.98893e-03	
371	5.128614e+06	3.374883e+00,	-7.15169e-03	
372	5.248075e+06	3.374883e+00,	-7.31825e-03	
373	5.370318e+06	3.374884e+00,	-7.48868e-03	
374	5.495409e+06	3.374884e+00,	-7.66308e-03	
375	5.623413e+06	3.374884e+00,	-7.84154e-03	
376	5.754399e+06	3.374884e+00,	-8.02416e-03	
377	5.888437e+06	3.374884e+00,	-8.21102e-03	
378	6.025596e+06	3.374884e+00,	-8.40224e-03	
379	6.165950e+06	3.374884e+00,	-8.59791e-03	
380	6.309573e+06	3.374885e+00,	-8.79813e-03	
381	6.456542e+06	3.374885e+00,	-9.00301e-03	
382	6.606934e+06	3.374885e+00,	-9.21266e-03	
383	6.760830e+06	3.374885e+00,	-9.42719e-03	
384	6.918310e+06	3.374885e+00,	-9.64672e-03	
385	7.079458e+06	3.374886e+00,	-9.87135e-03	
386	7.244360e+06	3.374886e+00,	-1.01012e-02	
387	7.413102e+06	3.374886e+00,	-1.03364e-02	
388	7.585776e+06	3.374886e+00,	-1.05771e-02	
389	7.762471e+06	3.374887e+00,	-1.08234e-02	
390	7.943282e+06	3.374887e+00,	-1.10754e-02	
391	8.128305e+06	3.374887e+00,	-1.13333e-02	
392	8.317638e+06	3.374888e+00,	-1.15971e-02	
393	8.511380e+06	3.374888e+00,	-1.18672e-02	
394	8.709636e+06	3.374888e+00,	-1.21435e-02	
395	8.912509e+06	3.374889e+00,	-1.24262e-02	
396	9.120108e+06	3.374889e+00,	-1.27155e-02	
397	9.332543e+06	3.374889e+00,	-1.30115e-02	
398	9.549926e+06	3.374890e+00,	-1.33144e-02	
399	9.772372e+06	3.374890e+00,	-1.36244e-02	
400	1.000000e+07	3.374891e+00,	-1.39415e-02	
401	1.023293e+07	3.374891e+00,	-1.42661e-02	
402	1.047129e+07	3.374892e+00,	-1.45982e-02	

Index   frequency       vop                             
--------------------------------------------------------------------------------
403	1.071519e+07	3.374892e+00,	-1.49380e-02	
404	1.096478e+07	3.374893e+00,	-1.52857e-02	
405	1.122018e+07	3.374894e+00,	-1.56415e-02	
406	1.148154e+07	3.374894e+00,	-1.60055e-02	
407	1.174898e+07	3.374895e+00,	-1.63780e-02	
408	1.202264e+07	3.374896e+00,	-1.67592e-02	
409	1.230269e+07	3.374897e+00,	-1.71493e-02	
410	1.258925e+07	3.374897e+00,	-1.75484e-02	
411	1.288250e+07	3.374898e+00,	-1.79567e-02	
412	1.318257e+07	3.374899e+00,	-1.83746e-02	
413	1.348963e+07	3.374900e+00,	-1.88021e-02	
414	1.380384e+07	3.374901e+00,	-1.92396e-02	
415	1.412538e+07	3.374902e+00,	-1.96873e-02	
416	1.445440e+07	3.374904e+00,	-2.01453e-02	
