** sch_path: /home/andylithia/openmpw/project-reisen-chip1/xschem/ota_wideband.sch
AC Analysis  Sun Oct 30 17:11:03  2022
--------------------------------------------------------------------------------
Index   frequency       vop                             
--------------------------------------------------------------------------------
0	1.000000e+03	2.000700e+00,	1.112258e-05	
1	1.023293e+03	2.000700e+00,	1.138166e-05	
2	1.047129e+03	2.000700e+00,	1.164678e-05	
3	1.071519e+03	2.000700e+00,	1.191806e-05	
4	1.096478e+03	2.000700e+00,	1.219567e-05	
5	1.122018e+03	2.000700e+00,	1.247975e-05	
6	1.148154e+03	2.000700e+00,	1.277044e-05	
7	1.174898e+03	2.000700e+00,	1.306790e-05	
8	1.202264e+03	2.000700e+00,	1.337229e-05	
9	1.230269e+03	2.000700e+00,	1.368377e-05	
10	1.258925e+03	2.000700e+00,	1.400250e-05	
11	1.288250e+03	2.000700e+00,	1.432867e-05	
12	1.318257e+03	2.000700e+00,	1.466242e-05	
13	1.348963e+03	2.000700e+00,	1.500395e-05	
14	1.380384e+03	2.000700e+00,	1.535344e-05	
15	1.412538e+03	2.000700e+00,	1.571107e-05	
16	1.445440e+03	2.000700e+00,	1.607703e-05	
17	1.479108e+03	2.000700e+00,	1.645151e-05	
18	1.513561e+03	2.000700e+00,	1.683471e-05	
19	1.548817e+03	2.000700e+00,	1.722684e-05	
20	1.584893e+03	2.000700e+00,	1.762811e-05	
21	1.621810e+03	2.000700e+00,	1.803872e-05	
22	1.659587e+03	2.000700e+00,	1.845890e-05	
23	1.698244e+03	2.000700e+00,	1.888886e-05	
24	1.737801e+03	2.000700e+00,	1.932884e-05	
25	1.778279e+03	2.000700e+00,	1.977906e-05	
26	1.819701e+03	2.000700e+00,	2.023978e-05	
27	1.862087e+03	2.000700e+00,	2.071122e-05	
28	1.905461e+03	2.000700e+00,	2.119365e-05	
29	1.949845e+03	2.000700e+00,	2.168731e-05	
30	1.995262e+03	2.000700e+00,	2.219247e-05	
31	2.041738e+03	2.000700e+00,	2.270940e-05	
32	2.089296e+03	2.000700e+00,	2.323837e-05	
33	2.137962e+03	2.000700e+00,	2.377966e-05	
34	2.187762e+03	2.000700e+00,	2.433356e-05	
35	2.238721e+03	2.000700e+00,	2.490037e-05	
36	2.290868e+03	2.000700e+00,	2.548037e-05	
37	2.344229e+03	2.000700e+00,	2.607388e-05	
38	2.398833e+03	2.000700e+00,	2.668122e-05	
39	2.454709e+03	2.000700e+00,	2.730271e-05	
40	2.511886e+03	2.000700e+00,	2.793867e-05	
41	2.570396e+03	2.000700e+00,	2.858945e-05	
42	2.630268e+03	2.000700e+00,	2.925538e-05	
43	2.691535e+03	2.000700e+00,	2.993682e-05	
44	2.754229e+03	2.000700e+00,	3.063414e-05	
45	2.818383e+03	2.000700e+00,	3.134770e-05	
46	2.884032e+03	2.000700e+00,	3.207789e-05	
47	2.951209e+03	2.000700e+00,	3.282508e-05	
48	3.019952e+03	2.000700e+00,	3.358967e-05	
49	3.090295e+03	2.000700e+00,	3.437207e-05	
50	3.162278e+03	2.000700e+00,	3.517270e-05	
51	3.235937e+03	2.000700e+00,	3.599198e-05	
52	3.311311e+03	2.000700e+00,	3.683034e-05	
53	3.388442e+03	2.000700e+00,	3.768823e-05	
54	3.467369e+03	2.000700e+00,	3.856610e-05	

Index   frequency       vop                             
--------------------------------------------------------------------------------
55	3.548134e+03	2.000700e+00,	3.946442e-05	
56	3.630781e+03	2.000700e+00,	4.038367e-05	
57	3.715352e+03	2.000700e+00,	4.132432e-05	
58	3.801894e+03	2.000700e+00,	4.228689e-05	
59	3.890451e+03	2.000700e+00,	4.327188e-05	
60	3.981072e+03	2.000700e+00,	4.427981e-05	
61	4.073803e+03	2.000700e+00,	4.531122e-05	
62	4.168694e+03	2.000700e+00,	4.636665e-05	
63	4.265795e+03	2.000700e+00,	4.744667e-05	
64	4.365158e+03	2.000700e+00,	4.855184e-05	
65	4.466836e+03	2.000700e+00,	4.968276e-05	
66	4.570882e+03	2.000700e+00,	5.084002e-05	
67	4.677351e+03	2.000700e+00,	5.202424e-05	
68	4.786301e+03	2.000700e+00,	5.323604e-05	
69	4.897788e+03	2.000700e+00,	5.447607e-05	
70	5.011872e+03	2.000700e+00,	5.574498e-05	
71	5.128614e+03	2.000700e+00,	5.704344e-05	
72	5.248075e+03	2.000700e+00,	5.837216e-05	
73	5.370318e+03	2.000700e+00,	5.973182e-05	
74	5.495409e+03	2.000700e+00,	6.112315e-05	
75	5.623413e+03	2.000700e+00,	6.254689e-05	
76	5.754399e+03	2.000700e+00,	6.400380e-05	
77	5.888437e+03	2.000700e+00,	6.549464e-05	
78	6.025596e+03	2.000700e+00,	6.702020e-05	
79	6.165950e+03	2.000700e+00,	6.858130e-05	
80	6.309573e+03	2.000700e+00,	7.017877e-05	
81	6.456542e+03	2.000700e+00,	7.181344e-05	
82	6.606934e+03	2.000700e+00,	7.348619e-05	
83	6.760830e+03	2.000700e+00,	7.519790e-05	
84	6.918310e+03	2.000700e+00,	7.694949e-05	
85	7.079458e+03	2.000700e+00,	7.874187e-05	
86	7.244360e+03	2.000700e+00,	8.057600e-05	
87	7.413102e+03	2.000700e+00,	8.245286e-05	
88	7.585776e+03	2.000700e+00,	8.437344e-05	
89	7.762471e+03	2.000700e+00,	8.633874e-05	
90	7.943282e+03	2.000700e+00,	8.834983e-05	
91	8.128305e+03	2.000700e+00,	9.040776e-05	
92	8.317638e+03	2.000700e+00,	9.251363e-05	
93	8.511380e+03	2.000700e+00,	9.466855e-05	
94	8.709636e+03	2.000700e+00,	9.687366e-05	
95	8.912509e+03	2.000700e+00,	9.913014e-05	
96	9.120108e+03	2.000700e+00,	1.014392e-04	
97	9.332543e+03	2.000700e+00,	1.038020e-04	
98	9.549926e+03	2.000700e+00,	1.062199e-04	
99	9.772372e+03	2.000700e+00,	1.086940e-04	
100	1.000000e+04	2.000700e+00,	1.112258e-04	
101	1.023293e+04	2.000700e+00,	1.138166e-04	
102	1.047129e+04	2.000700e+00,	1.164678e-04	
103	1.071519e+04	2.000700e+00,	1.191806e-04	
104	1.096478e+04	2.000700e+00,	1.219567e-04	
105	1.122018e+04	2.000700e+00,	1.247975e-04	
106	1.148154e+04	2.000700e+00,	1.277044e-04	
107	1.174898e+04	2.000700e+00,	1.306790e-04	
108	1.202264e+04	2.000700e+00,	1.337229e-04	
109	1.230269e+04	2.000700e+00,	1.368377e-04	
110	1.258925e+04	2.000700e+00,	1.400250e-04	
111	1.288250e+04	2.000700e+00,	1.432866e-04	
112	1.318257e+04	2.000700e+00,	1.466242e-04	

Index   frequency       vop                             
--------------------------------------------------------------------------------
113	1.348963e+04	2.000700e+00,	1.500395e-04	
114	1.380384e+04	2.000700e+00,	1.535344e-04	
115	1.412538e+04	2.000700e+00,	1.571107e-04	
116	1.445440e+04	2.000700e+00,	1.607703e-04	
117	1.479108e+04	2.000700e+00,	1.645151e-04	
118	1.513561e+04	2.000700e+00,	1.683471e-04	
119	1.548817e+04	2.000700e+00,	1.722684e-04	
120	1.584893e+04	2.000700e+00,	1.762811e-04	
121	1.621810e+04	2.000700e+00,	1.803872e-04	
122	1.659587e+04	2.000700e+00,	1.845890e-04	
123	1.698244e+04	2.000700e+00,	1.888886e-04	
124	1.737801e+04	2.000700e+00,	1.932884e-04	
125	1.778279e+04	2.000700e+00,	1.977906e-04	
126	1.819701e+04	2.000700e+00,	2.023978e-04	
127	1.862087e+04	2.000700e+00,	2.071122e-04	
128	1.905461e+04	2.000700e+00,	2.119365e-04	
129	1.949845e+04	2.000700e+00,	2.168731e-04	
130	1.995262e+04	2.000700e+00,	2.219247e-04	
131	2.041738e+04	2.000700e+00,	2.270940e-04	
132	2.089296e+04	2.000700e+00,	2.323837e-04	
133	2.137962e+04	2.000700e+00,	2.377966e-04	
134	2.187762e+04	2.000700e+00,	2.433356e-04	
135	2.238721e+04	2.000700e+00,	2.490037e-04	
136	2.290868e+04	2.000700e+00,	2.548037e-04	
137	2.344229e+04	2.000700e+00,	2.607388e-04	
138	2.398833e+04	2.000700e+00,	2.668122e-04	
139	2.454709e+04	2.000700e+00,	2.730271e-04	
140	2.511886e+04	2.000700e+00,	2.793867e-04	
141	2.570396e+04	2.000700e+00,	2.858944e-04	
142	2.630268e+04	2.000700e+00,	2.925538e-04	
143	2.691535e+04	2.000700e+00,	2.993682e-04	
144	2.754229e+04	2.000700e+00,	3.063414e-04	
145	2.818383e+04	2.000700e+00,	3.134770e-04	
146	2.884032e+04	2.000700e+00,	3.207788e-04	
147	2.951209e+04	2.000700e+00,	3.282507e-04	
148	3.019952e+04	2.000700e+00,	3.358967e-04	
149	3.090295e+04	2.000700e+00,	3.437207e-04	
150	3.162278e+04	2.000700e+00,	3.517270e-04	
151	3.235937e+04	2.000700e+00,	3.599198e-04	
152	3.311311e+04	2.000700e+00,	3.683034e-04	
153	3.388442e+04	2.000700e+00,	3.768823e-04	
154	3.467369e+04	2.000700e+00,	3.856610e-04	
155	3.548134e+04	2.000700e+00,	3.946442e-04	
156	3.630781e+04	2.000700e+00,	4.038366e-04	
157	3.715352e+04	2.000700e+00,	4.132432e-04	
158	3.801894e+04	2.000700e+00,	4.228689e-04	
159	3.890451e+04	2.000700e+00,	4.327187e-04	
160	3.981072e+04	2.000700e+00,	4.427980e-04	
161	4.073803e+04	2.000700e+00,	4.531121e-04	
162	4.168694e+04	2.000700e+00,	4.636665e-04	
163	4.265795e+04	2.000700e+00,	4.744666e-04	
164	4.365158e+04	2.000700e+00,	4.855184e-04	
165	4.466836e+04	2.000700e+00,	4.968276e-04	
166	4.570882e+04	2.000700e+00,	5.084002e-04	
167	4.677351e+04	2.000700e+00,	5.202423e-04	
168	4.786301e+04	2.000700e+00,	5.323603e-04	
169	4.897788e+04	2.000700e+00,	5.447606e-04	
170	5.011872e+04	2.000700e+00,	5.574497e-04	

Index   frequency       vop                             
--------------------------------------------------------------------------------
171	5.128614e+04	2.000700e+00,	5.704343e-04	
172	5.248075e+04	2.000700e+00,	5.837215e-04	
173	5.370318e+04	2.000700e+00,	5.973181e-04	
174	5.495409e+04	2.000700e+00,	6.112314e-04	
175	5.623413e+04	2.000700e+00,	6.254688e-04	
176	5.754399e+04	2.000700e+00,	6.400378e-04	
177	5.888437e+04	2.000700e+00,	6.549462e-04	
178	6.025596e+04	2.000700e+00,	6.702019e-04	
179	6.165950e+04	2.000700e+00,	6.858129e-04	
180	6.309573e+04	2.000700e+00,	7.017875e-04	
181	6.456542e+04	2.000700e+00,	7.181342e-04	
182	6.606934e+04	2.000700e+00,	7.348617e-04	
183	6.760830e+04	2.000700e+00,	7.519788e-04	
184	6.918310e+04	2.000700e+00,	7.694947e-04	
185	7.079458e+04	2.000700e+00,	7.874185e-04	
186	7.244360e+04	2.000700e+00,	8.057598e-04	
187	7.413102e+04	2.000700e+00,	8.245284e-04	
188	7.585776e+04	2.000700e+00,	8.437341e-04	
189	7.762471e+04	2.000700e+00,	8.633872e-04	
190	7.943282e+04	2.000700e+00,	8.834980e-04	
191	8.128305e+04	2.000701e+00,	9.040773e-04	
192	8.317638e+04	2.000701e+00,	9.251360e-04	
193	8.511380e+04	2.000701e+00,	9.466851e-04	
194	8.709636e+04	2.000701e+00,	9.687362e-04	
195	8.912509e+04	2.000701e+00,	9.913010e-04	
196	9.120108e+04	2.000701e+00,	1.014391e-03	
197	9.332543e+04	2.000701e+00,	1.038020e-03	
198	9.549926e+04	2.000701e+00,	1.062198e-03	
199	9.772372e+04	2.000701e+00,	1.086940e-03	
200	1.000000e+05	2.000701e+00,	1.112258e-03	
201	1.023293e+05	2.000701e+00,	1.138166e-03	
202	1.047129e+05	2.000701e+00,	1.164677e-03	
203	1.071519e+05	2.000701e+00,	1.191806e-03	
204	1.096478e+05	2.000701e+00,	1.219566e-03	
205	1.122018e+05	2.000701e+00,	1.247974e-03	
206	1.148154e+05	2.000701e+00,	1.277043e-03	
207	1.174898e+05	2.000701e+00,	1.306789e-03	
208	1.202264e+05	2.000701e+00,	1.337228e-03	
209	1.230269e+05	2.000701e+00,	1.368376e-03	
210	1.258925e+05	2.000701e+00,	1.400249e-03	
211	1.288250e+05	2.000701e+00,	1.432865e-03	
212	1.318257e+05	2.000701e+00,	1.466241e-03	
213	1.348963e+05	2.000702e+00,	1.500394e-03	
214	1.380384e+05	2.000702e+00,	1.535342e-03	
215	1.412538e+05	2.000702e+00,	1.571105e-03	
216	1.445440e+05	2.000702e+00,	1.607701e-03	
217	1.479108e+05	2.000702e+00,	1.645149e-03	
218	1.513561e+05	2.000702e+00,	1.683469e-03	
219	1.548817e+05	2.000702e+00,	1.722682e-03	
220	1.584893e+05	2.000702e+00,	1.762808e-03	
221	1.621810e+05	2.000702e+00,	1.803869e-03	
222	1.659587e+05	2.000702e+00,	1.845887e-03	
223	1.698244e+05	2.000703e+00,	1.888883e-03	
224	1.737801e+05	2.000703e+00,	1.932880e-03	
225	1.778279e+05	2.000703e+00,	1.977903e-03	
226	1.819701e+05	2.000703e+00,	2.023974e-03	
227	1.862087e+05	2.000703e+00,	2.071118e-03	
228	1.905461e+05	2.000703e+00,	2.119361e-03	

Index   frequency       vop                             
--------------------------------------------------------------------------------
229	1.949845e+05	2.000703e+00,	2.168727e-03	
230	1.995262e+05	2.000704e+00,	2.219242e-03	
231	2.041738e+05	2.000704e+00,	2.270935e-03	
232	2.089296e+05	2.000704e+00,	2.323832e-03	
233	2.137962e+05	2.000704e+00,	2.377960e-03	
234	2.187762e+05	2.000704e+00,	2.433350e-03	
235	2.238721e+05	2.000705e+00,	2.490030e-03	
236	2.290868e+05	2.000705e+00,	2.548029e-03	
237	2.344229e+05	2.000705e+00,	2.607380e-03	
238	2.398833e+05	2.000705e+00,	2.668114e-03	
239	2.454709e+05	2.000705e+00,	2.730262e-03	
240	2.511886e+05	2.000706e+00,	2.793857e-03	
241	2.570396e+05	2.000706e+00,	2.858934e-03	
242	2.630268e+05	2.000706e+00,	2.925527e-03	
243	2.691535e+05	2.000707e+00,	2.993670e-03	
244	2.754229e+05	2.000707e+00,	3.063401e-03	
245	2.818383e+05	2.000707e+00,	3.134756e-03	
246	2.884032e+05	2.000708e+00,	3.207774e-03	
247	2.951209e+05	2.000708e+00,	3.282491e-03	
248	3.019952e+05	2.000708e+00,	3.358950e-03	
249	3.090295e+05	2.000709e+00,	3.437189e-03	
250	3.162278e+05	2.000709e+00,	3.517250e-03	
251	3.235937e+05	2.000710e+00,	3.599177e-03	
252	3.311311e+05	2.000710e+00,	3.683011e-03	
253	3.388442e+05	2.000710e+00,	3.768799e-03	
254	3.467369e+05	2.000711e+00,	3.856584e-03	
255	3.548134e+05	2.000711e+00,	3.946414e-03	
256	3.630781e+05	2.000712e+00,	4.038337e-03	
257	3.715352e+05	2.000713e+00,	4.132400e-03	
258	3.801894e+05	2.000713e+00,	4.228655e-03	
259	3.890451e+05	2.000714e+00,	4.327151e-03	
260	3.981072e+05	2.000714e+00,	4.427941e-03	
261	4.073803e+05	2.000715e+00,	4.531080e-03	
262	4.168694e+05	2.000716e+00,	4.636620e-03	
263	4.265795e+05	2.000717e+00,	4.744618e-03	
264	4.365158e+05	2.000717e+00,	4.855132e-03	
265	4.466836e+05	2.000718e+00,	4.968221e-03	
266	4.570882e+05	2.000719e+00,	5.083943e-03	
267	4.677351e+05	2.000720e+00,	5.202360e-03	
268	4.786301e+05	2.000721e+00,	5.323535e-03	
269	4.897788e+05	2.000722e+00,	5.447533e-03	
270	5.011872e+05	2.000723e+00,	5.574419e-03	
271	5.128614e+05	2.000724e+00,	5.704260e-03	
272	5.248075e+05	2.000725e+00,	5.837125e-03	
273	5.370318e+05	2.000726e+00,	5.973085e-03	
274	5.495409e+05	2.000728e+00,	6.112211e-03	
275	5.623413e+05	2.000729e+00,	6.254578e-03	
276	5.754399e+05	2.000730e+00,	6.400261e-03	
277	5.888437e+05	2.000732e+00,	6.549336e-03	
278	6.025596e+05	2.000733e+00,	6.701883e-03	
279	6.165950e+05	2.000735e+00,	6.857984e-03	
280	6.309573e+05	2.000736e+00,	7.017720e-03	
281	6.456542e+05	2.000738e+00,	7.181176e-03	
282	6.606934e+05	2.000740e+00,	7.348439e-03	
283	6.760830e+05	2.000742e+00,	7.519597e-03	
284	6.918310e+05	2.000744e+00,	7.694742e-03	
285	7.079458e+05	2.000746e+00,	7.873965e-03	
286	7.244360e+05	2.000748e+00,	8.057363e-03	

Index   frequency       vop                             
--------------------------------------------------------------------------------
287	7.413102e+05	2.000750e+00,	8.245032e-03	
288	7.585776e+05	2.000753e+00,	8.437071e-03	
289	7.762471e+05	2.000755e+00,	8.633582e-03	
290	7.943282e+05	2.000758e+00,	8.834670e-03	
291	8.128305e+05	2.000761e+00,	9.040441e-03	
292	8.317638e+05	2.000763e+00,	9.251004e-03	
293	8.511380e+05	2.000766e+00,	9.466470e-03	
294	8.709636e+05	2.000770e+00,	9.686954e-03	
295	8.912509e+05	2.000773e+00,	9.912572e-03	
296	9.120108e+05	2.000776e+00,	1.014344e-02	
297	9.332543e+05	2.000780e+00,	1.037969e-02	
298	9.549926e+05	2.000784e+00,	1.062144e-02	
299	9.772372e+05	2.000788e+00,	1.086882e-02	
300	1.000000e+06	2.000792e+00,	1.112196e-02	
301	1.023293e+06	2.000796e+00,	1.138099e-02	
302	1.047129e+06	2.000801e+00,	1.164606e-02	
303	1.071519e+06	2.000805e+00,	1.191730e-02	
304	1.096478e+06	2.000810e+00,	1.219485e-02	
305	1.122018e+06	2.000816e+00,	1.247886e-02	
306	1.148154e+06	2.000821e+00,	1.276949e-02	
307	1.174898e+06	2.000827e+00,	1.306688e-02	
308	1.202264e+06	2.000833e+00,	1.337120e-02	
309	1.230269e+06	2.000839e+00,	1.368261e-02	
310	1.258925e+06	2.000845e+00,	1.400126e-02	
311	1.288250e+06	2.000852e+00,	1.432733e-02	
312	1.318257e+06	2.000860e+00,	1.466099e-02	
313	1.348963e+06	2.000867e+00,	1.500242e-02	
314	1.380384e+06	2.000875e+00,	1.535180e-02	
315	1.412538e+06	2.000883e+00,	1.570931e-02	
316	1.445440e+06	2.000892e+00,	1.607514e-02	
317	1.479108e+06	2.000901e+00,	1.644949e-02	
318	1.513561e+06	2.000910e+00,	1.683255e-02	
319	1.548817e+06	2.000920e+00,	1.722452e-02	
320	1.584893e+06	2.000931e+00,	1.762562e-02	
321	1.621810e+06	2.000941e+00,	1.803606e-02	
322	1.659587e+06	2.000953e+00,	1.845604e-02	
323	1.698244e+06	2.000965e+00,	1.888580e-02	
324	1.737801e+06	2.000977e+00,	1.932556e-02	
325	1.778279e+06	2.000990e+00,	1.977555e-02	
326	1.819701e+06	2.001004e+00,	2.023601e-02	
327	1.862087e+06	2.001018e+00,	2.070719e-02	
328	1.905461e+06	2.001033e+00,	2.118933e-02	
329	1.949845e+06	2.001049e+00,	2.168268e-02	
330	1.995262e+06	2.001066e+00,	2.218751e-02	
331	2.041738e+06	2.001083e+00,	2.270409e-02	
332	2.089296e+06	2.001101e+00,	2.323268e-02	
333	2.137962e+06	2.001120e+00,	2.377356e-02	
334	2.187762e+06	2.001139e+00,	2.432702e-02	
335	2.238721e+06	2.001160e+00,	2.489336e-02	
336	2.290868e+06	2.001182e+00,	2.547286e-02	
337	2.344229e+06	2.001205e+00,	2.606584e-02	
338	2.398833e+06	2.001228e+00,	2.667260e-02	
339	2.454709e+06	2.001253e+00,	2.729347e-02	
340	2.511886e+06	2.001279e+00,	2.792877e-02	
341	2.570396e+06	2.001307e+00,	2.857884e-02	
342	2.630268e+06	2.001335e+00,	2.924401e-02	
343	2.691535e+06	2.001365e+00,	2.992464e-02	
344	2.754229e+06	2.001396e+00,	3.062109e-02	

Index   frequency       vop                             
--------------------------------------------------------------------------------
345	2.818383e+06	2.001429e+00,	3.133372e-02	
346	2.884032e+06	2.001464e+00,	3.206290e-02	
347	2.951209e+06	2.001500e+00,	3.280902e-02	
348	3.019952e+06	2.001537e+00,	3.357247e-02	
349	3.090295e+06	2.001577e+00,	3.435364e-02	
350	3.162278e+06	2.001618e+00,	3.515295e-02	
351	3.235937e+06	2.001661e+00,	3.597082e-02	
352	3.311311e+06	2.001707e+00,	3.680766e-02	
353	3.388442e+06	2.001754e+00,	3.766393e-02	
354	3.467369e+06	2.001804e+00,	3.854006e-02	
355	3.548134e+06	2.001856e+00,	3.943652e-02	
356	3.630781e+06	2.001910e+00,	4.035377e-02	
357	3.715352e+06	2.001967e+00,	4.129229e-02	
358	3.801894e+06	2.002027e+00,	4.225257e-02	
359	3.890451e+06	2.002089e+00,	4.323510e-02	
360	3.981072e+06	2.002155e+00,	4.424041e-02	
361	4.073803e+06	2.002223e+00,	4.526900e-02	
362	4.168694e+06	2.002295e+00,	4.632141e-02	
363	4.265795e+06	2.002370e+00,	4.739820e-02	
364	4.365158e+06	2.002449e+00,	4.849991e-02	
365	4.466836e+06	2.002531e+00,	4.962711e-02	
366	4.570882e+06	2.002617e+00,	5.078039e-02	
367	4.677351e+06	2.002708e+00,	5.196035e-02	
368	4.786301e+06	2.002802e+00,	5.316758e-02	
369	4.897788e+06	2.002901e+00,	5.440271e-02	
370	5.011872e+06	2.003005e+00,	5.566638e-02	
371	5.128614e+06	2.003113e+00,	5.695923e-02	
372	5.248075e+06	2.003227e+00,	5.828193e-02	
373	5.370318e+06	2.003346e+00,	5.963514e-02	
374	5.495409e+06	2.003470e+00,	6.101956e-02	
375	5.623413e+06	2.003601e+00,	6.243590e-02	
376	5.754399e+06	2.003737e+00,	6.388487e-02	
377	5.888437e+06	2.003880e+00,	6.536721e-02	
378	6.025596e+06	2.004030e+00,	6.688367e-02	
379	6.165950e+06	2.004187e+00,	6.843502e-02	
380	6.309573e+06	2.004351e+00,	7.002203e-02	
381	6.456542e+06	2.004522e+00,	7.164550e-02	
382	6.606934e+06	2.004702e+00,	7.330626e-02	
383	6.760830e+06	2.004890e+00,	7.500511e-02	
384	6.918310e+06	2.005087e+00,	7.674293e-02	
385	7.079458e+06	2.005294e+00,	7.852055e-02	
386	7.244360e+06	2.005510e+00,	8.033888e-02	
387	7.413102e+06	2.005736e+00,	8.219880e-02	
388	7.585776e+06	2.005973e+00,	8.410122e-02	
389	7.762471e+06	2.006221e+00,	8.604709e-02	
390	7.943282e+06	2.006480e+00,	8.803735e-02	
391	8.128305e+06	2.006752e+00,	9.007297e-02	
392	8.317638e+06	2.007036e+00,	9.215493e-02	
393	8.511380e+06	2.007334e+00,	9.428424e-02	
394	8.709636e+06	2.007645e+00,	9.646191e-02	
395	8.912509e+06	2.007972e+00,	9.868900e-02	
396	9.120108e+06	2.008313e+00,	1.009665e-01	
397	9.332543e+06	2.008671e+00,	1.032956e-01	
398	9.549926e+06	2.009045e+00,	1.056774e-01	
399	9.772372e+06	2.009436e+00,	1.081128e-01	
400	1.000000e+07	2.009846e+00,	1.106032e-01	
401	1.023293e+07	2.010275e+00,	1.131495e-01	
402	1.047129e+07	2.010725e+00,	1.157530e-01	

Index   frequency       vop                             
--------------------------------------------------------------------------------
403	1.071519e+07	2.011195e+00,	1.184149e-01	
404	1.096478e+07	2.011687e+00,	1.211364e-01	
405	1.122018e+07	2.012202e+00,	1.239187e-01	
406	1.148154e+07	2.012741e+00,	1.267629e-01	
407	1.174898e+07	2.013305e+00,	1.296704e-01	
408	1.202264e+07	2.013895e+00,	1.326424e-01	
409	1.230269e+07	2.014513e+00,	1.356802e-01	
410	1.258925e+07	2.015159e+00,	1.387851e-01	
411	1.288250e+07	2.015836e+00,	1.419584e-01	
412	1.318257e+07	2.016544e+00,	1.452013e-01	
413	1.348963e+07	2.017285e+00,	1.485153e-01	
414	1.380384e+07	2.018060e+00,	1.519017e-01	
415	1.412538e+07	2.018871e+00,	1.553617e-01	
416	1.445440e+07	2.019720e+00,	1.588968e-01	
