** sch_path: /home/andylithia/openmpw/project-reisen-chip1/xschem/ota_wideband.sch
AC Analysis  Sun Oct 30 17:11:03  2022
--------------------------------------------------------------------------------
Index   frequency       vop                             
--------------------------------------------------------------------------------
0	1.000000e+03	1.968652e+00,	1.158603e-05	
1	1.023293e+03	1.968652e+00,	1.185590e-05	
2	1.047129e+03	1.968652e+00,	1.213206e-05	
3	1.071519e+03	1.968652e+00,	1.241466e-05	
4	1.096478e+03	1.968652e+00,	1.270383e-05	
5	1.122018e+03	1.968652e+00,	1.299974e-05	
6	1.148154e+03	1.968652e+00,	1.330254e-05	
7	1.174898e+03	1.968652e+00,	1.361240e-05	
8	1.202264e+03	1.968652e+00,	1.392947e-05	
9	1.230269e+03	1.968652e+00,	1.425393e-05	
10	1.258925e+03	1.968652e+00,	1.458595e-05	
11	1.288250e+03	1.968652e+00,	1.492570e-05	
12	1.318257e+03	1.968652e+00,	1.527336e-05	
13	1.348963e+03	1.968652e+00,	1.562913e-05	
14	1.380384e+03	1.968652e+00,	1.599318e-05	
15	1.412538e+03	1.968652e+00,	1.636570e-05	
16	1.445440e+03	1.968652e+00,	1.674691e-05	
17	1.479108e+03	1.968652e+00,	1.713700e-05	
18	1.513561e+03	1.968652e+00,	1.753617e-05	
19	1.548817e+03	1.968652e+00,	1.794464e-05	
20	1.584893e+03	1.968652e+00,	1.836262e-05	
21	1.621810e+03	1.968652e+00,	1.879034e-05	
22	1.659587e+03	1.968652e+00,	1.922803e-05	
23	1.698244e+03	1.968652e+00,	1.967590e-05	
24	1.737801e+03	1.968652e+00,	2.013421e-05	
25	1.778279e+03	1.968652e+00,	2.060320e-05	
26	1.819701e+03	1.968652e+00,	2.108311e-05	
27	1.862087e+03	1.968652e+00,	2.157420e-05	
28	1.905461e+03	1.968652e+00,	2.207673e-05	
29	1.949845e+03	1.968652e+00,	2.259096e-05	
30	1.995262e+03	1.968652e+00,	2.311717e-05	
31	2.041738e+03	1.968652e+00,	2.365564e-05	
32	2.089296e+03	1.968652e+00,	2.420665e-05	
33	2.137962e+03	1.968652e+00,	2.477050e-05	
34	2.187762e+03	1.968652e+00,	2.534747e-05	
35	2.238721e+03	1.968652e+00,	2.593789e-05	
36	2.290868e+03	1.968652e+00,	2.654206e-05	
37	2.344229e+03	1.968652e+00,	2.716031e-05	
38	2.398833e+03	1.968652e+00,	2.779295e-05	
39	2.454709e+03	1.968652e+00,	2.844033e-05	
40	2.511886e+03	1.968652e+00,	2.910279e-05	
41	2.570396e+03	1.968652e+00,	2.978069e-05	
42	2.630268e+03	1.968652e+00,	3.047437e-05	
43	2.691535e+03	1.968652e+00,	3.118421e-05	
44	2.754229e+03	1.968652e+00,	3.191058e-05	
45	2.818383e+03	1.968652e+00,	3.265387e-05	
46	2.884032e+03	1.968652e+00,	3.341448e-05	
47	2.951209e+03	1.968652e+00,	3.419280e-05	
48	3.019952e+03	1.968652e+00,	3.498925e-05	
49	3.090295e+03	1.968652e+00,	3.580426e-05	
50	3.162278e+03	1.968652e+00,	3.663825e-05	
51	3.235937e+03	1.968652e+00,	3.749166e-05	
52	3.311311e+03	1.968652e+00,	3.836496e-05	
53	3.388442e+03	1.968652e+00,	3.925859e-05	
54	3.467369e+03	1.968652e+00,	4.017304e-05	

Index   frequency       vop                             
--------------------------------------------------------------------------------
55	3.548134e+03	1.968652e+00,	4.110879e-05	
56	3.630781e+03	1.968652e+00,	4.206634e-05	
57	3.715352e+03	1.968652e+00,	4.304619e-05	
58	3.801894e+03	1.968652e+00,	4.404886e-05	
59	3.890451e+03	1.968652e+00,	4.507489e-05	
60	3.981072e+03	1.968652e+00,	4.612482e-05	
61	4.073803e+03	1.968652e+00,	4.719921e-05	
62	4.168694e+03	1.968652e+00,	4.829862e-05	
63	4.265795e+03	1.968652e+00,	4.942364e-05	
64	4.365158e+03	1.968652e+00,	5.057486e-05	
65	4.466836e+03	1.968652e+00,	5.175290e-05	
66	4.570882e+03	1.968652e+00,	5.295838e-05	
67	4.677351e+03	1.968652e+00,	5.419194e-05	
68	4.786301e+03	1.968652e+00,	5.545423e-05	
69	4.897788e+03	1.968652e+00,	5.674593e-05	
70	5.011872e+03	1.968652e+00,	5.806771e-05	
71	5.128614e+03	1.968652e+00,	5.942028e-05	
72	5.248075e+03	1.968652e+00,	6.080436e-05	
73	5.370318e+03	1.968652e+00,	6.222067e-05	
74	5.495409e+03	1.968652e+00,	6.366998e-05	
75	5.623413e+03	1.968652e+00,	6.515304e-05	
76	5.754399e+03	1.968652e+00,	6.667065e-05	
77	5.888437e+03	1.968652e+00,	6.822361e-05	
78	6.025596e+03	1.968652e+00,	6.981274e-05	
79	6.165950e+03	1.968652e+00,	7.143889e-05	
80	6.309573e+03	1.968652e+00,	7.310291e-05	
81	6.456542e+03	1.968652e+00,	7.480570e-05	
82	6.606934e+03	1.968652e+00,	7.654815e-05	
83	6.760830e+03	1.968652e+00,	7.833118e-05	
84	6.918310e+03	1.968652e+00,	8.015575e-05	
85	7.079458e+03	1.968652e+00,	8.202282e-05	
86	7.244360e+03	1.968652e+00,	8.393338e-05	
87	7.413102e+03	1.968652e+00,	8.588844e-05	
88	7.585776e+03	1.968652e+00,	8.788903e-05	
89	7.762471e+03	1.968652e+00,	8.993623e-05	
90	7.943282e+03	1.968652e+00,	9.203112e-05	
91	8.128305e+03	1.968652e+00,	9.417480e-05	
92	8.317638e+03	1.968652e+00,	9.636841e-05	
93	8.511380e+03	1.968652e+00,	9.861312e-05	
94	8.709636e+03	1.968652e+00,	1.009101e-04	
95	8.912509e+03	1.968652e+00,	1.032606e-04	
96	9.120108e+03	1.968652e+00,	1.056659e-04	
97	9.332543e+03	1.968652e+00,	1.081271e-04	
98	9.549926e+03	1.968652e+00,	1.106457e-04	
99	9.772372e+03	1.968652e+00,	1.132230e-04	
100	1.000000e+04	1.968652e+00,	1.158603e-04	
101	1.023293e+04	1.968652e+00,	1.185590e-04	
102	1.047129e+04	1.968652e+00,	1.213206e-04	
103	1.071519e+04	1.968652e+00,	1.241466e-04	
104	1.096478e+04	1.968652e+00,	1.270383e-04	
105	1.122018e+04	1.968652e+00,	1.299974e-04	
106	1.148154e+04	1.968652e+00,	1.330254e-04	
107	1.174898e+04	1.968652e+00,	1.361240e-04	
108	1.202264e+04	1.968652e+00,	1.392947e-04	
109	1.230269e+04	1.968652e+00,	1.425393e-04	
110	1.258925e+04	1.968652e+00,	1.458595e-04	
111	1.288250e+04	1.968652e+00,	1.492570e-04	
112	1.318257e+04	1.968652e+00,	1.527336e-04	

Index   frequency       vop                             
--------------------------------------------------------------------------------
113	1.348963e+04	1.968652e+00,	1.562913e-04	
114	1.380384e+04	1.968652e+00,	1.599317e-04	
115	1.412538e+04	1.968652e+00,	1.636570e-04	
116	1.445440e+04	1.968652e+00,	1.674691e-04	
117	1.479108e+04	1.968652e+00,	1.713700e-04	
118	1.513561e+04	1.968652e+00,	1.753617e-04	
119	1.548817e+04	1.968652e+00,	1.794464e-04	
120	1.584893e+04	1.968652e+00,	1.836262e-04	
121	1.621810e+04	1.968652e+00,	1.879034e-04	
122	1.659587e+04	1.968652e+00,	1.922803e-04	
123	1.698244e+04	1.968652e+00,	1.967590e-04	
124	1.737801e+04	1.968652e+00,	2.013421e-04	
125	1.778279e+04	1.968652e+00,	2.060320e-04	
126	1.819701e+04	1.968652e+00,	2.108311e-04	
127	1.862087e+04	1.968652e+00,	2.157420e-04	
128	1.905461e+04	1.968652e+00,	2.207673e-04	
129	1.949845e+04	1.968652e+00,	2.259096e-04	
130	1.995262e+04	1.968652e+00,	2.311717e-04	
131	2.041738e+04	1.968652e+00,	2.365564e-04	
132	2.089296e+04	1.968652e+00,	2.420665e-04	
133	2.137962e+04	1.968652e+00,	2.477049e-04	
134	2.187762e+04	1.968652e+00,	2.534747e-04	
135	2.238721e+04	1.968652e+00,	2.593789e-04	
136	2.290868e+04	1.968652e+00,	2.654206e-04	
137	2.344229e+04	1.968652e+00,	2.716031e-04	
138	2.398833e+04	1.968652e+00,	2.779295e-04	
139	2.454709e+04	1.968652e+00,	2.844033e-04	
140	2.511886e+04	1.968652e+00,	2.910279e-04	
141	2.570396e+04	1.968652e+00,	2.978068e-04	
142	2.630268e+04	1.968652e+00,	3.047437e-04	
143	2.691535e+04	1.968652e+00,	3.118420e-04	
144	2.754229e+04	1.968652e+00,	3.191058e-04	
145	2.818383e+04	1.968652e+00,	3.265387e-04	
146	2.884032e+04	1.968652e+00,	3.341448e-04	
147	2.951209e+04	1.968652e+00,	3.419280e-04	
148	3.019952e+04	1.968652e+00,	3.498925e-04	
149	3.090295e+04	1.968652e+00,	3.580426e-04	
150	3.162278e+04	1.968652e+00,	3.663825e-04	
151	3.235937e+04	1.968652e+00,	3.749166e-04	
152	3.311311e+04	1.968652e+00,	3.836495e-04	
153	3.388442e+04	1.968652e+00,	3.925859e-04	
154	3.467369e+04	1.968652e+00,	4.017304e-04	
155	3.548134e+04	1.968653e+00,	4.110879e-04	
156	3.630781e+04	1.968653e+00,	4.206633e-04	
157	3.715352e+04	1.968653e+00,	4.304618e-04	
158	3.801894e+04	1.968653e+00,	4.404886e-04	
159	3.890451e+04	1.968653e+00,	4.507489e-04	
160	3.981072e+04	1.968653e+00,	4.612482e-04	
161	4.073803e+04	1.968653e+00,	4.719920e-04	
162	4.168694e+04	1.968653e+00,	4.829861e-04	
163	4.265795e+04	1.968653e+00,	4.942363e-04	
164	4.365158e+04	1.968653e+00,	5.057485e-04	
165	4.466836e+04	1.968653e+00,	5.175289e-04	
166	4.570882e+04	1.968653e+00,	5.295837e-04	
167	4.677351e+04	1.968653e+00,	5.419193e-04	
168	4.786301e+04	1.968653e+00,	5.545422e-04	
169	4.897788e+04	1.968653e+00,	5.674592e-04	
170	5.011872e+04	1.968653e+00,	5.806770e-04	

Index   frequency       vop                             
--------------------------------------------------------------------------------
171	5.128614e+04	1.968653e+00,	5.942027e-04	
172	5.248075e+04	1.968653e+00,	6.080435e-04	
173	5.370318e+04	1.968653e+00,	6.222066e-04	
174	5.495409e+04	1.968653e+00,	6.366997e-04	
175	5.623413e+04	1.968653e+00,	6.515303e-04	
176	5.754399e+04	1.968653e+00,	6.667064e-04	
177	5.888437e+04	1.968653e+00,	6.822360e-04	
178	6.025596e+04	1.968653e+00,	6.981273e-04	
179	6.165950e+04	1.968653e+00,	7.143887e-04	
180	6.309573e+04	1.968653e+00,	7.310290e-04	
181	6.456542e+04	1.968653e+00,	7.480568e-04	
182	6.606934e+04	1.968653e+00,	7.654813e-04	
183	6.760830e+04	1.968653e+00,	7.833116e-04	
184	6.918310e+04	1.968653e+00,	8.015573e-04	
185	7.079458e+04	1.968653e+00,	8.202280e-04	
186	7.244360e+04	1.968653e+00,	8.393335e-04	
187	7.413102e+04	1.968653e+00,	8.588841e-04	
188	7.585776e+04	1.968653e+00,	8.788901e-04	
189	7.762471e+04	1.968653e+00,	8.993620e-04	
190	7.943282e+04	1.968653e+00,	9.203108e-04	
191	8.128305e+04	1.968653e+00,	9.417476e-04	
192	8.317638e+04	1.968653e+00,	9.636837e-04	
193	8.511380e+04	1.968653e+00,	9.861308e-04	
194	8.709636e+04	1.968653e+00,	1.009101e-03	
195	8.912509e+04	1.968653e+00,	1.032606e-03	
196	9.120108e+04	1.968653e+00,	1.056658e-03	
197	9.332543e+04	1.968653e+00,	1.081271e-03	
198	9.549926e+04	1.968653e+00,	1.106457e-03	
199	9.772372e+04	1.968653e+00,	1.132229e-03	
200	1.000000e+05	1.968653e+00,	1.158602e-03	
201	1.023293e+05	1.968653e+00,	1.185590e-03	
202	1.047129e+05	1.968653e+00,	1.213206e-03	
203	1.071519e+05	1.968653e+00,	1.241465e-03	
204	1.096478e+05	1.968654e+00,	1.270382e-03	
205	1.122018e+05	1.968654e+00,	1.299973e-03	
206	1.148154e+05	1.968654e+00,	1.330253e-03	
207	1.174898e+05	1.968654e+00,	1.361239e-03	
208	1.202264e+05	1.968654e+00,	1.392946e-03	
209	1.230269e+05	1.968654e+00,	1.425392e-03	
210	1.258925e+05	1.968654e+00,	1.458594e-03	
211	1.288250e+05	1.968654e+00,	1.492569e-03	
212	1.318257e+05	1.968654e+00,	1.527335e-03	
213	1.348963e+05	1.968654e+00,	1.562911e-03	
214	1.380384e+05	1.968654e+00,	1.599316e-03	
215	1.412538e+05	1.968654e+00,	1.636569e-03	
216	1.445440e+05	1.968654e+00,	1.674689e-03	
217	1.479108e+05	1.968654e+00,	1.713697e-03	
218	1.513561e+05	1.968655e+00,	1.753614e-03	
219	1.548817e+05	1.968655e+00,	1.794461e-03	
220	1.584893e+05	1.968655e+00,	1.836260e-03	
221	1.621810e+05	1.968655e+00,	1.879031e-03	
222	1.659587e+05	1.968655e+00,	1.922800e-03	
223	1.698244e+05	1.968655e+00,	1.967587e-03	
224	1.737801e+05	1.968655e+00,	2.013418e-03	
225	1.778279e+05	1.968655e+00,	2.060316e-03	
226	1.819701e+05	1.968656e+00,	2.108307e-03	
227	1.862087e+05	1.968656e+00,	2.157416e-03	
228	1.905461e+05	1.968656e+00,	2.207668e-03	

Index   frequency       vop                             
--------------------------------------------------------------------------------
229	1.949845e+05	1.968656e+00,	2.259091e-03	
230	1.995262e+05	1.968656e+00,	2.311712e-03	
231	2.041738e+05	1.968656e+00,	2.365558e-03	
232	2.089296e+05	1.968657e+00,	2.420659e-03	
233	2.137962e+05	1.968657e+00,	2.477043e-03	
234	2.187762e+05	1.968657e+00,	2.534740e-03	
235	2.238721e+05	1.968657e+00,	2.593782e-03	
236	2.290868e+05	1.968657e+00,	2.654198e-03	
237	2.344229e+05	1.968658e+00,	2.716022e-03	
238	2.398833e+05	1.968658e+00,	2.779286e-03	
239	2.454709e+05	1.968658e+00,	2.844023e-03	
240	2.511886e+05	1.968658e+00,	2.910269e-03	
241	2.570396e+05	1.968659e+00,	2.978057e-03	
242	2.630268e+05	1.968659e+00,	3.047424e-03	
243	2.691535e+05	1.968659e+00,	3.118408e-03	
244	2.754229e+05	1.968660e+00,	3.191044e-03	
245	2.818383e+05	1.968660e+00,	3.265372e-03	
246	2.884032e+05	1.968660e+00,	3.341432e-03	
247	2.951209e+05	1.968661e+00,	3.419263e-03	
248	3.019952e+05	1.968661e+00,	3.498907e-03	
249	3.090295e+05	1.968662e+00,	3.580406e-03	
250	3.162278e+05	1.968662e+00,	3.663804e-03	
251	3.235937e+05	1.968663e+00,	3.749143e-03	
252	3.311311e+05	1.968663e+00,	3.836471e-03	
253	3.388442e+05	1.968663e+00,	3.925833e-03	
254	3.467369e+05	1.968664e+00,	4.017276e-03	
255	3.548134e+05	1.968665e+00,	4.110849e-03	
256	3.630781e+05	1.968665e+00,	4.206602e-03	
257	3.715352e+05	1.968666e+00,	4.304584e-03	
258	3.801894e+05	1.968666e+00,	4.404849e-03	
259	3.890451e+05	1.968667e+00,	4.507450e-03	
260	3.981072e+05	1.968668e+00,	4.612440e-03	
261	4.073803e+05	1.968668e+00,	4.719875e-03	
262	4.168694e+05	1.968669e+00,	4.829813e-03	
263	4.265795e+05	1.968670e+00,	4.942312e-03	
264	4.365158e+05	1.968671e+00,	5.057430e-03	
265	4.466836e+05	1.968672e+00,	5.175230e-03	
266	4.570882e+05	1.968673e+00,	5.295774e-03	
267	4.677351e+05	1.968674e+00,	5.419125e-03	
268	4.786301e+05	1.968675e+00,	5.545350e-03	
269	4.897788e+05	1.968676e+00,	5.674514e-03	
270	5.011872e+05	1.968677e+00,	5.806686e-03	
271	5.128614e+05	1.968678e+00,	5.941938e-03	
272	5.248075e+05	1.968679e+00,	6.080339e-03	
273	5.370318e+05	1.968680e+00,	6.221963e-03	
274	5.495409e+05	1.968682e+00,	6.366886e-03	
275	5.623413e+05	1.968683e+00,	6.515185e-03	
276	5.754399e+05	1.968684e+00,	6.666937e-03	
277	5.888437e+05	1.968686e+00,	6.822224e-03	
278	6.025596e+05	1.968688e+00,	6.981127e-03	
279	6.165950e+05	1.968689e+00,	7.143732e-03	
280	6.309573e+05	1.968691e+00,	7.310123e-03	
281	6.456542e+05	1.968693e+00,	7.480390e-03	
282	6.606934e+05	1.968695e+00,	7.654621e-03	
283	6.760830e+05	1.968697e+00,	7.832911e-03	
284	6.918310e+05	1.968699e+00,	8.015353e-03	
285	7.079458e+05	1.968701e+00,	8.202044e-03	
286	7.244360e+05	1.968703e+00,	8.393083e-03	

Index   frequency       vop                             
--------------------------------------------------------------------------------
287	7.413102e+05	1.968706e+00,	8.588570e-03	
288	7.585776e+05	1.968708e+00,	8.788611e-03	
289	7.762471e+05	1.968711e+00,	8.993310e-03	
290	7.943282e+05	1.968713e+00,	9.202776e-03	
291	8.128305e+05	1.968716e+00,	9.417120e-03	
292	8.317638e+05	1.968719e+00,	9.636455e-03	
293	8.511380e+05	1.968722e+00,	9.860898e-03	
294	8.709636e+05	1.968726e+00,	1.009057e-02	
295	8.912509e+05	1.968729e+00,	1.032559e-02	
296	9.120108e+05	1.968733e+00,	1.056608e-02	
297	9.332543e+05	1.968737e+00,	1.081217e-02	
298	9.549926e+05	1.968741e+00,	1.106399e-02	
299	9.772372e+05	1.968745e+00,	1.132167e-02	
300	1.000000e+06	1.968749e+00,	1.158536e-02	
301	1.023293e+06	1.968754e+00,	1.185519e-02	
302	1.047129e+06	1.968758e+00,	1.213129e-02	
303	1.071519e+06	1.968764e+00,	1.241383e-02	
304	1.096478e+06	1.968769e+00,	1.270295e-02	
305	1.122018e+06	1.968774e+00,	1.299879e-02	
306	1.148154e+06	1.968780e+00,	1.330153e-02	
307	1.174898e+06	1.968786e+00,	1.361131e-02	
308	1.202264e+06	1.968792e+00,	1.392831e-02	
309	1.230269e+06	1.968799e+00,	1.425268e-02	
310	1.258925e+06	1.968806e+00,	1.458461e-02	
311	1.288250e+06	1.968813e+00,	1.492427e-02	
312	1.318257e+06	1.968821e+00,	1.527183e-02	
313	1.348963e+06	1.968828e+00,	1.562748e-02	
314	1.380384e+06	1.968837e+00,	1.599141e-02	
315	1.412538e+06	1.968845e+00,	1.636381e-02	
316	1.445440e+06	1.968855e+00,	1.674488e-02	
317	1.479108e+06	1.968864e+00,	1.713483e-02	
318	1.513561e+06	1.968874e+00,	1.753384e-02	
319	1.548817e+06	1.968885e+00,	1.794215e-02	
320	1.584893e+06	1.968895e+00,	1.835995e-02	
321	1.621810e+06	1.968907e+00,	1.878748e-02	
322	1.659587e+06	1.968919e+00,	1.922496e-02	
323	1.698244e+06	1.968931e+00,	1.967262e-02	
324	1.737801e+06	1.968945e+00,	2.013069e-02	
325	1.778279e+06	1.968958e+00,	2.059943e-02	
326	1.819701e+06	1.968973e+00,	2.107907e-02	
327	1.862087e+06	1.968988e+00,	2.156987e-02	
328	1.905461e+06	1.969004e+00,	2.207209e-02	
329	1.949845e+06	1.969020e+00,	2.258599e-02	
330	1.995262e+06	1.969038e+00,	2.311184e-02	
331	2.041738e+06	1.969056e+00,	2.364993e-02	
332	2.089296e+06	1.969075e+00,	2.420053e-02	
333	2.137962e+06	1.969095e+00,	2.476394e-02	
334	2.187762e+06	1.969116e+00,	2.534045e-02	
335	2.238721e+06	1.969137e+00,	2.593037e-02	
336	2.290868e+06	1.969160e+00,	2.653400e-02	
337	2.344229e+06	1.969184e+00,	2.715167e-02	
338	2.398833e+06	1.969209e+00,	2.778370e-02	
339	2.454709e+06	1.969235e+00,	2.843041e-02	
340	2.511886e+06	1.969263e+00,	2.909217e-02	
341	2.570396e+06	1.969292e+00,	2.976930e-02	
342	2.630268e+06	1.969322e+00,	3.046216e-02	
343	2.691535e+06	1.969353e+00,	3.117113e-02	
344	2.754229e+06	1.969386e+00,	3.189657e-02	

Index   frequency       vop                             
--------------------------------------------------------------------------------
345	2.818383e+06	1.969421e+00,	3.263886e-02	
346	2.884032e+06	1.969457e+00,	3.339839e-02	
347	2.951209e+06	1.969495e+00,	3.417557e-02	
348	3.019952e+06	1.969535e+00,	3.497079e-02	
349	3.090295e+06	1.969576e+00,	3.578447e-02	
350	3.162278e+06	1.969620e+00,	3.661704e-02	
351	3.235937e+06	1.969665e+00,	3.746894e-02	
352	3.311311e+06	1.969713e+00,	3.834061e-02	
353	3.388442e+06	1.969763e+00,	3.923250e-02	
354	3.467369e+06	1.969815e+00,	4.014509e-02	
355	3.548134e+06	1.969870e+00,	4.107884e-02	
356	3.630781e+06	1.969928e+00,	4.203425e-02	
357	3.715352e+06	1.969988e+00,	4.301180e-02	
358	3.801894e+06	1.970050e+00,	4.401202e-02	
359	3.890451e+06	1.970116e+00,	4.503542e-02	
360	3.981072e+06	1.970185e+00,	4.608252e-02	
361	4.073803e+06	1.970257e+00,	4.715388e-02	
362	4.168694e+06	1.970333e+00,	4.825005e-02	
363	4.265795e+06	1.970412e+00,	4.937160e-02	
364	4.365158e+06	1.970495e+00,	5.051911e-02	
365	4.466836e+06	1.970582e+00,	5.169316e-02	
366	4.570882e+06	1.970673e+00,	5.289437e-02	
367	4.677351e+06	1.970768e+00,	5.412335e-02	
368	4.786301e+06	1.970867e+00,	5.538074e-02	
369	4.897788e+06	1.970972e+00,	5.666719e-02	
370	5.011872e+06	1.971081e+00,	5.798334e-02	
371	5.128614e+06	1.971195e+00,	5.932988e-02	
372	5.248075e+06	1.971315e+00,	6.070750e-02	
373	5.370318e+06	1.971440e+00,	6.211689e-02	
374	5.495409e+06	1.971571e+00,	6.355878e-02	
375	5.623413e+06	1.971709e+00,	6.503390e-02	
376	5.754399e+06	1.971852e+00,	6.654299e-02	
377	5.888437e+06	1.972003e+00,	6.808683e-02	
378	6.025596e+06	1.972161e+00,	6.966619e-02	
379	6.165950e+06	1.972326e+00,	7.128186e-02	
380	6.309573e+06	1.972499e+00,	7.293467e-02	
381	6.456542e+06	1.972680e+00,	7.462543e-02	
382	6.606934e+06	1.972869e+00,	7.635500e-02	
383	6.760830e+06	1.973067e+00,	7.812424e-02	
384	6.918310e+06	1.973275e+00,	7.993402e-02	
385	7.079458e+06	1.973492e+00,	8.178525e-02	
386	7.244360e+06	1.973720e+00,	8.367884e-02	
387	7.413102e+06	1.973958e+00,	8.561572e-02	
388	7.585776e+06	1.974207e+00,	8.759684e-02	
389	7.762471e+06	1.974468e+00,	8.962318e-02	
390	7.943282e+06	1.974742e+00,	9.169570e-02	
391	8.128305e+06	1.975028e+00,	9.381544e-02	
392	8.317638e+06	1.975327e+00,	9.598339e-02	
393	8.511380e+06	1.975641e+00,	9.820061e-02	
394	8.709636e+06	1.975969e+00,	1.004682e-01	
395	8.912509e+06	1.976313e+00,	1.027871e-01	
396	9.120108e+06	1.976673e+00,	1.051586e-01	
397	9.332543e+06	1.977049e+00,	1.075836e-01	
398	9.549926e+06	1.977443e+00,	1.100635e-01	
399	9.772372e+06	1.977856e+00,	1.125992e-01	
400	1.000000e+07	1.978287e+00,	1.151920e-01	
401	1.023293e+07	1.978739e+00,	1.178430e-01	
402	1.047129e+07	1.979212e+00,	1.205536e-01	

Index   frequency       vop                             
--------------------------------------------------------------------------------
403	1.071519e+07	1.979708e+00,	1.233248e-01	
404	1.096478e+07	1.980226e+00,	1.261579e-01	
405	1.122018e+07	1.980768e+00,	1.290543e-01	
406	1.148154e+07	1.981336e+00,	1.320151e-01	
407	1.174898e+07	1.981930e+00,	1.350416e-01	
408	1.202264e+07	1.982551e+00,	1.381352e-01	
409	1.230269e+07	1.983202e+00,	1.412972e-01	
410	1.258925e+07	1.983883e+00,	1.445288e-01	
411	1.288250e+07	1.984595e+00,	1.478316e-01	
412	1.318257e+07	1.985341e+00,	1.512067e-01	
413	1.348963e+07	1.986121e+00,	1.546556e-01	
414	1.380384e+07	1.986937e+00,	1.581797e-01	
415	1.412538e+07	1.987791e+00,	1.617803e-01	
416	1.445440e+07	1.988685e+00,	1.654588e-01	
