  ** sch_path: /home/andylithia/openmpw/project-reisen-chip1/xschem/ctle_3.sch
  AC Analysis  Sun Oct 30 23:20:13  2022
--------------------------------------------------------------------------------
Index   frequency       vop                             
--------------------------------------------------------------------------------
0	1.000000e+03	7.482710e-01,	3.059446e-07	
1	1.023293e+03	7.482710e-01,	3.130710e-07	
2	1.047129e+03	7.482710e-01,	3.203633e-07	
3	1.071519e+03	7.482710e-01,	3.278256e-07	
4	1.096478e+03	7.482710e-01,	3.354616e-07	
5	1.122018e+03	7.482710e-01,	3.432755e-07	
6	1.148154e+03	7.482710e-01,	3.512714e-07	
7	1.174898e+03	7.482710e-01,	3.594536e-07	
8	1.202264e+03	7.482710e-01,	3.678263e-07	
9	1.230269e+03	7.482710e-01,	3.763941e-07	
10	1.258925e+03	7.482710e-01,	3.851615e-07	
11	1.288250e+03	7.482710e-01,	3.941330e-07	
12	1.318257e+03	7.482710e-01,	4.033136e-07	
13	1.348963e+03	7.482710e-01,	4.127079e-07	
14	1.380384e+03	7.482710e-01,	4.223211e-07	
15	1.412538e+03	7.482710e-01,	4.321583e-07	
16	1.445440e+03	7.482710e-01,	4.422245e-07	
17	1.479108e+03	7.482710e-01,	4.525253e-07	
18	1.513561e+03	7.482710e-01,	4.630659e-07	
19	1.548817e+03	7.482710e-01,	4.738521e-07	
20	1.584893e+03	7.482710e-01,	4.848895e-07	
21	1.621810e+03	7.482710e-01,	4.961841e-07	
22	1.659587e+03	7.482710e-01,	5.077417e-07	
23	1.698244e+03	7.482710e-01,	5.195685e-07	
24	1.737801e+03	7.482710e-01,	5.316708e-07	
25	1.778279e+03	7.482710e-01,	5.440550e-07	
26	1.819701e+03	7.482710e-01,	5.567277e-07	
27	1.862087e+03	7.482710e-01,	5.696955e-07	
28	1.905461e+03	7.482710e-01,	5.829655e-07	
29	1.949845e+03	7.482710e-01,	5.965445e-07	
30	1.995262e+03	7.482710e-01,	6.104398e-07	
31	2.041738e+03	7.482710e-01,	6.246587e-07	
32	2.089296e+03	7.482710e-01,	6.392089e-07	
33	2.137962e+03	7.482710e-01,	6.540980e-07	
34	2.187762e+03	7.482710e-01,	6.693339e-07	
35	2.238721e+03	7.482710e-01,	6.849247e-07	
36	2.290868e+03	7.482710e-01,	7.008786e-07	
37	2.344229e+03	7.482710e-01,	7.172042e-07	
38	2.398833e+03	7.482710e-01,	7.339100e-07	
39	2.454709e+03	7.482710e-01,	7.510050e-07	
40	2.511886e+03	7.482710e-01,	7.684981e-07	
41	2.570396e+03	7.482710e-01,	7.863988e-07	
42	2.630268e+03	7.482710e-01,	8.047163e-07	
43	2.691535e+03	7.482710e-01,	8.234606e-07	
44	2.754229e+03	7.482710e-01,	8.426415e-07	
45	2.818383e+03	7.482710e-01,	8.622691e-07	
46	2.884032e+03	7.482710e-01,	8.823539e-07	
47	2.951209e+03	7.482710e-01,	9.029066e-07	
48	3.019952e+03	7.482710e-01,	9.239380e-07	
49	3.090295e+03	7.482710e-01,	9.454593e-07	
50	3.162278e+03	7.482710e-01,	9.674818e-07	
51	3.235937e+03	7.482710e-01,	9.900174e-07	
52	3.311311e+03	7.482710e-01,	1.013078e-06	
53	3.388442e+03	7.482710e-01,	1.036675e-06	
54	3.467369e+03	7.482710e-01,	1.060823e-06	

Index   frequency       vop                             
--------------------------------------------------------------------------------
55	3.548134e+03	7.482710e-01,	1.085532e-06	
56	3.630781e+03	7.482710e-01,	1.110818e-06	
57	3.715352e+03	7.482710e-01,	1.136692e-06	
58	3.801894e+03	7.482710e-01,	1.163169e-06	
59	3.890451e+03	7.482710e-01,	1.190263e-06	
60	3.981072e+03	7.482710e-01,	1.217987e-06	
61	4.073803e+03	7.482710e-01,	1.246358e-06	
62	4.168694e+03	7.482710e-01,	1.275389e-06	
63	4.265795e+03	7.482710e-01,	1.305097e-06	
64	4.365158e+03	7.482710e-01,	1.335497e-06	
65	4.466836e+03	7.482710e-01,	1.366604e-06	
66	4.570882e+03	7.482710e-01,	1.398437e-06	
67	4.677351e+03	7.482710e-01,	1.431011e-06	
68	4.786301e+03	7.482710e-01,	1.464343e-06	
69	4.897788e+03	7.482710e-01,	1.498452e-06	
70	5.011872e+03	7.482710e-01,	1.533355e-06	
71	5.128614e+03	7.482710e-01,	1.569072e-06	
72	5.248075e+03	7.482710e-01,	1.605620e-06	
73	5.370318e+03	7.482710e-01,	1.643020e-06	
74	5.495409e+03	7.482710e-01,	1.681291e-06	
75	5.623413e+03	7.482710e-01,	1.720453e-06	
76	5.754399e+03	7.482710e-01,	1.760528e-06	
77	5.888437e+03	7.482710e-01,	1.801536e-06	
78	6.025596e+03	7.482710e-01,	1.843499e-06	
79	6.165950e+03	7.482710e-01,	1.886439e-06	
80	6.309573e+03	7.482710e-01,	1.930380e-06	
81	6.456542e+03	7.482710e-01,	1.975344e-06	
82	6.606934e+03	7.482710e-01,	2.021356e-06	
83	6.760830e+03	7.482710e-01,	2.068440e-06	
84	6.918310e+03	7.482710e-01,	2.116620e-06	
85	7.079458e+03	7.482710e-01,	2.165922e-06	
86	7.244360e+03	7.482710e-01,	2.216373e-06	
87	7.413102e+03	7.482710e-01,	2.267999e-06	
88	7.585776e+03	7.482710e-01,	2.320827e-06	
89	7.762471e+03	7.482710e-01,	2.374886e-06	
90	7.943282e+03	7.482710e-01,	2.430205e-06	
91	8.128305e+03	7.482710e-01,	2.486811e-06	
92	8.317638e+03	7.482710e-01,	2.544737e-06	
93	8.511380e+03	7.482710e-01,	2.604011e-06	
94	8.709636e+03	7.482710e-01,	2.664666e-06	
95	8.912509e+03	7.482710e-01,	2.726734e-06	
96	9.120108e+03	7.482710e-01,	2.790248e-06	
97	9.332543e+03	7.482710e-01,	2.855241e-06	
98	9.549926e+03	7.482710e-01,	2.921748e-06	
99	9.772372e+03	7.482710e-01,	2.989805e-06	
100	1.000000e+04	7.482710e-01,	3.059446e-06	
101	1.023293e+04	7.482710e-01,	3.130710e-06	
102	1.047129e+04	7.482710e-01,	3.203633e-06	
103	1.071519e+04	7.482710e-01,	3.278256e-06	
104	1.096478e+04	7.482710e-01,	3.354616e-06	
105	1.122018e+04	7.482710e-01,	3.432755e-06	
106	1.148154e+04	7.482710e-01,	3.512714e-06	
107	1.174898e+04	7.482710e-01,	3.594536e-06	
108	1.202264e+04	7.482710e-01,	3.678263e-06	
109	1.230269e+04	7.482710e-01,	3.763941e-06	
110	1.258925e+04	7.482710e-01,	3.851615e-06	
111	1.288250e+04	7.482710e-01,	3.941330e-06	
112	1.318257e+04	7.482710e-01,	4.033136e-06	

Index   frequency       vop                             
--------------------------------------------------------------------------------
113	1.348963e+04	7.482710e-01,	4.127079e-06	
114	1.380384e+04	7.482710e-01,	4.223211e-06	
115	1.412538e+04	7.482710e-01,	4.321583e-06	
116	1.445440e+04	7.482710e-01,	4.422245e-06	
117	1.479108e+04	7.482710e-01,	4.525253e-06	
118	1.513561e+04	7.482710e-01,	4.630659e-06	
119	1.548817e+04	7.482710e-01,	4.738521e-06	
120	1.584893e+04	7.482710e-01,	4.848895e-06	
121	1.621810e+04	7.482710e-01,	4.961841e-06	
122	1.659587e+04	7.482710e-01,	5.077417e-06	
123	1.698244e+04	7.482710e-01,	5.195685e-06	
124	1.737801e+04	7.482710e-01,	5.316708e-06	
125	1.778279e+04	7.482710e-01,	5.440550e-06	
126	1.819701e+04	7.482710e-01,	5.567277e-06	
127	1.862087e+04	7.482710e-01,	5.696955e-06	
128	1.905461e+04	7.482710e-01,	5.829655e-06	
129	1.949845e+04	7.482710e-01,	5.965445e-06	
130	1.995262e+04	7.482710e-01,	6.104398e-06	
131	2.041738e+04	7.482710e-01,	6.246587e-06	
132	2.089296e+04	7.482710e-01,	6.392089e-06	
133	2.137962e+04	7.482710e-01,	6.540980e-06	
134	2.187762e+04	7.482710e-01,	6.693339e-06	
135	2.238721e+04	7.482710e-01,	6.849247e-06	
136	2.290868e+04	7.482710e-01,	7.008786e-06	
137	2.344229e+04	7.482710e-01,	7.172042e-06	
138	2.398833e+04	7.482710e-01,	7.339100e-06	
139	2.454709e+04	7.482710e-01,	7.510050e-06	
140	2.511886e+04	7.482710e-01,	7.684981e-06	
141	2.570396e+04	7.482710e-01,	7.863988e-06	
142	2.630268e+04	7.482710e-01,	8.047163e-06	
143	2.691535e+04	7.482710e-01,	8.234606e-06	
144	2.754229e+04	7.482710e-01,	8.426415e-06	
145	2.818383e+04	7.482710e-01,	8.622691e-06	
146	2.884032e+04	7.482710e-01,	8.823539e-06	
147	2.951209e+04	7.482710e-01,	9.029066e-06	
148	3.019952e+04	7.482710e-01,	9.239380e-06	
149	3.090295e+04	7.482710e-01,	9.454593e-06	
150	3.162278e+04	7.482710e-01,	9.674818e-06	
151	3.235937e+04	7.482710e-01,	9.900174e-06	
152	3.311311e+04	7.482710e-01,	1.013078e-05	
153	3.388442e+04	7.482710e-01,	1.036675e-05	
154	3.467369e+04	7.482710e-01,	1.060823e-05	
155	3.548134e+04	7.482710e-01,	1.085532e-05	
156	3.630781e+04	7.482710e-01,	1.110818e-05	
157	3.715352e+04	7.482710e-01,	1.136692e-05	
158	3.801894e+04	7.482710e-01,	1.163169e-05	
159	3.890451e+04	7.482710e-01,	1.190263e-05	
160	3.981072e+04	7.482710e-01,	1.217987e-05	
161	4.073803e+04	7.482710e-01,	1.246358e-05	
162	4.168694e+04	7.482710e-01,	1.275389e-05	
163	4.265795e+04	7.482710e-01,	1.305097e-05	
164	4.365158e+04	7.482710e-01,	1.335497e-05	
165	4.466836e+04	7.482710e-01,	1.366604e-05	
166	4.570882e+04	7.482710e-01,	1.398437e-05	
167	4.677351e+04	7.482710e-01,	1.431011e-05	
168	4.786301e+04	7.482710e-01,	1.464343e-05	
169	4.897788e+04	7.482710e-01,	1.498452e-05	
170	5.011872e+04	7.482710e-01,	1.533355e-05	

Index   frequency       vop                             
--------------------------------------------------------------------------------
171	5.128614e+04	7.482710e-01,	1.569072e-05	
172	5.248075e+04	7.482710e-01,	1.605620e-05	
173	5.370318e+04	7.482710e-01,	1.643020e-05	
174	5.495409e+04	7.482710e-01,	1.681291e-05	
175	5.623413e+04	7.482710e-01,	1.720453e-05	
176	5.754399e+04	7.482710e-01,	1.760528e-05	
177	5.888437e+04	7.482710e-01,	1.801535e-05	
178	6.025596e+04	7.482710e-01,	1.843499e-05	
179	6.165950e+04	7.482710e-01,	1.886439e-05	
180	6.309573e+04	7.482710e-01,	1.930380e-05	
181	6.456542e+04	7.482710e-01,	1.975344e-05	
182	6.606934e+04	7.482710e-01,	2.021356e-05	
183	6.760830e+04	7.482710e-01,	2.068440e-05	
184	6.918310e+04	7.482710e-01,	2.116620e-05	
185	7.079458e+04	7.482710e-01,	2.165922e-05	
186	7.244360e+04	7.482710e-01,	2.216373e-05	
187	7.413102e+04	7.482710e-01,	2.267999e-05	
188	7.585776e+04	7.482710e-01,	2.320827e-05	
189	7.762471e+04	7.482710e-01,	2.374886e-05	
190	7.943282e+04	7.482710e-01,	2.430205e-05	
191	8.128305e+04	7.482710e-01,	2.486811e-05	
192	8.317638e+04	7.482710e-01,	2.544737e-05	
193	8.511380e+04	7.482710e-01,	2.604011e-05	
194	8.709636e+04	7.482710e-01,	2.664666e-05	
195	8.912509e+04	7.482710e-01,	2.726734e-05	
196	9.120108e+04	7.482710e-01,	2.790248e-05	
197	9.332543e+04	7.482710e-01,	2.855241e-05	
198	9.549926e+04	7.482710e-01,	2.921748e-05	
199	9.772372e+04	7.482710e-01,	2.989805e-05	
200	1.000000e+05	7.482710e-01,	3.059446e-05	
201	1.023293e+05	7.482710e-01,	3.130710e-05	
202	1.047129e+05	7.482710e-01,	3.203633e-05	
203	1.071519e+05	7.482710e-01,	3.278256e-05	
204	1.096478e+05	7.482710e-01,	3.354616e-05	
205	1.122018e+05	7.482710e-01,	3.432755e-05	
206	1.148154e+05	7.482710e-01,	3.512714e-05	
207	1.174898e+05	7.482710e-01,	3.594536e-05	
208	1.202264e+05	7.482710e-01,	3.678263e-05	
209	1.230269e+05	7.482710e-01,	3.763941e-05	
210	1.258925e+05	7.482710e-01,	3.851615e-05	
211	1.288250e+05	7.482710e-01,	3.941330e-05	
212	1.318257e+05	7.482710e-01,	4.033136e-05	
213	1.348963e+05	7.482710e-01,	4.127079e-05	
214	1.380384e+05	7.482710e-01,	4.223211e-05	
215	1.412538e+05	7.482710e-01,	4.321583e-05	
216	1.445440e+05	7.482710e-01,	4.422245e-05	
217	1.479108e+05	7.482710e-01,	4.525253e-05	
218	1.513561e+05	7.482710e-01,	4.630659e-05	
219	1.548817e+05	7.482710e-01,	4.738521e-05	
220	1.584893e+05	7.482710e-01,	4.848895e-05	
221	1.621810e+05	7.482710e-01,	4.961841e-05	
222	1.659587e+05	7.482710e-01,	5.077417e-05	
223	1.698244e+05	7.482710e-01,	5.195685e-05	
224	1.737801e+05	7.482710e-01,	5.316708e-05	
225	1.778279e+05	7.482710e-01,	5.440550e-05	
226	1.819701e+05	7.482710e-01,	5.567277e-05	
227	1.862087e+05	7.482710e-01,	5.696955e-05	
228	1.905461e+05	7.482710e-01,	5.829655e-05	

Index   frequency       vop                             
--------------------------------------------------------------------------------
229	1.949845e+05	7.482710e-01,	5.965445e-05	
230	1.995262e+05	7.482710e-01,	6.104398e-05	
231	2.041738e+05	7.482710e-01,	6.246587e-05	
232	2.089296e+05	7.482710e-01,	6.392089e-05	
233	2.137962e+05	7.482710e-01,	6.540980e-05	
234	2.187762e+05	7.482710e-01,	6.693339e-05	
235	2.238721e+05	7.482710e-01,	6.849247e-05	
236	2.290868e+05	7.482710e-01,	7.008786e-05	
237	2.344229e+05	7.482710e-01,	7.172042e-05	
238	2.398833e+05	7.482710e-01,	7.339100e-05	
239	2.454709e+05	7.482710e-01,	7.510050e-05	
240	2.511886e+05	7.482710e-01,	7.684981e-05	
241	2.570396e+05	7.482710e-01,	7.863987e-05	
242	2.630268e+05	7.482710e-01,	8.047163e-05	
243	2.691535e+05	7.482710e-01,	8.234606e-05	
244	2.754229e+05	7.482710e-01,	8.426414e-05	
245	2.818383e+05	7.482710e-01,	8.622691e-05	
246	2.884032e+05	7.482710e-01,	8.823539e-05	
247	2.951209e+05	7.482710e-01,	9.029066e-05	
248	3.019952e+05	7.482710e-01,	9.239380e-05	
249	3.090295e+05	7.482710e-01,	9.454592e-05	
250	3.162278e+05	7.482710e-01,	9.674818e-05	
251	3.235937e+05	7.482710e-01,	9.900174e-05	
252	3.311311e+05	7.482710e-01,	1.013078e-04	
253	3.388442e+05	7.482710e-01,	1.036675e-04	
254	3.467369e+05	7.482710e-01,	1.060823e-04	
255	3.548134e+05	7.482710e-01,	1.085532e-04	
256	3.630781e+05	7.482710e-01,	1.110818e-04	
257	3.715352e+05	7.482710e-01,	1.136692e-04	
258	3.801894e+05	7.482710e-01,	1.163169e-04	
259	3.890451e+05	7.482710e-01,	1.190263e-04	
260	3.981072e+05	7.482710e-01,	1.217987e-04	
261	4.073803e+05	7.482710e-01,	1.246358e-04	
262	4.168694e+05	7.482710e-01,	1.275389e-04	
263	4.265795e+05	7.482710e-01,	1.305097e-04	
264	4.365158e+05	7.482710e-01,	1.335497e-04	
265	4.466836e+05	7.482710e-01,	1.366604e-04	
266	4.570882e+05	7.482710e-01,	1.398437e-04	
267	4.677351e+05	7.482710e-01,	1.431010e-04	
268	4.786301e+05	7.482710e-01,	1.464343e-04	
269	4.897788e+05	7.482710e-01,	1.498452e-04	
270	5.011872e+05	7.482710e-01,	1.533355e-04	
271	5.128614e+05	7.482710e-01,	1.569072e-04	
272	5.248075e+05	7.482710e-01,	1.605620e-04	
273	5.370318e+05	7.482711e-01,	1.643020e-04	
274	5.495409e+05	7.482711e-01,	1.681291e-04	
275	5.623413e+05	7.482711e-01,	1.720453e-04	
276	5.754399e+05	7.482711e-01,	1.760527e-04	
277	5.888437e+05	7.482711e-01,	1.801535e-04	
278	6.025596e+05	7.482711e-01,	1.843498e-04	
279	6.165950e+05	7.482711e-01,	1.886439e-04	
280	6.309573e+05	7.482711e-01,	1.930380e-04	
281	6.456542e+05	7.482711e-01,	1.975344e-04	
282	6.606934e+05	7.482711e-01,	2.021356e-04	
283	6.760830e+05	7.482711e-01,	2.068439e-04	
284	6.918310e+05	7.482711e-01,	2.116619e-04	
285	7.079458e+05	7.482711e-01,	2.165922e-04	
286	7.244360e+05	7.482711e-01,	2.216372e-04	

Index   frequency       vop                             
--------------------------------------------------------------------------------
287	7.413102e+05	7.482711e-01,	2.267998e-04	
288	7.585776e+05	7.482711e-01,	2.320827e-04	
289	7.762471e+05	7.482711e-01,	2.374886e-04	
290	7.943282e+05	7.482711e-01,	2.430204e-04	
291	8.128305e+05	7.482711e-01,	2.486811e-04	
292	8.317638e+05	7.482711e-01,	2.544736e-04	
293	8.511380e+05	7.482711e-01,	2.604010e-04	
294	8.709636e+05	7.482711e-01,	2.664665e-04	
295	8.912509e+05	7.482711e-01,	2.726733e-04	
296	9.120108e+05	7.482712e-01,	2.790247e-04	
297	9.332543e+05	7.482712e-01,	2.855240e-04	
298	9.549926e+05	7.482712e-01,	2.921747e-04	
299	9.772372e+05	7.482712e-01,	2.989804e-04	
300	1.000000e+06	7.482712e-01,	3.059445e-04	
301	1.023293e+06	7.482712e-01,	3.130709e-04	
302	1.047129e+06	7.482712e-01,	3.203632e-04	
303	1.071519e+06	7.482712e-01,	3.278254e-04	
304	1.096478e+06	7.482712e-01,	3.354615e-04	
305	1.122018e+06	7.482712e-01,	3.432753e-04	
306	1.148154e+06	7.482712e-01,	3.512712e-04	
307	1.174898e+06	7.482713e-01,	3.594534e-04	
308	1.202264e+06	7.482713e-01,	3.678261e-04	
309	1.230269e+06	7.482713e-01,	3.763939e-04	
310	1.258925e+06	7.482713e-01,	3.851612e-04	
311	1.288250e+06	7.482713e-01,	3.941328e-04	
312	1.318257e+06	7.482713e-01,	4.033133e-04	
313	1.348963e+06	7.482713e-01,	4.127076e-04	
314	1.380384e+06	7.482713e-01,	4.223208e-04	
315	1.412538e+06	7.482714e-01,	4.321579e-04	
316	1.445440e+06	7.482714e-01,	4.422242e-04	
317	1.479108e+06	7.482714e-01,	4.525249e-04	
318	1.513561e+06	7.482714e-01,	4.630655e-04	
319	1.548817e+06	7.482714e-01,	4.738517e-04	
320	1.584893e+06	7.482715e-01,	4.848891e-04	
321	1.621810e+06	7.482715e-01,	4.961836e-04	
322	1.659587e+06	7.482715e-01,	5.077411e-04	
323	1.698244e+06	7.482715e-01,	5.195679e-04	
324	1.737801e+06	7.482715e-01,	5.316702e-04	
325	1.778279e+06	7.482716e-01,	5.440544e-04	
326	1.819701e+06	7.482716e-01,	5.567270e-04	
327	1.862087e+06	7.482716e-01,	5.696948e-04	
328	1.905461e+06	7.482717e-01,	5.829646e-04	
329	1.949845e+06	7.482717e-01,	5.965436e-04	
330	1.995262e+06	7.482717e-01,	6.104388e-04	
331	2.041738e+06	7.482718e-01,	6.246577e-04	
332	2.089296e+06	7.482718e-01,	6.392078e-04	
333	2.137962e+06	7.482718e-01,	6.540968e-04	
334	2.187762e+06	7.482719e-01,	6.693327e-04	
335	2.238721e+06	7.482719e-01,	6.849234e-04	
336	2.290868e+06	7.482720e-01,	7.008772e-04	
337	2.344229e+06	7.482720e-01,	7.172027e-04	
338	2.398833e+06	7.482720e-01,	7.339084e-04	
339	2.454709e+06	7.482721e-01,	7.510032e-04	
340	2.511886e+06	7.482721e-01,	7.684963e-04	
341	2.570396e+06	7.482722e-01,	7.863968e-04	
342	2.630268e+06	7.482723e-01,	8.047142e-04	
343	2.691535e+06	7.482723e-01,	8.234583e-04	
344	2.754229e+06	7.482724e-01,	8.426390e-04	

Index   frequency       vop                             
--------------------------------------------------------------------------------
345	2.818383e+06	7.482724e-01,	8.622664e-04	
346	2.884032e+06	7.482725e-01,	8.823511e-04	
347	2.951209e+06	7.482726e-01,	9.029035e-04	
348	3.019952e+06	7.482727e-01,	9.239347e-04	
349	3.090295e+06	7.482727e-01,	9.454558e-04	
350	3.162278e+06	7.482728e-01,	9.674781e-04	
351	3.235937e+06	7.482729e-01,	9.900134e-04	
352	3.311311e+06	7.482730e-01,	1.013074e-03	
353	3.388442e+06	7.482731e-01,	1.036671e-03	
354	3.467369e+06	7.482732e-01,	1.060818e-03	
355	3.548134e+06	7.482733e-01,	1.085527e-03	
356	3.630781e+06	7.482734e-01,	1.110812e-03	
357	3.715352e+06	7.482735e-01,	1.136686e-03	
358	3.801894e+06	7.482736e-01,	1.163162e-03	
359	3.890451e+06	7.482738e-01,	1.190256e-03	
360	3.981072e+06	7.482739e-01,	1.217980e-03	
361	4.073803e+06	7.482740e-01,	1.246350e-03	
362	4.168694e+06	7.482742e-01,	1.275381e-03	
363	4.265795e+06	7.482743e-01,	1.305088e-03	
364	4.365158e+06	7.482745e-01,	1.335487e-03	
365	4.466836e+06	7.482746e-01,	1.366594e-03	
366	4.570882e+06	7.482748e-01,	1.398425e-03	
367	4.677351e+06	7.482750e-01,	1.430998e-03	
368	4.786301e+06	7.482752e-01,	1.464330e-03	
369	4.897788e+06	7.482754e-01,	1.498438e-03	
370	5.011872e+06	7.482756e-01,	1.533340e-03	
371	5.128614e+06	7.482758e-01,	1.569056e-03	
372	5.248075e+06	7.482760e-01,	1.605603e-03	
373	5.370318e+06	7.482762e-01,	1.643002e-03	
374	5.495409e+06	7.482765e-01,	1.681271e-03	
375	5.623413e+06	7.482768e-01,	1.720432e-03	
376	5.754399e+06	7.482770e-01,	1.760505e-03	
377	5.888437e+06	7.482773e-01,	1.801511e-03	
378	6.025596e+06	7.482776e-01,	1.843473e-03	
379	6.165950e+06	7.482779e-01,	1.886411e-03	
380	6.309573e+06	7.482782e-01,	1.930350e-03	
381	6.456542e+06	7.482786e-01,	1.975312e-03	
382	6.606934e+06	7.482789e-01,	2.021322e-03	
383	6.760830e+06	7.482793e-01,	2.068403e-03	
384	6.918310e+06	7.482797e-01,	2.116580e-03	
385	7.079458e+06	7.482801e-01,	2.165880e-03	
386	7.244360e+06	7.482805e-01,	2.216328e-03	
387	7.413102e+06	7.482810e-01,	2.267950e-03	
388	7.585776e+06	7.482815e-01,	2.320775e-03	
389	7.762471e+06	7.482820e-01,	2.374831e-03	
390	7.943282e+06	7.482825e-01,	2.430145e-03	
391	8.128305e+06	7.482830e-01,	2.486747e-03	
392	8.317638e+06	7.482836e-01,	2.544668e-03	
393	8.511380e+06	7.482842e-01,	2.603938e-03	
394	8.709636e+06	7.482848e-01,	2.664588e-03	
395	8.912509e+06	7.482854e-01,	2.726650e-03	
396	9.120108e+06	7.482861e-01,	2.790158e-03	
397	9.332543e+06	7.482868e-01,	2.855145e-03	
398	9.549926e+06	7.482876e-01,	2.921645e-03	
399	9.772372e+06	7.482884e-01,	2.989694e-03	
400	1.000000e+07	7.482892e-01,	3.059327e-03	
401	1.023293e+07	7.482900e-01,	3.130583e-03	
402	1.047129e+07	7.482909e-01,	3.203497e-03	

Index   frequency       vop                             
--------------------------------------------------------------------------------
403	1.071519e+07	7.482919e-01,	3.278110e-03	
404	1.096478e+07	7.482929e-01,	3.354460e-03	
405	1.122018e+07	7.482939e-01,	3.432587e-03	
406	1.148154e+07	7.482950e-01,	3.512535e-03	
407	1.174898e+07	7.482961e-01,	3.594343e-03	
408	1.202264e+07	7.482973e-01,	3.678057e-03	
409	1.230269e+07	7.482985e-01,	3.763720e-03	
410	1.258925e+07	7.482998e-01,	3.851378e-03	
411	1.288250e+07	7.483012e-01,	3.941076e-03	
412	1.318257e+07	7.483026e-01,	4.032864e-03	
413	1.348963e+07	7.483041e-01,	4.126788e-03	
414	1.380384e+07	7.483056e-01,	4.222899e-03	
415	1.412538e+07	7.483073e-01,	4.321248e-03	
416	1.445440e+07	7.483090e-01,	4.421887e-03	
