** sch_path: /home/andylithia/openmpw/project-reisen-chip1/xschem/ota_wideband.sch
AC Analysis  Sun Oct 30 17:11:03  2022
--------------------------------------------------------------------------------
Index   frequency       vop                             
--------------------------------------------------------------------------------
0	1.000000e+03	3.291813e+00,	-1.04833e-06	
1	1.023293e+03	3.291813e+00,	-1.07275e-06	
2	1.047129e+03	3.291813e+00,	-1.09773e-06	
3	1.071519e+03	3.291813e+00,	-1.12330e-06	
4	1.096478e+03	3.291813e+00,	-1.14947e-06	
5	1.122018e+03	3.291813e+00,	-1.17624e-06	
6	1.148154e+03	3.291813e+00,	-1.20364e-06	
7	1.174898e+03	3.291813e+00,	-1.23168e-06	
8	1.202264e+03	3.291813e+00,	-1.26037e-06	
9	1.230269e+03	3.291813e+00,	-1.28972e-06	
10	1.258925e+03	3.291813e+00,	-1.31977e-06	
11	1.288250e+03	3.291813e+00,	-1.35051e-06	
12	1.318257e+03	3.291813e+00,	-1.38196e-06	
13	1.348963e+03	3.291813e+00,	-1.41415e-06	
14	1.380384e+03	3.291813e+00,	-1.44709e-06	
15	1.412538e+03	3.291813e+00,	-1.48080e-06	
16	1.445440e+03	3.291813e+00,	-1.51529e-06	
17	1.479108e+03	3.291813e+00,	-1.55059e-06	
18	1.513561e+03	3.291813e+00,	-1.58671e-06	
19	1.548817e+03	3.291813e+00,	-1.62367e-06	
20	1.584893e+03	3.291813e+00,	-1.66149e-06	
21	1.621810e+03	3.291813e+00,	-1.70019e-06	
22	1.659587e+03	3.291813e+00,	-1.73979e-06	
23	1.698244e+03	3.291813e+00,	-1.78031e-06	
24	1.737801e+03	3.291813e+00,	-1.82178e-06	
25	1.778279e+03	3.291813e+00,	-1.86422e-06	
26	1.819701e+03	3.291813e+00,	-1.90764e-06	
27	1.862087e+03	3.291813e+00,	-1.95208e-06	
28	1.905461e+03	3.291813e+00,	-1.99755e-06	
29	1.949845e+03	3.291813e+00,	-2.04407e-06	
30	1.995262e+03	3.291813e+00,	-2.09169e-06	
31	2.041738e+03	3.291813e+00,	-2.14041e-06	
32	2.089296e+03	3.291813e+00,	-2.19027e-06	
33	2.137962e+03	3.291813e+00,	-2.24128e-06	
34	2.187762e+03	3.291813e+00,	-2.29349e-06	
35	2.238721e+03	3.291813e+00,	-2.34691e-06	
36	2.290868e+03	3.291813e+00,	-2.40158e-06	
37	2.344229e+03	3.291813e+00,	-2.45752e-06	
38	2.398833e+03	3.291813e+00,	-2.51476e-06	
39	2.454709e+03	3.291813e+00,	-2.57334e-06	
40	2.511886e+03	3.291813e+00,	-2.63328e-06	
41	2.570396e+03	3.291813e+00,	-2.69462e-06	
42	2.630268e+03	3.291813e+00,	-2.75738e-06	
43	2.691535e+03	3.291813e+00,	-2.82161e-06	
44	2.754229e+03	3.291813e+00,	-2.88733e-06	
45	2.818383e+03	3.291813e+00,	-2.95459e-06	
46	2.884032e+03	3.291813e+00,	-3.02341e-06	
47	2.951209e+03	3.291813e+00,	-3.09383e-06	
48	3.019952e+03	3.291813e+00,	-3.16590e-06	
49	3.090295e+03	3.291813e+00,	-3.23964e-06	
50	3.162278e+03	3.291813e+00,	-3.31510e-06	
51	3.235937e+03	3.291813e+00,	-3.39232e-06	
52	3.311311e+03	3.291813e+00,	-3.47134e-06	
53	3.388442e+03	3.291813e+00,	-3.55219e-06	
54	3.467369e+03	3.291813e+00,	-3.63494e-06	

Index   frequency       vop                             
--------------------------------------------------------------------------------
55	3.548134e+03	3.291813e+00,	-3.71960e-06	
56	3.630781e+03	3.291813e+00,	-3.80625e-06	
57	3.715352e+03	3.291813e+00,	-3.89490e-06	
58	3.801894e+03	3.291813e+00,	-3.98563e-06	
59	3.890451e+03	3.291813e+00,	-4.07847e-06	
60	3.981072e+03	3.291813e+00,	-4.17347e-06	
61	4.073803e+03	3.291813e+00,	-4.27068e-06	
62	4.168694e+03	3.291813e+00,	-4.37015e-06	
63	4.265795e+03	3.291813e+00,	-4.47195e-06	
64	4.365158e+03	3.291813e+00,	-4.57611e-06	
65	4.466836e+03	3.291813e+00,	-4.68270e-06	
66	4.570882e+03	3.291813e+00,	-4.79178e-06	
67	4.677351e+03	3.291813e+00,	-4.90339e-06	
68	4.786301e+03	3.291813e+00,	-5.01761e-06	
69	4.897788e+03	3.291813e+00,	-5.13448e-06	
70	5.011872e+03	3.291813e+00,	-5.25408e-06	
71	5.128614e+03	3.291813e+00,	-5.37646e-06	
72	5.248075e+03	3.291813e+00,	-5.50170e-06	
73	5.370318e+03	3.291813e+00,	-5.62985e-06	
74	5.495409e+03	3.291813e+00,	-5.76099e-06	
75	5.623413e+03	3.291813e+00,	-5.89518e-06	
76	5.754399e+03	3.291813e+00,	-6.03249e-06	
77	5.888437e+03	3.291813e+00,	-6.17301e-06	
78	6.025596e+03	3.291813e+00,	-6.31680e-06	
79	6.165950e+03	3.291813e+00,	-6.46393e-06	
80	6.309573e+03	3.291813e+00,	-6.61450e-06	
81	6.456542e+03	3.291813e+00,	-6.76857e-06	
82	6.606934e+03	3.291813e+00,	-6.92623e-06	
83	6.760830e+03	3.291813e+00,	-7.08756e-06	
84	6.918310e+03	3.291813e+00,	-7.25265e-06	
85	7.079458e+03	3.291813e+00,	-7.42159e-06	
86	7.244360e+03	3.291813e+00,	-7.59446e-06	
87	7.413102e+03	3.291813e+00,	-7.77136e-06	
88	7.585776e+03	3.291813e+00,	-7.95237e-06	
89	7.762471e+03	3.291813e+00,	-8.13761e-06	
90	7.943282e+03	3.291813e+00,	-8.32716e-06	
91	8.128305e+03	3.291813e+00,	-8.52112e-06	
92	8.317638e+03	3.291813e+00,	-8.71960e-06	
93	8.511380e+03	3.291813e+00,	-8.92271e-06	
94	8.709636e+03	3.291813e+00,	-9.13055e-06	
95	8.912509e+03	3.291813e+00,	-9.34322e-06	
96	9.120108e+03	3.291813e+00,	-9.56086e-06	
97	9.332543e+03	3.291813e+00,	-9.78356e-06	
98	9.549926e+03	3.291813e+00,	-1.00114e-05	
99	9.772372e+03	3.291813e+00,	-1.02446e-05	
100	1.000000e+04	3.291813e+00,	-1.04833e-05	
101	1.023293e+04	3.291813e+00,	-1.07275e-05	
102	1.047129e+04	3.291813e+00,	-1.09773e-05	
103	1.071519e+04	3.291813e+00,	-1.12330e-05	
104	1.096478e+04	3.291813e+00,	-1.14947e-05	
105	1.122018e+04	3.291813e+00,	-1.17624e-05	
106	1.148154e+04	3.291813e+00,	-1.20364e-05	
107	1.174898e+04	3.291813e+00,	-1.23168e-05	
108	1.202264e+04	3.291813e+00,	-1.26037e-05	
109	1.230269e+04	3.291813e+00,	-1.28972e-05	
110	1.258925e+04	3.291813e+00,	-1.31977e-05	
111	1.288250e+04	3.291813e+00,	-1.35051e-05	
112	1.318257e+04	3.291813e+00,	-1.38196e-05	

Index   frequency       vop                             
--------------------------------------------------------------------------------
113	1.348963e+04	3.291813e+00,	-1.41415e-05	
114	1.380384e+04	3.291813e+00,	-1.44709e-05	
115	1.412538e+04	3.291813e+00,	-1.48080e-05	
116	1.445440e+04	3.291813e+00,	-1.51529e-05	
117	1.479108e+04	3.291813e+00,	-1.55059e-05	
118	1.513561e+04	3.291813e+00,	-1.58671e-05	
119	1.548817e+04	3.291813e+00,	-1.62367e-05	
120	1.584893e+04	3.291813e+00,	-1.66149e-05	
121	1.621810e+04	3.291813e+00,	-1.70019e-05	
122	1.659587e+04	3.291813e+00,	-1.73979e-05	
123	1.698244e+04	3.291813e+00,	-1.78031e-05	
124	1.737801e+04	3.291813e+00,	-1.82178e-05	
125	1.778279e+04	3.291813e+00,	-1.86422e-05	
126	1.819701e+04	3.291813e+00,	-1.90764e-05	
127	1.862087e+04	3.291813e+00,	-1.95208e-05	
128	1.905461e+04	3.291813e+00,	-1.99755e-05	
129	1.949845e+04	3.291813e+00,	-2.04407e-05	
130	1.995262e+04	3.291813e+00,	-2.09169e-05	
131	2.041738e+04	3.291813e+00,	-2.14041e-05	
132	2.089296e+04	3.291813e+00,	-2.19027e-05	
133	2.137962e+04	3.291813e+00,	-2.24128e-05	
134	2.187762e+04	3.291813e+00,	-2.29349e-05	
135	2.238721e+04	3.291813e+00,	-2.34691e-05	
136	2.290868e+04	3.291813e+00,	-2.40158e-05	
137	2.344229e+04	3.291813e+00,	-2.45752e-05	
138	2.398833e+04	3.291813e+00,	-2.51476e-05	
139	2.454709e+04	3.291813e+00,	-2.57334e-05	
140	2.511886e+04	3.291813e+00,	-2.63328e-05	
141	2.570396e+04	3.291813e+00,	-2.69462e-05	
142	2.630268e+04	3.291813e+00,	-2.75738e-05	
143	2.691535e+04	3.291813e+00,	-2.82161e-05	
144	2.754229e+04	3.291813e+00,	-2.88733e-05	
145	2.818383e+04	3.291813e+00,	-2.95459e-05	
146	2.884032e+04	3.291813e+00,	-3.02341e-05	
147	2.951209e+04	3.291813e+00,	-3.09383e-05	
148	3.019952e+04	3.291813e+00,	-3.16590e-05	
149	3.090295e+04	3.291813e+00,	-3.23964e-05	
150	3.162278e+04	3.291813e+00,	-3.31510e-05	
151	3.235937e+04	3.291813e+00,	-3.39232e-05	
152	3.311311e+04	3.291813e+00,	-3.47134e-05	
153	3.388442e+04	3.291813e+00,	-3.55219e-05	
154	3.467369e+04	3.291813e+00,	-3.63494e-05	
155	3.548134e+04	3.291813e+00,	-3.71960e-05	
156	3.630781e+04	3.291813e+00,	-3.80625e-05	
157	3.715352e+04	3.291813e+00,	-3.89490e-05	
158	3.801894e+04	3.291813e+00,	-3.98563e-05	
159	3.890451e+04	3.291813e+00,	-4.07847e-05	
160	3.981072e+04	3.291813e+00,	-4.17347e-05	
161	4.073803e+04	3.291813e+00,	-4.27068e-05	
162	4.168694e+04	3.291813e+00,	-4.37015e-05	
163	4.265795e+04	3.291813e+00,	-4.47195e-05	
164	4.365158e+04	3.291813e+00,	-4.57611e-05	
165	4.466836e+04	3.291813e+00,	-4.68270e-05	
166	4.570882e+04	3.291813e+00,	-4.79178e-05	
167	4.677351e+04	3.291813e+00,	-4.90339e-05	
168	4.786301e+04	3.291813e+00,	-5.01761e-05	
169	4.897788e+04	3.291813e+00,	-5.13448e-05	
170	5.011872e+04	3.291813e+00,	-5.25408e-05	

Index   frequency       vop                             
--------------------------------------------------------------------------------
171	5.128614e+04	3.291813e+00,	-5.37646e-05	
172	5.248075e+04	3.291813e+00,	-5.50170e-05	
173	5.370318e+04	3.291813e+00,	-5.62985e-05	
174	5.495409e+04	3.291813e+00,	-5.76099e-05	
175	5.623413e+04	3.291813e+00,	-5.89518e-05	
176	5.754399e+04	3.291813e+00,	-6.03249e-05	
177	5.888437e+04	3.291813e+00,	-6.17301e-05	
178	6.025596e+04	3.291813e+00,	-6.31679e-05	
179	6.165950e+04	3.291813e+00,	-6.46393e-05	
180	6.309573e+04	3.291813e+00,	-6.61450e-05	
181	6.456542e+04	3.291813e+00,	-6.76857e-05	
182	6.606934e+04	3.291813e+00,	-6.92623e-05	
183	6.760830e+04	3.291813e+00,	-7.08756e-05	
184	6.918310e+04	3.291813e+00,	-7.25265e-05	
185	7.079458e+04	3.291813e+00,	-7.42159e-05	
186	7.244360e+04	3.291813e+00,	-7.59446e-05	
187	7.413102e+04	3.291813e+00,	-7.77136e-05	
188	7.585776e+04	3.291813e+00,	-7.95237e-05	
189	7.762471e+04	3.291813e+00,	-8.13761e-05	
190	7.943282e+04	3.291813e+00,	-8.32716e-05	
191	8.128305e+04	3.291813e+00,	-8.52112e-05	
192	8.317638e+04	3.291813e+00,	-8.71960e-05	
193	8.511380e+04	3.291813e+00,	-8.92271e-05	
194	8.709636e+04	3.291813e+00,	-9.13055e-05	
195	8.912509e+04	3.291813e+00,	-9.34322e-05	
196	9.120108e+04	3.291813e+00,	-9.56086e-05	
197	9.332543e+04	3.291813e+00,	-9.78356e-05	
198	9.549926e+04	3.291813e+00,	-1.00114e-04	
199	9.772372e+04	3.291813e+00,	-1.02446e-04	
200	1.000000e+05	3.291813e+00,	-1.04833e-04	
201	1.023293e+05	3.291813e+00,	-1.07275e-04	
202	1.047129e+05	3.291813e+00,	-1.09773e-04	
203	1.071519e+05	3.291813e+00,	-1.12330e-04	
204	1.096478e+05	3.291813e+00,	-1.14947e-04	
205	1.122018e+05	3.291813e+00,	-1.17624e-04	
206	1.148154e+05	3.291813e+00,	-1.20364e-04	
207	1.174898e+05	3.291813e+00,	-1.23168e-04	
208	1.202264e+05	3.291813e+00,	-1.26037e-04	
209	1.230269e+05	3.291813e+00,	-1.28972e-04	
210	1.258925e+05	3.291813e+00,	-1.31977e-04	
211	1.288250e+05	3.291813e+00,	-1.35051e-04	
212	1.318257e+05	3.291813e+00,	-1.38196e-04	
213	1.348963e+05	3.291813e+00,	-1.41415e-04	
214	1.380384e+05	3.291813e+00,	-1.44709e-04	
215	1.412538e+05	3.291813e+00,	-1.48080e-04	
216	1.445440e+05	3.291813e+00,	-1.51529e-04	
217	1.479108e+05	3.291813e+00,	-1.55059e-04	
218	1.513561e+05	3.291813e+00,	-1.58671e-04	
219	1.548817e+05	3.291813e+00,	-1.62367e-04	
220	1.584893e+05	3.291813e+00,	-1.66149e-04	
221	1.621810e+05	3.291813e+00,	-1.70019e-04	
222	1.659587e+05	3.291813e+00,	-1.73979e-04	
223	1.698244e+05	3.291813e+00,	-1.78031e-04	
224	1.737801e+05	3.291813e+00,	-1.82178e-04	
225	1.778279e+05	3.291813e+00,	-1.86422e-04	
226	1.819701e+05	3.291813e+00,	-1.90764e-04	
227	1.862087e+05	3.291813e+00,	-1.95208e-04	
228	1.905461e+05	3.291813e+00,	-1.99755e-04	

Index   frequency       vop                             
--------------------------------------------------------------------------------
229	1.949845e+05	3.291813e+00,	-2.04407e-04	
230	1.995262e+05	3.291813e+00,	-2.09169e-04	
231	2.041738e+05	3.291813e+00,	-2.14041e-04	
232	2.089296e+05	3.291813e+00,	-2.19027e-04	
233	2.137962e+05	3.291813e+00,	-2.24128e-04	
234	2.187762e+05	3.291813e+00,	-2.29349e-04	
235	2.238721e+05	3.291813e+00,	-2.34691e-04	
236	2.290868e+05	3.291813e+00,	-2.40158e-04	
237	2.344229e+05	3.291813e+00,	-2.45752e-04	
238	2.398833e+05	3.291813e+00,	-2.51476e-04	
239	2.454709e+05	3.291813e+00,	-2.57334e-04	
240	2.511886e+05	3.291813e+00,	-2.63328e-04	
241	2.570396e+05	3.291813e+00,	-2.69461e-04	
242	2.630268e+05	3.291813e+00,	-2.75738e-04	
243	2.691535e+05	3.291813e+00,	-2.82161e-04	
244	2.754229e+05	3.291813e+00,	-2.88733e-04	
245	2.818383e+05	3.291813e+00,	-2.95459e-04	
246	2.884032e+05	3.291813e+00,	-3.02341e-04	
247	2.951209e+05	3.291813e+00,	-3.09383e-04	
248	3.019952e+05	3.291813e+00,	-3.16590e-04	
249	3.090295e+05	3.291813e+00,	-3.23964e-04	
250	3.162278e+05	3.291813e+00,	-3.31510e-04	
251	3.235937e+05	3.291813e+00,	-3.39232e-04	
252	3.311311e+05	3.291813e+00,	-3.47134e-04	
253	3.388442e+05	3.291813e+00,	-3.55219e-04	
254	3.467369e+05	3.291813e+00,	-3.63493e-04	
255	3.548134e+05	3.291813e+00,	-3.71960e-04	
256	3.630781e+05	3.291813e+00,	-3.80624e-04	
257	3.715352e+05	3.291813e+00,	-3.89490e-04	
258	3.801894e+05	3.291813e+00,	-3.98563e-04	
259	3.890451e+05	3.291813e+00,	-4.07846e-04	
260	3.981072e+05	3.291813e+00,	-4.17346e-04	
261	4.073803e+05	3.291813e+00,	-4.27068e-04	
262	4.168694e+05	3.291813e+00,	-4.37015e-04	
263	4.265795e+05	3.291813e+00,	-4.47195e-04	
264	4.365158e+05	3.291813e+00,	-4.57611e-04	
265	4.466836e+05	3.291813e+00,	-4.68270e-04	
266	4.570882e+05	3.291814e+00,	-4.79178e-04	
267	4.677351e+05	3.291814e+00,	-4.90339e-04	
268	4.786301e+05	3.291814e+00,	-5.01761e-04	
269	4.897788e+05	3.291814e+00,	-5.13448e-04	
270	5.011872e+05	3.291814e+00,	-5.25408e-04	
271	5.128614e+05	3.291814e+00,	-5.37646e-04	
272	5.248075e+05	3.291814e+00,	-5.50169e-04	
273	5.370318e+05	3.291814e+00,	-5.62984e-04	
274	5.495409e+05	3.291814e+00,	-5.76098e-04	
275	5.623413e+05	3.291814e+00,	-5.89517e-04	
276	5.754399e+05	3.291814e+00,	-6.03249e-04	
277	5.888437e+05	3.291814e+00,	-6.17300e-04	
278	6.025596e+05	3.291814e+00,	-6.31679e-04	
279	6.165950e+05	3.291814e+00,	-6.46392e-04	
280	6.309573e+05	3.291814e+00,	-6.61449e-04	
281	6.456542e+05	3.291814e+00,	-6.76856e-04	
282	6.606934e+05	3.291814e+00,	-6.92622e-04	
283	6.760830e+05	3.291814e+00,	-7.08755e-04	
284	6.918310e+05	3.291814e+00,	-7.25264e-04	
285	7.079458e+05	3.291814e+00,	-7.42158e-04	
286	7.244360e+05	3.291814e+00,	-7.59445e-04	

Index   frequency       vop                             
--------------------------------------------------------------------------------
287	7.413102e+05	3.291814e+00,	-7.77134e-04	
288	7.585776e+05	3.291814e+00,	-7.95236e-04	
289	7.762471e+05	3.291814e+00,	-8.13759e-04	
290	7.943282e+05	3.291814e+00,	-8.32714e-04	
291	8.128305e+05	3.291814e+00,	-8.52110e-04	
292	8.317638e+05	3.291814e+00,	-8.71959e-04	
293	8.511380e+05	3.291814e+00,	-8.92269e-04	
294	8.709636e+05	3.291814e+00,	-9.13053e-04	
295	8.912509e+05	3.291814e+00,	-9.34320e-04	
296	9.120108e+05	3.291814e+00,	-9.56083e-04	
297	9.332543e+05	3.291814e+00,	-9.78353e-04	
298	9.549926e+05	3.291814e+00,	-1.00114e-03	
299	9.772372e+05	3.291814e+00,	-1.02446e-03	
300	1.000000e+06	3.291814e+00,	-1.04832e-03	
301	1.023293e+06	3.291814e+00,	-1.07274e-03	
302	1.047129e+06	3.291814e+00,	-1.09773e-03	
303	1.071519e+06	3.291814e+00,	-1.12330e-03	
304	1.096478e+06	3.291815e+00,	-1.14946e-03	
305	1.122018e+06	3.291815e+00,	-1.17624e-03	
306	1.148154e+06	3.291815e+00,	-1.20364e-03	
307	1.174898e+06	3.291815e+00,	-1.23167e-03	
308	1.202264e+06	3.291815e+00,	-1.26036e-03	
309	1.230269e+06	3.291815e+00,	-1.28972e-03	
310	1.258925e+06	3.291815e+00,	-1.31976e-03	
311	1.288250e+06	3.291815e+00,	-1.35050e-03	
312	1.318257e+06	3.291815e+00,	-1.38196e-03	
313	1.348963e+06	3.291815e+00,	-1.41415e-03	
314	1.380384e+06	3.291815e+00,	-1.44709e-03	
315	1.412538e+06	3.291815e+00,	-1.48079e-03	
316	1.445440e+06	3.291815e+00,	-1.51528e-03	
317	1.479108e+06	3.291816e+00,	-1.55058e-03	
318	1.513561e+06	3.291816e+00,	-1.58670e-03	
319	1.548817e+06	3.291816e+00,	-1.62365e-03	
320	1.584893e+06	3.291816e+00,	-1.66147e-03	
321	1.621810e+06	3.291816e+00,	-1.70017e-03	
322	1.659587e+06	3.291816e+00,	-1.73978e-03	
323	1.698244e+06	3.291816e+00,	-1.78030e-03	
324	1.737801e+06	3.291816e+00,	-1.82177e-03	
325	1.778279e+06	3.291817e+00,	-1.86420e-03	
326	1.819701e+06	3.291817e+00,	-1.90762e-03	
327	1.862087e+06	3.291817e+00,	-1.95206e-03	
328	1.905461e+06	3.291817e+00,	-1.99752e-03	
329	1.949845e+06	3.291817e+00,	-2.04405e-03	
330	1.995262e+06	3.291817e+00,	-2.09166e-03	
331	2.041738e+06	3.291818e+00,	-2.14038e-03	
332	2.089296e+06	3.291818e+00,	-2.19024e-03	
333	2.137962e+06	3.291818e+00,	-2.24125e-03	
334	2.187762e+06	3.291818e+00,	-2.29346e-03	
335	2.238721e+06	3.291819e+00,	-2.34688e-03	
336	2.290868e+06	3.291819e+00,	-2.40154e-03	
337	2.344229e+06	3.291819e+00,	-2.45748e-03	
338	2.398833e+06	3.291819e+00,	-2.51472e-03	
339	2.454709e+06	3.291820e+00,	-2.57329e-03	
340	2.511886e+06	3.291820e+00,	-2.63323e-03	
341	2.570396e+06	3.291820e+00,	-2.69456e-03	
342	2.630268e+06	3.291821e+00,	-2.75732e-03	
343	2.691535e+06	3.291821e+00,	-2.82155e-03	
344	2.754229e+06	3.291821e+00,	-2.88726e-03	

Index   frequency       vop                             
--------------------------------------------------------------------------------
345	2.818383e+06	3.291822e+00,	-2.95451e-03	
346	2.884032e+06	3.291822e+00,	-3.02333e-03	
347	2.951209e+06	3.291822e+00,	-3.09375e-03	
348	3.019952e+06	3.291823e+00,	-3.16581e-03	
349	3.090295e+06	3.291823e+00,	-3.23955e-03	
350	3.162278e+06	3.291824e+00,	-3.31500e-03	
351	3.235937e+06	3.291824e+00,	-3.39221e-03	
352	3.311311e+06	3.291825e+00,	-3.47122e-03	
353	3.388442e+06	3.291825e+00,	-3.55207e-03	
354	3.467369e+06	3.291826e+00,	-3.63480e-03	
355	3.548134e+06	3.291826e+00,	-3.71946e-03	
356	3.630781e+06	3.291827e+00,	-3.80609e-03	
357	3.715352e+06	3.291828e+00,	-3.89474e-03	
358	3.801894e+06	3.291828e+00,	-3.98545e-03	
359	3.890451e+06	3.291829e+00,	-4.07828e-03	
360	3.981072e+06	3.291830e+00,	-4.17326e-03	
361	4.073803e+06	3.291831e+00,	-4.27046e-03	
362	4.168694e+06	3.291832e+00,	-4.36992e-03	
363	4.265795e+06	3.291832e+00,	-4.47170e-03	
364	4.365158e+06	3.291833e+00,	-4.57585e-03	
365	4.466836e+06	3.291834e+00,	-4.68242e-03	
366	4.570882e+06	3.291835e+00,	-4.79147e-03	
367	4.677351e+06	3.291836e+00,	-4.90307e-03	
368	4.786301e+06	3.291837e+00,	-5.01726e-03	
369	4.897788e+06	3.291838e+00,	-5.13411e-03	
370	5.011872e+06	3.291840e+00,	-5.25368e-03	
371	5.128614e+06	3.291841e+00,	-5.37603e-03	
372	5.248075e+06	3.291842e+00,	-5.50124e-03	
373	5.370318e+06	3.291844e+00,	-5.62936e-03	
374	5.495409e+06	3.291845e+00,	-5.76046e-03	
375	5.623413e+06	3.291847e+00,	-5.89461e-03	
376	5.754399e+06	3.291848e+00,	-6.03189e-03	
377	5.888437e+06	3.291850e+00,	-6.17236e-03	
378	6.025596e+06	3.291851e+00,	-6.31610e-03	
379	6.165950e+06	3.291853e+00,	-6.46319e-03	
380	6.309573e+06	3.291855e+00,	-6.61370e-03	
381	6.456542e+06	3.291857e+00,	-6.76772e-03	
382	6.606934e+06	3.291859e+00,	-6.92532e-03	
383	6.760830e+06	3.291861e+00,	-7.08659e-03	
384	6.918310e+06	3.291864e+00,	-7.25161e-03	
385	7.079458e+06	3.291866e+00,	-7.42047e-03	
386	7.244360e+06	3.291869e+00,	-7.59326e-03	
387	7.413102e+06	3.291871e+00,	-7.77008e-03	
388	7.585776e+06	3.291874e+00,	-7.95101e-03	
389	7.762471e+06	3.291877e+00,	-8.13614e-03	
390	7.943282e+06	3.291880e+00,	-8.32559e-03	
391	8.128305e+06	3.291883e+00,	-8.51945e-03	
392	8.317638e+06	3.291886e+00,	-8.71781e-03	
393	8.511380e+06	3.291890e+00,	-8.92079e-03	
394	8.709636e+06	3.291893e+00,	-9.12850e-03	
395	8.912509e+06	3.291897e+00,	-9.34103e-03	
396	9.120108e+06	3.291901e+00,	-9.55851e-03	
397	9.332543e+06	3.291905e+00,	-9.78105e-03	
398	9.549926e+06	3.291910e+00,	-1.00088e-02	
399	9.772372e+06	3.291914e+00,	-1.02418e-02	
400	1.000000e+07	3.291919e+00,	-1.04802e-02	
401	1.023293e+07	3.291924e+00,	-1.07242e-02	
402	1.047129e+07	3.291930e+00,	-1.09738e-02	

Index   frequency       vop                             
--------------------------------------------------------------------------------
403	1.071519e+07	3.291935e+00,	-1.12293e-02	
404	1.096478e+07	3.291941e+00,	-1.14907e-02	
405	1.122018e+07	3.291947e+00,	-1.17582e-02	
406	1.148154e+07	3.291953e+00,	-1.20319e-02	
407	1.174898e+07	3.291960e+00,	-1.23119e-02	
408	1.202264e+07	3.291967e+00,	-1.25985e-02	
409	1.230269e+07	3.291974e+00,	-1.28917e-02	
410	1.258925e+07	3.291982e+00,	-1.31918e-02	
411	1.288250e+07	3.291990e+00,	-1.34988e-02	
412	1.318257e+07	3.291999e+00,	-1.38129e-02	
413	1.348963e+07	3.292008e+00,	-1.41344e-02	
414	1.380384e+07	3.292017e+00,	-1.44633e-02	
415	1.412538e+07	3.292027e+00,	-1.47999e-02	
416	1.445440e+07	3.292037e+00,	-1.51443e-02	
