** sch_path: /home/andylithia/openmpw/project-reisen-chip1/xschem/ota_wideband.sch
AC Analysis  Sun Oct 30 17:11:03  2022
--------------------------------------------------------------------------------
Index   frequency       vop                             
--------------------------------------------------------------------------------
0	1.000000e+03	3.542107e+00,	-1.89722e-06	
1	1.023293e+03	3.542107e+00,	-1.94142e-06	
2	1.047129e+03	3.542107e+00,	-1.98664e-06	
3	1.071519e+03	3.542107e+00,	-2.03291e-06	
4	1.096478e+03	3.542107e+00,	-2.08026e-06	
5	1.122018e+03	3.542107e+00,	-2.12872e-06	
6	1.148154e+03	3.542107e+00,	-2.17830e-06	
7	1.174898e+03	3.542107e+00,	-2.22904e-06	
8	1.202264e+03	3.542107e+00,	-2.28096e-06	
9	1.230269e+03	3.542107e+00,	-2.33409e-06	
10	1.258925e+03	3.542107e+00,	-2.38846e-06	
11	1.288250e+03	3.542107e+00,	-2.44410e-06	
12	1.318257e+03	3.542107e+00,	-2.50103e-06	
13	1.348963e+03	3.542107e+00,	-2.55928e-06	
14	1.380384e+03	3.542107e+00,	-2.61890e-06	
15	1.412538e+03	3.542107e+00,	-2.67990e-06	
16	1.445440e+03	3.542107e+00,	-2.74232e-06	
17	1.479108e+03	3.542107e+00,	-2.80620e-06	
18	1.513561e+03	3.542107e+00,	-2.87156e-06	
19	1.548817e+03	3.542107e+00,	-2.93845e-06	
20	1.584893e+03	3.542107e+00,	-3.00690e-06	
21	1.621810e+03	3.542107e+00,	-3.07694e-06	
22	1.659587e+03	3.542107e+00,	-3.14861e-06	
23	1.698244e+03	3.542107e+00,	-3.22195e-06	
24	1.737801e+03	3.542107e+00,	-3.29700e-06	
25	1.778279e+03	3.542107e+00,	-3.37379e-06	
26	1.819701e+03	3.542107e+00,	-3.45238e-06	
27	1.862087e+03	3.542107e+00,	-3.53279e-06	
28	1.905461e+03	3.542107e+00,	-3.61508e-06	
29	1.949845e+03	3.542107e+00,	-3.69929e-06	
30	1.995262e+03	3.542107e+00,	-3.78546e-06	
31	2.041738e+03	3.542107e+00,	-3.87363e-06	
32	2.089296e+03	3.542107e+00,	-3.96386e-06	
33	2.137962e+03	3.542107e+00,	-4.05619e-06	
34	2.187762e+03	3.542107e+00,	-4.15067e-06	
35	2.238721e+03	3.542107e+00,	-4.24735e-06	
36	2.290868e+03	3.542107e+00,	-4.34629e-06	
37	2.344229e+03	3.542107e+00,	-4.44753e-06	
38	2.398833e+03	3.542107e+00,	-4.55112e-06	
39	2.454709e+03	3.542107e+00,	-4.65713e-06	
40	2.511886e+03	3.542107e+00,	-4.76561e-06	
41	2.570396e+03	3.542107e+00,	-4.87661e-06	
42	2.630268e+03	3.542107e+00,	-4.99021e-06	
43	2.691535e+03	3.542107e+00,	-5.10644e-06	
44	2.754229e+03	3.542107e+00,	-5.22539e-06	
45	2.818383e+03	3.542107e+00,	-5.34710e-06	
46	2.884032e+03	3.542107e+00,	-5.47165e-06	
47	2.951209e+03	3.542107e+00,	-5.59910e-06	
48	3.019952e+03	3.542107e+00,	-5.72952e-06	
49	3.090295e+03	3.542107e+00,	-5.86298e-06	
50	3.162278e+03	3.542107e+00,	-5.99955e-06	
51	3.235937e+03	3.542107e+00,	-6.13929e-06	
52	3.311311e+03	3.542107e+00,	-6.28230e-06	
53	3.388442e+03	3.542107e+00,	-6.42863e-06	
54	3.467369e+03	3.542107e+00,	-6.57837e-06	

Index   frequency       vop                             
--------------------------------------------------------------------------------
55	3.548134e+03	3.542107e+00,	-6.73160e-06	
56	3.630781e+03	3.542107e+00,	-6.88840e-06	
57	3.715352e+03	3.542107e+00,	-7.04885e-06	
58	3.801894e+03	3.542107e+00,	-7.21304e-06	
59	3.890451e+03	3.542107e+00,	-7.38105e-06	
60	3.981072e+03	3.542107e+00,	-7.55298e-06	
61	4.073803e+03	3.542107e+00,	-7.72891e-06	
62	4.168694e+03	3.542107e+00,	-7.90894e-06	
63	4.265795e+03	3.542107e+00,	-8.09317e-06	
64	4.365158e+03	3.542107e+00,	-8.28168e-06	
65	4.466836e+03	3.542107e+00,	-8.47458e-06	
66	4.570882e+03	3.542107e+00,	-8.67198e-06	
67	4.677351e+03	3.542107e+00,	-8.87398e-06	
68	4.786301e+03	3.542107e+00,	-9.08068e-06	
69	4.897788e+03	3.542107e+00,	-9.29220e-06	
70	5.011872e+03	3.542107e+00,	-9.50864e-06	
71	5.128614e+03	3.542107e+00,	-9.73012e-06	
72	5.248075e+03	3.542107e+00,	-9.95677e-06	
73	5.370318e+03	3.542107e+00,	-1.01887e-05	
74	5.495409e+03	3.542107e+00,	-1.04260e-05	
75	5.623413e+03	3.542107e+00,	-1.06689e-05	
76	5.754399e+03	3.542107e+00,	-1.09174e-05	
77	5.888437e+03	3.542107e+00,	-1.11717e-05	
78	6.025596e+03	3.542107e+00,	-1.14319e-05	
79	6.165950e+03	3.542107e+00,	-1.16982e-05	
80	6.309573e+03	3.542107e+00,	-1.19707e-05	
81	6.456542e+03	3.542107e+00,	-1.22495e-05	
82	6.606934e+03	3.542107e+00,	-1.25348e-05	
83	6.760830e+03	3.542107e+00,	-1.28268e-05	
84	6.918310e+03	3.542107e+00,	-1.31256e-05	
85	7.079458e+03	3.542107e+00,	-1.34313e-05	
86	7.244360e+03	3.542107e+00,	-1.37442e-05	
87	7.413102e+03	3.542107e+00,	-1.40643e-05	
88	7.585776e+03	3.542107e+00,	-1.43919e-05	
89	7.762471e+03	3.542107e+00,	-1.47271e-05	
90	7.943282e+03	3.542107e+00,	-1.50702e-05	
91	8.128305e+03	3.542107e+00,	-1.54212e-05	
92	8.317638e+03	3.542107e+00,	-1.57804e-05	
93	8.511380e+03	3.542107e+00,	-1.61480e-05	
94	8.709636e+03	3.542107e+00,	-1.65241e-05	
95	8.912509e+03	3.542107e+00,	-1.69090e-05	
96	9.120108e+03	3.542107e+00,	-1.73029e-05	
97	9.332543e+03	3.542107e+00,	-1.77059e-05	
98	9.549926e+03	3.542107e+00,	-1.81183e-05	
99	9.772372e+03	3.542107e+00,	-1.85404e-05	
100	1.000000e+04	3.542107e+00,	-1.89722e-05	
101	1.023293e+04	3.542107e+00,	-1.94142e-05	
102	1.047129e+04	3.542107e+00,	-1.98664e-05	
103	1.071519e+04	3.542107e+00,	-2.03291e-05	
104	1.096478e+04	3.542107e+00,	-2.08026e-05	
105	1.122018e+04	3.542107e+00,	-2.12872e-05	
106	1.148154e+04	3.542107e+00,	-2.17830e-05	
107	1.174898e+04	3.542107e+00,	-2.22904e-05	
108	1.202264e+04	3.542107e+00,	-2.28096e-05	
109	1.230269e+04	3.542107e+00,	-2.33409e-05	
110	1.258925e+04	3.542107e+00,	-2.38846e-05	
111	1.288250e+04	3.542107e+00,	-2.44410e-05	
112	1.318257e+04	3.542107e+00,	-2.50103e-05	

Index   frequency       vop                             
--------------------------------------------------------------------------------
113	1.348963e+04	3.542107e+00,	-2.55928e-05	
114	1.380384e+04	3.542107e+00,	-2.61890e-05	
115	1.412538e+04	3.542107e+00,	-2.67990e-05	
116	1.445440e+04	3.542107e+00,	-2.74232e-05	
117	1.479108e+04	3.542107e+00,	-2.80620e-05	
118	1.513561e+04	3.542107e+00,	-2.87156e-05	
119	1.548817e+04	3.542107e+00,	-2.93845e-05	
120	1.584893e+04	3.542107e+00,	-3.00690e-05	
121	1.621810e+04	3.542107e+00,	-3.07694e-05	
122	1.659587e+04	3.542107e+00,	-3.14861e-05	
123	1.698244e+04	3.542107e+00,	-3.22195e-05	
124	1.737801e+04	3.542107e+00,	-3.29700e-05	
125	1.778279e+04	3.542107e+00,	-3.37379e-05	
126	1.819701e+04	3.542107e+00,	-3.45238e-05	
127	1.862087e+04	3.542107e+00,	-3.53279e-05	
128	1.905461e+04	3.542107e+00,	-3.61508e-05	
129	1.949845e+04	3.542107e+00,	-3.69929e-05	
130	1.995262e+04	3.542107e+00,	-3.78546e-05	
131	2.041738e+04	3.542107e+00,	-3.87363e-05	
132	2.089296e+04	3.542107e+00,	-3.96386e-05	
133	2.137962e+04	3.542107e+00,	-4.05619e-05	
134	2.187762e+04	3.542107e+00,	-4.15067e-05	
135	2.238721e+04	3.542107e+00,	-4.24735e-05	
136	2.290868e+04	3.542107e+00,	-4.34629e-05	
137	2.344229e+04	3.542107e+00,	-4.44753e-05	
138	2.398833e+04	3.542107e+00,	-4.55112e-05	
139	2.454709e+04	3.542107e+00,	-4.65713e-05	
140	2.511886e+04	3.542107e+00,	-4.76561e-05	
141	2.570396e+04	3.542107e+00,	-4.87661e-05	
142	2.630268e+04	3.542107e+00,	-4.99021e-05	
143	2.691535e+04	3.542107e+00,	-5.10644e-05	
144	2.754229e+04	3.542107e+00,	-5.22539e-05	
145	2.818383e+04	3.542107e+00,	-5.34710e-05	
146	2.884032e+04	3.542107e+00,	-5.47165e-05	
147	2.951209e+04	3.542107e+00,	-5.59910e-05	
148	3.019952e+04	3.542107e+00,	-5.72952e-05	
149	3.090295e+04	3.542107e+00,	-5.86298e-05	
150	3.162278e+04	3.542107e+00,	-5.99955e-05	
151	3.235937e+04	3.542107e+00,	-6.13929e-05	
152	3.311311e+04	3.542107e+00,	-6.28230e-05	
153	3.388442e+04	3.542107e+00,	-6.42863e-05	
154	3.467369e+04	3.542107e+00,	-6.57837e-05	
155	3.548134e+04	3.542107e+00,	-6.73160e-05	
156	3.630781e+04	3.542107e+00,	-6.88840e-05	
157	3.715352e+04	3.542107e+00,	-7.04885e-05	
158	3.801894e+04	3.542107e+00,	-7.21304e-05	
159	3.890451e+04	3.542107e+00,	-7.38105e-05	
160	3.981072e+04	3.542107e+00,	-7.55298e-05	
161	4.073803e+04	3.542107e+00,	-7.72891e-05	
162	4.168694e+04	3.542107e+00,	-7.90894e-05	
163	4.265795e+04	3.542107e+00,	-8.09317e-05	
164	4.365158e+04	3.542107e+00,	-8.28168e-05	
165	4.466836e+04	3.542107e+00,	-8.47458e-05	
166	4.570882e+04	3.542107e+00,	-8.67198e-05	
167	4.677351e+04	3.542107e+00,	-8.87398e-05	
168	4.786301e+04	3.542107e+00,	-9.08068e-05	
169	4.897788e+04	3.542107e+00,	-9.29220e-05	
170	5.011872e+04	3.542107e+00,	-9.50864e-05	

Index   frequency       vop                             
--------------------------------------------------------------------------------
171	5.128614e+04	3.542107e+00,	-9.73012e-05	
172	5.248075e+04	3.542107e+00,	-9.95677e-05	
173	5.370318e+04	3.542107e+00,	-1.01887e-04	
174	5.495409e+04	3.542107e+00,	-1.04260e-04	
175	5.623413e+04	3.542107e+00,	-1.06689e-04	
176	5.754399e+04	3.542107e+00,	-1.09174e-04	
177	5.888437e+04	3.542107e+00,	-1.11717e-04	
178	6.025596e+04	3.542107e+00,	-1.14319e-04	
179	6.165950e+04	3.542107e+00,	-1.16982e-04	
180	6.309573e+04	3.542107e+00,	-1.19707e-04	
181	6.456542e+04	3.542107e+00,	-1.22495e-04	
182	6.606934e+04	3.542107e+00,	-1.25348e-04	
183	6.760830e+04	3.542107e+00,	-1.28268e-04	
184	6.918310e+04	3.542107e+00,	-1.31256e-04	
185	7.079458e+04	3.542107e+00,	-1.34313e-04	
186	7.244360e+04	3.542107e+00,	-1.37442e-04	
187	7.413102e+04	3.542107e+00,	-1.40643e-04	
188	7.585776e+04	3.542107e+00,	-1.43919e-04	
189	7.762471e+04	3.542107e+00,	-1.47271e-04	
190	7.943282e+04	3.542107e+00,	-1.50702e-04	
191	8.128305e+04	3.542107e+00,	-1.54212e-04	
192	8.317638e+04	3.542107e+00,	-1.57804e-04	
193	8.511380e+04	3.542107e+00,	-1.61480e-04	
194	8.709636e+04	3.542107e+00,	-1.65241e-04	
195	8.912509e+04	3.542107e+00,	-1.69090e-04	
196	9.120108e+04	3.542107e+00,	-1.73029e-04	
197	9.332543e+04	3.542107e+00,	-1.77059e-04	
198	9.549926e+04	3.542107e+00,	-1.81183e-04	
199	9.772372e+04	3.542107e+00,	-1.85404e-04	
200	1.000000e+05	3.542107e+00,	-1.89722e-04	
201	1.023293e+05	3.542107e+00,	-1.94142e-04	
202	1.047129e+05	3.542107e+00,	-1.98664e-04	
203	1.071519e+05	3.542107e+00,	-2.03291e-04	
204	1.096478e+05	3.542107e+00,	-2.08026e-04	
205	1.122018e+05	3.542107e+00,	-2.12872e-04	
206	1.148154e+05	3.542107e+00,	-2.17830e-04	
207	1.174898e+05	3.542107e+00,	-2.22904e-04	
208	1.202264e+05	3.542107e+00,	-2.28096e-04	
209	1.230269e+05	3.542107e+00,	-2.33409e-04	
210	1.258925e+05	3.542107e+00,	-2.38846e-04	
211	1.288250e+05	3.542107e+00,	-2.44410e-04	
212	1.318257e+05	3.542107e+00,	-2.50103e-04	
213	1.348963e+05	3.542107e+00,	-2.55928e-04	
214	1.380384e+05	3.542107e+00,	-2.61890e-04	
215	1.412538e+05	3.542107e+00,	-2.67990e-04	
216	1.445440e+05	3.542107e+00,	-2.74232e-04	
217	1.479108e+05	3.542107e+00,	-2.80620e-04	
218	1.513561e+05	3.542107e+00,	-2.87156e-04	
219	1.548817e+05	3.542107e+00,	-2.93845e-04	
220	1.584893e+05	3.542107e+00,	-3.00690e-04	
221	1.621810e+05	3.542107e+00,	-3.07694e-04	
222	1.659587e+05	3.542107e+00,	-3.14861e-04	
223	1.698244e+05	3.542107e+00,	-3.22195e-04	
224	1.737801e+05	3.542107e+00,	-3.29700e-04	
225	1.778279e+05	3.542107e+00,	-3.37379e-04	
226	1.819701e+05	3.542107e+00,	-3.45238e-04	
227	1.862087e+05	3.542107e+00,	-3.53279e-04	
228	1.905461e+05	3.542107e+00,	-3.61508e-04	

Index   frequency       vop                             
--------------------------------------------------------------------------------
229	1.949845e+05	3.542107e+00,	-3.69929e-04	
230	1.995262e+05	3.542107e+00,	-3.78546e-04	
231	2.041738e+05	3.542107e+00,	-3.87363e-04	
232	2.089296e+05	3.542107e+00,	-3.96386e-04	
233	2.137962e+05	3.542107e+00,	-4.05619e-04	
234	2.187762e+05	3.542107e+00,	-4.15067e-04	
235	2.238721e+05	3.542107e+00,	-4.24735e-04	
236	2.290868e+05	3.542107e+00,	-4.34629e-04	
237	2.344229e+05	3.542107e+00,	-4.44753e-04	
238	2.398833e+05	3.542107e+00,	-4.55112e-04	
239	2.454709e+05	3.542107e+00,	-4.65713e-04	
240	2.511886e+05	3.542107e+00,	-4.76561e-04	
241	2.570396e+05	3.542107e+00,	-4.87661e-04	
242	2.630268e+05	3.542107e+00,	-4.99021e-04	
243	2.691535e+05	3.542107e+00,	-5.10644e-04	
244	2.754229e+05	3.542107e+00,	-5.22539e-04	
245	2.818383e+05	3.542107e+00,	-5.34710e-04	
246	2.884032e+05	3.542107e+00,	-5.47165e-04	
247	2.951209e+05	3.542107e+00,	-5.59910e-04	
248	3.019952e+05	3.542107e+00,	-5.72952e-04	
249	3.090295e+05	3.542107e+00,	-5.86298e-04	
250	3.162278e+05	3.542107e+00,	-5.99955e-04	
251	3.235937e+05	3.542107e+00,	-6.13930e-04	
252	3.311311e+05	3.542107e+00,	-6.28230e-04	
253	3.388442e+05	3.542107e+00,	-6.42863e-04	
254	3.467369e+05	3.542107e+00,	-6.57837e-04	
255	3.548134e+05	3.542107e+00,	-6.73160e-04	
256	3.630781e+05	3.542107e+00,	-6.88840e-04	
257	3.715352e+05	3.542107e+00,	-7.04885e-04	
258	3.801894e+05	3.542107e+00,	-7.21304e-04	
259	3.890451e+05	3.542107e+00,	-7.38106e-04	
260	3.981072e+05	3.542107e+00,	-7.55298e-04	
261	4.073803e+05	3.542107e+00,	-7.72892e-04	
262	4.168694e+05	3.542107e+00,	-7.90895e-04	
263	4.265795e+05	3.542107e+00,	-8.09317e-04	
264	4.365158e+05	3.542107e+00,	-8.28168e-04	
265	4.466836e+05	3.542107e+00,	-8.47459e-04	
266	4.570882e+05	3.542107e+00,	-8.67199e-04	
267	4.677351e+05	3.542107e+00,	-8.87398e-04	
268	4.786301e+05	3.542107e+00,	-9.08069e-04	
269	4.897788e+05	3.542107e+00,	-9.29220e-04	
270	5.011872e+05	3.542107e+00,	-9.50865e-04	
271	5.128614e+05	3.542107e+00,	-9.73013e-04	
272	5.248075e+05	3.542107e+00,	-9.95677e-04	
273	5.370318e+05	3.542107e+00,	-1.01887e-03	
274	5.495409e+05	3.542107e+00,	-1.04260e-03	
275	5.623413e+05	3.542107e+00,	-1.06689e-03	
276	5.754399e+05	3.542107e+00,	-1.09174e-03	
277	5.888437e+05	3.542107e+00,	-1.11717e-03	
278	6.025596e+05	3.542107e+00,	-1.14319e-03	
279	6.165950e+05	3.542107e+00,	-1.16982e-03	
280	6.309573e+05	3.542107e+00,	-1.19707e-03	
281	6.456542e+05	3.542107e+00,	-1.22495e-03	
282	6.606934e+05	3.542107e+00,	-1.25348e-03	
283	6.760830e+05	3.542107e+00,	-1.28268e-03	
284	6.918310e+05	3.542107e+00,	-1.31256e-03	
285	7.079458e+05	3.542107e+00,	-1.34313e-03	
286	7.244360e+05	3.542107e+00,	-1.37442e-03	

Index   frequency       vop                             
--------------------------------------------------------------------------------
287	7.413102e+05	3.542107e+00,	-1.40643e-03	
288	7.585776e+05	3.542107e+00,	-1.43919e-03	
289	7.762471e+05	3.542107e+00,	-1.47272e-03	
290	7.943282e+05	3.542107e+00,	-1.50702e-03	
291	8.128305e+05	3.542107e+00,	-1.54212e-03	
292	8.317638e+05	3.542107e+00,	-1.57804e-03	
293	8.511380e+05	3.542107e+00,	-1.61480e-03	
294	8.709636e+05	3.542107e+00,	-1.65241e-03	
295	8.912509e+05	3.542107e+00,	-1.69090e-03	
296	9.120108e+05	3.542107e+00,	-1.73029e-03	
297	9.332543e+05	3.542107e+00,	-1.77059e-03	
298	9.549926e+05	3.542107e+00,	-1.81184e-03	
299	9.772372e+05	3.542107e+00,	-1.85404e-03	
300	1.000000e+06	3.542107e+00,	-1.89723e-03	
301	1.023293e+06	3.542107e+00,	-1.94142e-03	
302	1.047129e+06	3.542107e+00,	-1.98664e-03	
303	1.071519e+06	3.542107e+00,	-2.03292e-03	
304	1.096478e+06	3.542107e+00,	-2.08027e-03	
305	1.122018e+06	3.542107e+00,	-2.12873e-03	
306	1.148154e+06	3.542107e+00,	-2.17831e-03	
307	1.174898e+06	3.542107e+00,	-2.22905e-03	
308	1.202264e+06	3.542107e+00,	-2.28097e-03	
309	1.230269e+06	3.542107e+00,	-2.33410e-03	
310	1.258925e+06	3.542106e+00,	-2.38847e-03	
311	1.288250e+06	3.542106e+00,	-2.44411e-03	
312	1.318257e+06	3.542106e+00,	-2.50104e-03	
313	1.348963e+06	3.542106e+00,	-2.55929e-03	
314	1.380384e+06	3.542106e+00,	-2.61891e-03	
315	1.412538e+06	3.542106e+00,	-2.67991e-03	
316	1.445440e+06	3.542106e+00,	-2.74233e-03	
317	1.479108e+06	3.542106e+00,	-2.80621e-03	
318	1.513561e+06	3.542106e+00,	-2.87158e-03	
319	1.548817e+06	3.542106e+00,	-2.93847e-03	
320	1.584893e+06	3.542106e+00,	-3.00691e-03	
321	1.621810e+06	3.542106e+00,	-3.07695e-03	
322	1.659587e+06	3.542106e+00,	-3.14863e-03	
323	1.698244e+06	3.542106e+00,	-3.22197e-03	
324	1.737801e+06	3.542106e+00,	-3.29702e-03	
325	1.778279e+06	3.542106e+00,	-3.37382e-03	
326	1.819701e+06	3.542106e+00,	-3.45240e-03	
327	1.862087e+06	3.542106e+00,	-3.53282e-03	
328	1.905461e+06	3.542106e+00,	-3.61511e-03	
329	1.949845e+06	3.542106e+00,	-3.69932e-03	
330	1.995262e+06	3.542105e+00,	-3.78549e-03	
331	2.041738e+06	3.542105e+00,	-3.87367e-03	
332	2.089296e+06	3.542105e+00,	-3.96390e-03	
333	2.137962e+06	3.542105e+00,	-4.05623e-03	
334	2.187762e+06	3.542105e+00,	-4.15072e-03	
335	2.238721e+06	3.542105e+00,	-4.24740e-03	
336	2.290868e+06	3.542105e+00,	-4.34634e-03	
337	2.344229e+06	3.542105e+00,	-4.44758e-03	
338	2.398833e+06	3.542105e+00,	-4.55118e-03	
339	2.454709e+06	3.542105e+00,	-4.65719e-03	
340	2.511886e+06	3.542104e+00,	-4.76567e-03	
341	2.570396e+06	3.542104e+00,	-4.87668e-03	
342	2.630268e+06	3.542104e+00,	-4.99028e-03	
343	2.691535e+06	3.542104e+00,	-5.10652e-03	
344	2.754229e+06	3.542104e+00,	-5.22547e-03	

Index   frequency       vop                             
--------------------------------------------------------------------------------
345	2.818383e+06	3.542104e+00,	-5.34719e-03	
346	2.884032e+06	3.542104e+00,	-5.47175e-03	
347	2.951209e+06	3.542103e+00,	-5.59921e-03	
348	3.019952e+06	3.542103e+00,	-5.72964e-03	
349	3.090295e+06	3.542103e+00,	-5.86310e-03	
350	3.162278e+06	3.542103e+00,	-5.99968e-03	
351	3.235937e+06	3.542103e+00,	-6.13943e-03	
352	3.311311e+06	3.542102e+00,	-6.28245e-03	
353	3.388442e+06	3.542102e+00,	-6.42879e-03	
354	3.467369e+06	3.542102e+00,	-6.57854e-03	
355	3.548134e+06	3.542102e+00,	-6.73179e-03	
356	3.630781e+06	3.542101e+00,	-6.88860e-03	
357	3.715352e+06	3.542101e+00,	-7.04906e-03	
358	3.801894e+06	3.542101e+00,	-7.21327e-03	
359	3.890451e+06	3.542100e+00,	-7.38130e-03	
360	3.981072e+06	3.542100e+00,	-7.55324e-03	
361	4.073803e+06	3.542100e+00,	-7.72919e-03	
362	4.168694e+06	3.542099e+00,	-7.90924e-03	
363	4.265795e+06	3.542099e+00,	-8.09349e-03	
364	4.365158e+06	3.542099e+00,	-8.28202e-03	
365	4.466836e+06	3.542098e+00,	-8.47495e-03	
366	4.570882e+06	3.542098e+00,	-8.67238e-03	
367	4.677351e+06	3.542097e+00,	-8.87440e-03	
368	4.786301e+06	3.542097e+00,	-9.08113e-03	
369	4.897788e+06	3.542097e+00,	-9.29268e-03	
370	5.011872e+06	3.542096e+00,	-9.50916e-03	
371	5.128614e+06	3.542096e+00,	-9.73068e-03	
372	5.248075e+06	3.542095e+00,	-9.95737e-03	
373	5.370318e+06	3.542094e+00,	-1.01893e-02	
374	5.495409e+06	3.542094e+00,	-1.04267e-02	
375	5.623413e+06	3.542093e+00,	-1.06696e-02	
376	5.754399e+06	3.542092e+00,	-1.09182e-02	
377	5.888437e+06	3.542092e+00,	-1.11725e-02	
378	6.025596e+06	3.542091e+00,	-1.14328e-02	
379	6.165950e+06	3.542090e+00,	-1.16991e-02	
380	6.309573e+06	3.542089e+00,	-1.19717e-02	
381	6.456542e+06	3.542089e+00,	-1.22506e-02	
382	6.606934e+06	3.542088e+00,	-1.25360e-02	
383	6.760830e+06	3.542087e+00,	-1.28281e-02	
384	6.918310e+06	3.542086e+00,	-1.31269e-02	
385	7.079458e+06	3.542085e+00,	-1.34328e-02	
386	7.244360e+06	3.542084e+00,	-1.37457e-02	
387	7.413102e+06	3.542083e+00,	-1.40660e-02	
388	7.585776e+06	3.542082e+00,	-1.43937e-02	
389	7.762471e+06	3.542080e+00,	-1.47291e-02	
390	7.943282e+06	3.542079e+00,	-1.50722e-02	
391	8.128305e+06	3.542078e+00,	-1.54234e-02	
392	8.317638e+06	3.542076e+00,	-1.57828e-02	
393	8.511380e+06	3.542075e+00,	-1.61505e-02	
394	8.709636e+06	3.542073e+00,	-1.65268e-02	
395	8.912509e+06	3.542072e+00,	-1.69119e-02	
396	9.120108e+06	3.542070e+00,	-1.73060e-02	
397	9.332543e+06	3.542068e+00,	-1.77092e-02	
398	9.549926e+06	3.542066e+00,	-1.81219e-02	
399	9.772372e+06	3.542064e+00,	-1.85442e-02	
400	1.000000e+07	3.542062e+00,	-1.89763e-02	
401	1.023293e+07	3.542060e+00,	-1.94185e-02	
402	1.047129e+07	3.542058e+00,	-1.98710e-02	

Index   frequency       vop                             
--------------------------------------------------------------------------------
403	1.071519e+07	3.542056e+00,	-2.03341e-02	
404	1.096478e+07	3.542053e+00,	-2.08080e-02	
405	1.122018e+07	3.542051e+00,	-2.12929e-02	
406	1.148154e+07	3.542048e+00,	-2.17891e-02	
407	1.174898e+07	3.542045e+00,	-2.22970e-02	
408	1.202264e+07	3.542042e+00,	-2.28166e-02	
409	1.230269e+07	3.542039e+00,	-2.33484e-02	
410	1.258925e+07	3.542036e+00,	-2.38926e-02	
411	1.288250e+07	3.542032e+00,	-2.44495e-02	
412	1.318257e+07	3.542028e+00,	-2.50194e-02	
413	1.348963e+07	3.542025e+00,	-2.56026e-02	
414	1.380384e+07	3.542021e+00,	-2.61994e-02	
415	1.412538e+07	3.542017e+00,	-2.68102e-02	
416	1.445440e+07	3.542012e+00,	-2.74352e-02	
