** sch_path: /home/andylithia/openmpw/project-reisen-chip1/xschem/ota_wideband.sch
AC Analysis  Sun Oct 30 17:11:03  2022
--------------------------------------------------------------------------------
Index   frequency       vop                             
--------------------------------------------------------------------------------
0	1.000000e+03	3.140954e+00,	-2.84035e-07	
1	1.023293e+03	3.140954e+00,	-2.90651e-07	
2	1.047129e+03	3.140954e+00,	-2.97421e-07	
3	1.071519e+03	3.140954e+00,	-3.04349e-07	
4	1.096478e+03	3.140954e+00,	-3.11438e-07	
5	1.122018e+03	3.140954e+00,	-3.18693e-07	
6	1.148154e+03	3.140954e+00,	-3.26116e-07	
7	1.174898e+03	3.140954e+00,	-3.33712e-07	
8	1.202264e+03	3.140954e+00,	-3.41485e-07	
9	1.230269e+03	3.140954e+00,	-3.49440e-07	
10	1.258925e+03	3.140954e+00,	-3.57579e-07	
11	1.288250e+03	3.140954e+00,	-3.65908e-07	
12	1.318257e+03	3.140954e+00,	-3.74431e-07	
13	1.348963e+03	3.140954e+00,	-3.83153e-07	
14	1.380384e+03	3.140954e+00,	-3.92078e-07	
15	1.412538e+03	3.140954e+00,	-4.01210e-07	
16	1.445440e+03	3.140954e+00,	-4.10556e-07	
17	1.479108e+03	3.140954e+00,	-4.20119e-07	
18	1.513561e+03	3.140954e+00,	-4.29905e-07	
19	1.548817e+03	3.140954e+00,	-4.39919e-07	
20	1.584893e+03	3.140954e+00,	-4.50166e-07	
21	1.621810e+03	3.140954e+00,	-4.60651e-07	
22	1.659587e+03	3.140954e+00,	-4.71381e-07	
23	1.698244e+03	3.140954e+00,	-4.82361e-07	
24	1.737801e+03	3.140954e+00,	-4.93597e-07	
25	1.778279e+03	3.140954e+00,	-5.05094e-07	
26	1.819701e+03	3.140954e+00,	-5.16859e-07	
27	1.862087e+03	3.140954e+00,	-5.28898e-07	
28	1.905461e+03	3.140954e+00,	-5.41218e-07	
29	1.949845e+03	3.140954e+00,	-5.53825e-07	
30	1.995262e+03	3.140954e+00,	-5.66725e-07	
31	2.041738e+03	3.140954e+00,	-5.79926e-07	
32	2.089296e+03	3.140954e+00,	-5.93434e-07	
33	2.137962e+03	3.140954e+00,	-6.07257e-07	
34	2.187762e+03	3.140954e+00,	-6.21401e-07	
35	2.238721e+03	3.140954e+00,	-6.35876e-07	
36	2.290868e+03	3.140954e+00,	-6.50687e-07	
37	2.344229e+03	3.140954e+00,	-6.65844e-07	
38	2.398833e+03	3.140954e+00,	-6.81353e-07	
39	2.454709e+03	3.140954e+00,	-6.97224e-07	
40	2.511886e+03	3.140954e+00,	-7.13464e-07	
41	2.570396e+03	3.140954e+00,	-7.30083e-07	
42	2.630268e+03	3.140954e+00,	-7.47089e-07	
43	2.691535e+03	3.140954e+00,	-7.64491e-07	
44	2.754229e+03	3.140954e+00,	-7.82298e-07	
45	2.818383e+03	3.140954e+00,	-8.00520e-07	
46	2.884032e+03	3.140954e+00,	-8.19167e-07	
47	2.951209e+03	3.140954e+00,	-8.38247e-07	
48	3.019952e+03	3.140954e+00,	-8.57773e-07	
49	3.090295e+03	3.140954e+00,	-8.77753e-07	
50	3.162278e+03	3.140954e+00,	-8.98198e-07	
51	3.235937e+03	3.140954e+00,	-9.19120e-07	
52	3.311311e+03	3.140954e+00,	-9.40529e-07	
53	3.388442e+03	3.140954e+00,	-9.62437e-07	
54	3.467369e+03	3.140954e+00,	-9.84855e-07	

Index   frequency       vop                             
--------------------------------------------------------------------------------
55	3.548134e+03	3.140954e+00,	-1.00780e-06	
56	3.630781e+03	3.140954e+00,	-1.03127e-06	
57	3.715352e+03	3.140954e+00,	-1.05529e-06	
58	3.801894e+03	3.140954e+00,	-1.07987e-06	
59	3.890451e+03	3.140954e+00,	-1.10503e-06	
60	3.981072e+03	3.140954e+00,	-1.13076e-06	
61	4.073803e+03	3.140954e+00,	-1.15710e-06	
62	4.168694e+03	3.140954e+00,	-1.18406e-06	
63	4.265795e+03	3.140954e+00,	-1.21164e-06	
64	4.365158e+03	3.140954e+00,	-1.23986e-06	
65	4.466836e+03	3.140954e+00,	-1.26874e-06	
66	4.570882e+03	3.140954e+00,	-1.29829e-06	
67	4.677351e+03	3.140954e+00,	-1.32853e-06	
68	4.786301e+03	3.140954e+00,	-1.35948e-06	
69	4.897788e+03	3.140954e+00,	-1.39114e-06	
70	5.011872e+03	3.140954e+00,	-1.42355e-06	
71	5.128614e+03	3.140954e+00,	-1.45671e-06	
72	5.248075e+03	3.140954e+00,	-1.49064e-06	
73	5.370318e+03	3.140954e+00,	-1.52536e-06	
74	5.495409e+03	3.140954e+00,	-1.56089e-06	
75	5.623413e+03	3.140954e+00,	-1.59725e-06	
76	5.754399e+03	3.140954e+00,	-1.63445e-06	
77	5.888437e+03	3.140954e+00,	-1.67252e-06	
78	6.025596e+03	3.140954e+00,	-1.71148e-06	
79	6.165950e+03	3.140954e+00,	-1.75135e-06	
80	6.309573e+03	3.140954e+00,	-1.79214e-06	
81	6.456542e+03	3.140954e+00,	-1.83389e-06	
82	6.606934e+03	3.140954e+00,	-1.87660e-06	
83	6.760830e+03	3.140954e+00,	-1.92031e-06	
84	6.918310e+03	3.140954e+00,	-1.96504e-06	
85	7.079458e+03	3.140954e+00,	-2.01082e-06	
86	7.244360e+03	3.140954e+00,	-2.05765e-06	
87	7.413102e+03	3.140954e+00,	-2.10558e-06	
88	7.585776e+03	3.140954e+00,	-2.15463e-06	
89	7.762471e+03	3.140954e+00,	-2.20482e-06	
90	7.943282e+03	3.140954e+00,	-2.25617e-06	
91	8.128305e+03	3.140954e+00,	-2.30873e-06	
92	8.317638e+03	3.140954e+00,	-2.36250e-06	
93	8.511380e+03	3.140954e+00,	-2.41753e-06	
94	8.709636e+03	3.140954e+00,	-2.47384e-06	
95	8.912509e+03	3.140954e+00,	-2.53147e-06	
96	9.120108e+03	3.140954e+00,	-2.59043e-06	
97	9.332543e+03	3.140954e+00,	-2.65077e-06	
98	9.549926e+03	3.140954e+00,	-2.71252e-06	
99	9.772372e+03	3.140954e+00,	-2.77570e-06	
100	1.000000e+04	3.140954e+00,	-2.84035e-06	
101	1.023293e+04	3.140954e+00,	-2.90651e-06	
102	1.047129e+04	3.140954e+00,	-2.97421e-06	
103	1.071519e+04	3.140954e+00,	-3.04349e-06	
104	1.096478e+04	3.140954e+00,	-3.11438e-06	
105	1.122018e+04	3.140954e+00,	-3.18693e-06	
106	1.148154e+04	3.140954e+00,	-3.26116e-06	
107	1.174898e+04	3.140954e+00,	-3.33712e-06	
108	1.202264e+04	3.140954e+00,	-3.41485e-06	
109	1.230269e+04	3.140954e+00,	-3.49440e-06	
110	1.258925e+04	3.140954e+00,	-3.57579e-06	
111	1.288250e+04	3.140954e+00,	-3.65908e-06	
112	1.318257e+04	3.140954e+00,	-3.74431e-06	

Index   frequency       vop                             
--------------------------------------------------------------------------------
113	1.348963e+04	3.140954e+00,	-3.83153e-06	
114	1.380384e+04	3.140954e+00,	-3.92078e-06	
115	1.412538e+04	3.140954e+00,	-4.01210e-06	
116	1.445440e+04	3.140954e+00,	-4.10556e-06	
117	1.479108e+04	3.140954e+00,	-4.20119e-06	
118	1.513561e+04	3.140954e+00,	-4.29905e-06	
119	1.548817e+04	3.140954e+00,	-4.39919e-06	
120	1.584893e+04	3.140954e+00,	-4.50166e-06	
121	1.621810e+04	3.140954e+00,	-4.60651e-06	
122	1.659587e+04	3.140954e+00,	-4.71381e-06	
123	1.698244e+04	3.140954e+00,	-4.82361e-06	
124	1.737801e+04	3.140954e+00,	-4.93597e-06	
125	1.778279e+04	3.140954e+00,	-5.05094e-06	
126	1.819701e+04	3.140954e+00,	-5.16859e-06	
127	1.862087e+04	3.140954e+00,	-5.28898e-06	
128	1.905461e+04	3.140954e+00,	-5.41218e-06	
129	1.949845e+04	3.140954e+00,	-5.53825e-06	
130	1.995262e+04	3.140954e+00,	-5.66725e-06	
131	2.041738e+04	3.140954e+00,	-5.79926e-06	
132	2.089296e+04	3.140954e+00,	-5.93434e-06	
133	2.137962e+04	3.140954e+00,	-6.07257e-06	
134	2.187762e+04	3.140954e+00,	-6.21401e-06	
135	2.238721e+04	3.140954e+00,	-6.35876e-06	
136	2.290868e+04	3.140954e+00,	-6.50687e-06	
137	2.344229e+04	3.140954e+00,	-6.65844e-06	
138	2.398833e+04	3.140954e+00,	-6.81353e-06	
139	2.454709e+04	3.140954e+00,	-6.97224e-06	
140	2.511886e+04	3.140954e+00,	-7.13464e-06	
141	2.570396e+04	3.140954e+00,	-7.30083e-06	
142	2.630268e+04	3.140954e+00,	-7.47089e-06	
143	2.691535e+04	3.140954e+00,	-7.64491e-06	
144	2.754229e+04	3.140954e+00,	-7.82298e-06	
145	2.818383e+04	3.140954e+00,	-8.00520e-06	
146	2.884032e+04	3.140954e+00,	-8.19167e-06	
147	2.951209e+04	3.140954e+00,	-8.38247e-06	
148	3.019952e+04	3.140954e+00,	-8.57773e-06	
149	3.090295e+04	3.140954e+00,	-8.77753e-06	
150	3.162278e+04	3.140954e+00,	-8.98198e-06	
151	3.235937e+04	3.140954e+00,	-9.19120e-06	
152	3.311311e+04	3.140954e+00,	-9.40529e-06	
153	3.388442e+04	3.140954e+00,	-9.62437e-06	
154	3.467369e+04	3.140954e+00,	-9.84855e-06	
155	3.548134e+04	3.140954e+00,	-1.00780e-05	
156	3.630781e+04	3.140954e+00,	-1.03127e-05	
157	3.715352e+04	3.140954e+00,	-1.05529e-05	
158	3.801894e+04	3.140954e+00,	-1.07987e-05	
159	3.890451e+04	3.140954e+00,	-1.10503e-05	
160	3.981072e+04	3.140954e+00,	-1.13076e-05	
161	4.073803e+04	3.140954e+00,	-1.15710e-05	
162	4.168694e+04	3.140954e+00,	-1.18406e-05	
163	4.265795e+04	3.140954e+00,	-1.21164e-05	
164	4.365158e+04	3.140954e+00,	-1.23986e-05	
165	4.466836e+04	3.140954e+00,	-1.26874e-05	
166	4.570882e+04	3.140954e+00,	-1.29829e-05	
167	4.677351e+04	3.140954e+00,	-1.32853e-05	
168	4.786301e+04	3.140954e+00,	-1.35948e-05	
169	4.897788e+04	3.140954e+00,	-1.39114e-05	
170	5.011872e+04	3.140954e+00,	-1.42355e-05	

Index   frequency       vop                             
--------------------------------------------------------------------------------
171	5.128614e+04	3.140954e+00,	-1.45671e-05	
172	5.248075e+04	3.140954e+00,	-1.49064e-05	
173	5.370318e+04	3.140954e+00,	-1.52536e-05	
174	5.495409e+04	3.140954e+00,	-1.56089e-05	
175	5.623413e+04	3.140954e+00,	-1.59725e-05	
176	5.754399e+04	3.140954e+00,	-1.63445e-05	
177	5.888437e+04	3.140954e+00,	-1.67252e-05	
178	6.025596e+04	3.140954e+00,	-1.71148e-05	
179	6.165950e+04	3.140954e+00,	-1.75135e-05	
180	6.309573e+04	3.140954e+00,	-1.79214e-05	
181	6.456542e+04	3.140954e+00,	-1.83389e-05	
182	6.606934e+04	3.140954e+00,	-1.87660e-05	
183	6.760830e+04	3.140954e+00,	-1.92031e-05	
184	6.918310e+04	3.140954e+00,	-1.96504e-05	
185	7.079458e+04	3.140954e+00,	-2.01082e-05	
186	7.244360e+04	3.140954e+00,	-2.05765e-05	
187	7.413102e+04	3.140954e+00,	-2.10558e-05	
188	7.585776e+04	3.140954e+00,	-2.15463e-05	
189	7.762471e+04	3.140954e+00,	-2.20482e-05	
190	7.943282e+04	3.140954e+00,	-2.25617e-05	
191	8.128305e+04	3.140954e+00,	-2.30873e-05	
192	8.317638e+04	3.140954e+00,	-2.36250e-05	
193	8.511380e+04	3.140954e+00,	-2.41753e-05	
194	8.709636e+04	3.140954e+00,	-2.47384e-05	
195	8.912509e+04	3.140954e+00,	-2.53147e-05	
196	9.120108e+04	3.140954e+00,	-2.59043e-05	
197	9.332543e+04	3.140954e+00,	-2.65077e-05	
198	9.549926e+04	3.140954e+00,	-2.71252e-05	
199	9.772372e+04	3.140954e+00,	-2.77570e-05	
200	1.000000e+05	3.140954e+00,	-2.84035e-05	
201	1.023293e+05	3.140954e+00,	-2.90651e-05	
202	1.047129e+05	3.140954e+00,	-2.97421e-05	
203	1.071519e+05	3.140954e+00,	-3.04349e-05	
204	1.096478e+05	3.140954e+00,	-3.11439e-05	
205	1.122018e+05	3.140954e+00,	-3.18693e-05	
206	1.148154e+05	3.140954e+00,	-3.26116e-05	
207	1.174898e+05	3.140954e+00,	-3.33712e-05	
208	1.202264e+05	3.140954e+00,	-3.41486e-05	
209	1.230269e+05	3.140954e+00,	-3.49440e-05	
210	1.258925e+05	3.140954e+00,	-3.57579e-05	
211	1.288250e+05	3.140954e+00,	-3.65908e-05	
212	1.318257e+05	3.140954e+00,	-3.74431e-05	
213	1.348963e+05	3.140954e+00,	-3.83153e-05	
214	1.380384e+05	3.140954e+00,	-3.92078e-05	
215	1.412538e+05	3.140954e+00,	-4.01211e-05	
216	1.445440e+05	3.140954e+00,	-4.10556e-05	
217	1.479108e+05	3.140954e+00,	-4.20119e-05	
218	1.513561e+05	3.140954e+00,	-4.29905e-05	
219	1.548817e+05	3.140954e+00,	-4.39919e-05	
220	1.584893e+05	3.140954e+00,	-4.50166e-05	
221	1.621810e+05	3.140954e+00,	-4.60651e-05	
222	1.659587e+05	3.140954e+00,	-4.71381e-05	
223	1.698244e+05	3.140954e+00,	-4.82361e-05	
224	1.737801e+05	3.140954e+00,	-4.93597e-05	
225	1.778279e+05	3.140954e+00,	-5.05094e-05	
226	1.819701e+05	3.140954e+00,	-5.16859e-05	
227	1.862087e+05	3.140954e+00,	-5.28899e-05	
228	1.905461e+05	3.140954e+00,	-5.41218e-05	

Index   frequency       vop                             
--------------------------------------------------------------------------------
229	1.949845e+05	3.140954e+00,	-5.53825e-05	
230	1.995262e+05	3.140954e+00,	-5.66725e-05	
231	2.041738e+05	3.140954e+00,	-5.79926e-05	
232	2.089296e+05	3.140954e+00,	-5.93434e-05	
233	2.137962e+05	3.140954e+00,	-6.07257e-05	
234	2.187762e+05	3.140954e+00,	-6.21402e-05	
235	2.238721e+05	3.140954e+00,	-6.35876e-05	
236	2.290868e+05	3.140954e+00,	-6.50688e-05	
237	2.344229e+05	3.140954e+00,	-6.65844e-05	
238	2.398833e+05	3.140954e+00,	-6.81354e-05	
239	2.454709e+05	3.140954e+00,	-6.97224e-05	
240	2.511886e+05	3.140954e+00,	-7.13465e-05	
241	2.570396e+05	3.140954e+00,	-7.30084e-05	
242	2.630268e+05	3.140954e+00,	-7.47089e-05	
243	2.691535e+05	3.140954e+00,	-7.64491e-05	
244	2.754229e+05	3.140954e+00,	-7.82299e-05	
245	2.818383e+05	3.140954e+00,	-8.00521e-05	
246	2.884032e+05	3.140954e+00,	-8.19167e-05	
247	2.951209e+05	3.140954e+00,	-8.38248e-05	
248	3.019952e+05	3.140954e+00,	-8.57774e-05	
249	3.090295e+05	3.140954e+00,	-8.77754e-05	
250	3.162278e+05	3.140954e+00,	-8.98199e-05	
251	3.235937e+05	3.140954e+00,	-9.19121e-05	
252	3.311311e+05	3.140954e+00,	-9.40530e-05	
253	3.388442e+05	3.140954e+00,	-9.62438e-05	
254	3.467369e+05	3.140954e+00,	-9.84856e-05	
255	3.548134e+05	3.140954e+00,	-1.00780e-04	
256	3.630781e+05	3.140954e+00,	-1.03127e-04	
257	3.715352e+05	3.140954e+00,	-1.05529e-04	
258	3.801894e+05	3.140954e+00,	-1.07987e-04	
259	3.890451e+05	3.140954e+00,	-1.10503e-04	
260	3.981072e+05	3.140954e+00,	-1.13077e-04	
261	4.073803e+05	3.140954e+00,	-1.15711e-04	
262	4.168694e+05	3.140954e+00,	-1.18406e-04	
263	4.265795e+05	3.140954e+00,	-1.21164e-04	
264	4.365158e+05	3.140954e+00,	-1.23986e-04	
265	4.466836e+05	3.140954e+00,	-1.26874e-04	
266	4.570882e+05	3.140955e+00,	-1.29829e-04	
267	4.677351e+05	3.140955e+00,	-1.32854e-04	
268	4.786301e+05	3.140955e+00,	-1.35948e-04	
269	4.897788e+05	3.140955e+00,	-1.39115e-04	
270	5.011872e+05	3.140955e+00,	-1.42355e-04	
271	5.128614e+05	3.140955e+00,	-1.45671e-04	
272	5.248075e+05	3.140955e+00,	-1.49064e-04	
273	5.370318e+05	3.140955e+00,	-1.52536e-04	
274	5.495409e+05	3.140955e+00,	-1.56089e-04	
275	5.623413e+05	3.140955e+00,	-1.59725e-04	
276	5.754399e+05	3.140955e+00,	-1.63446e-04	
277	5.888437e+05	3.140955e+00,	-1.67253e-04	
278	6.025596e+05	3.140955e+00,	-1.71149e-04	
279	6.165950e+05	3.140955e+00,	-1.75135e-04	
280	6.309573e+05	3.140955e+00,	-1.79215e-04	
281	6.456542e+05	3.140955e+00,	-1.83389e-04	
282	6.606934e+05	3.140955e+00,	-1.87661e-04	
283	6.760830e+05	3.140955e+00,	-1.92032e-04	
284	6.918310e+05	3.140956e+00,	-1.96505e-04	
285	7.079458e+05	3.140956e+00,	-2.01083e-04	
286	7.244360e+05	3.140956e+00,	-2.05766e-04	

Index   frequency       vop                             
--------------------------------------------------------------------------------
287	7.413102e+05	3.140956e+00,	-2.10559e-04	
288	7.585776e+05	3.140956e+00,	-2.15464e-04	
289	7.762471e+05	3.140956e+00,	-2.20483e-04	
290	7.943282e+05	3.140956e+00,	-2.25619e-04	
291	8.128305e+05	3.140956e+00,	-2.30874e-04	
292	8.317638e+05	3.140956e+00,	-2.36252e-04	
293	8.511380e+05	3.140956e+00,	-2.41755e-04	
294	8.709636e+05	3.140957e+00,	-2.47386e-04	
295	8.912509e+05	3.140957e+00,	-2.53149e-04	
296	9.120108e+05	3.140957e+00,	-2.59045e-04	
297	9.332543e+05	3.140957e+00,	-2.65080e-04	
298	9.549926e+05	3.140957e+00,	-2.71254e-04	
299	9.772372e+05	3.140957e+00,	-2.77573e-04	
300	1.000000e+06	3.140957e+00,	-2.84038e-04	
301	1.023293e+06	3.140958e+00,	-2.90654e-04	
302	1.047129e+06	3.140958e+00,	-2.97425e-04	
303	1.071519e+06	3.140958e+00,	-3.04353e-04	
304	1.096478e+06	3.140958e+00,	-3.11442e-04	
305	1.122018e+06	3.140958e+00,	-3.18697e-04	
306	1.148154e+06	3.140959e+00,	-3.26121e-04	
307	1.174898e+06	3.140959e+00,	-3.33717e-04	
308	1.202264e+06	3.140959e+00,	-3.41491e-04	
309	1.230269e+06	3.140959e+00,	-3.49445e-04	
310	1.258925e+06	3.140960e+00,	-3.57585e-04	
311	1.288250e+06	3.140960e+00,	-3.65915e-04	
312	1.318257e+06	3.140960e+00,	-3.74438e-04	
313	1.348963e+06	3.140960e+00,	-3.83160e-04	
314	1.380384e+06	3.140961e+00,	-3.92086e-04	
315	1.412538e+06	3.140961e+00,	-4.01219e-04	
316	1.445440e+06	3.140961e+00,	-4.10565e-04	
317	1.479108e+06	3.140962e+00,	-4.20129e-04	
318	1.513561e+06	3.140962e+00,	-4.29915e-04	
319	1.548817e+06	3.140963e+00,	-4.39930e-04	
320	1.584893e+06	3.140963e+00,	-4.50177e-04	
321	1.621810e+06	3.140963e+00,	-4.60664e-04	
322	1.659587e+06	3.140964e+00,	-4.71395e-04	
323	1.698244e+06	3.140964e+00,	-4.82376e-04	
324	1.737801e+06	3.140965e+00,	-4.93612e-04	
325	1.778279e+06	3.140965e+00,	-5.05111e-04	
326	1.819701e+06	3.140966e+00,	-5.16877e-04	
327	1.862087e+06	3.140967e+00,	-5.28918e-04	
328	1.905461e+06	3.140967e+00,	-5.41239e-04	
329	1.949845e+06	3.140968e+00,	-5.53847e-04	
330	1.995262e+06	3.140969e+00,	-5.66748e-04	
331	2.041738e+06	3.140969e+00,	-5.79951e-04	
332	2.089296e+06	3.140970e+00,	-5.93461e-04	
333	2.137962e+06	3.140971e+00,	-6.07286e-04	
334	2.187762e+06	3.140972e+00,	-6.21433e-04	
335	2.238721e+06	3.140972e+00,	-6.35909e-04	
336	2.290868e+06	3.140973e+00,	-6.50723e-04	
337	2.344229e+06	3.140974e+00,	-6.65882e-04	
338	2.398833e+06	3.140975e+00,	-6.81394e-04	
339	2.454709e+06	3.140976e+00,	-6.97268e-04	
340	2.511886e+06	3.140977e+00,	-7.13511e-04	
341	2.570396e+06	3.140978e+00,	-7.30134e-04	
342	2.630268e+06	3.140979e+00,	-7.47143e-04	
343	2.691535e+06	3.140981e+00,	-7.64549e-04	
344	2.754229e+06	3.140982e+00,	-7.82360e-04	

Index   frequency       vop                             
--------------------------------------------------------------------------------
345	2.818383e+06	3.140983e+00,	-8.00587e-04	
346	2.884032e+06	3.140985e+00,	-8.19238e-04	
347	2.951209e+06	3.140986e+00,	-8.38324e-04	
348	3.019952e+06	3.140988e+00,	-8.57855e-04	
349	3.090295e+06	3.140989e+00,	-8.77841e-04	
350	3.162278e+06	3.140991e+00,	-8.98293e-04	
351	3.235937e+06	3.140993e+00,	-9.19221e-04	
352	3.311311e+06	3.140994e+00,	-9.40638e-04	
353	3.388442e+06	3.140996e+00,	-9.62553e-04	
354	3.467369e+06	3.140998e+00,	-9.84980e-04	
355	3.548134e+06	3.141000e+00,	-1.00793e-03	
356	3.630781e+06	3.141003e+00,	-1.03141e-03	
357	3.715352e+06	3.141005e+00,	-1.05544e-03	
358	3.801894e+06	3.141007e+00,	-1.08004e-03	
359	3.890451e+06	3.141010e+00,	-1.10520e-03	
360	3.981072e+06	3.141013e+00,	-1.13095e-03	
361	4.073803e+06	3.141015e+00,	-1.15731e-03	
362	4.168694e+06	3.141018e+00,	-1.18427e-03	
363	4.265795e+06	3.141021e+00,	-1.21187e-03	
364	4.365158e+06	3.141025e+00,	-1.24011e-03	
365	4.466836e+06	3.141028e+00,	-1.26901e-03	
366	4.570882e+06	3.141031e+00,	-1.29858e-03	
367	4.677351e+06	3.141035e+00,	-1.32884e-03	
368	4.786301e+06	3.141039e+00,	-1.35981e-03	
369	4.897788e+06	3.141043e+00,	-1.39150e-03	
370	5.011872e+06	3.141047e+00,	-1.42393e-03	
371	5.128614e+06	3.141051e+00,	-1.45712e-03	
372	5.248075e+06	3.141056e+00,	-1.49108e-03	
373	5.370318e+06	3.141061e+00,	-1.52583e-03	
374	5.495409e+06	3.141066e+00,	-1.56139e-03	
375	5.623413e+06	3.141071e+00,	-1.59779e-03	
376	5.754399e+06	3.141077e+00,	-1.63503e-03	
377	5.888437e+06	3.141083e+00,	-1.67315e-03	
378	6.025596e+06	3.141089e+00,	-1.71215e-03	
379	6.165950e+06	3.141095e+00,	-1.75206e-03	
380	6.309573e+06	3.141102e+00,	-1.79291e-03	
381	6.456542e+06	3.141109e+00,	-1.83471e-03	
382	6.606934e+06	3.141116e+00,	-1.87749e-03	
383	6.760830e+06	3.141124e+00,	-1.92126e-03	
384	6.918310e+06	3.141132e+00,	-1.96606e-03	
385	7.079458e+06	3.141140e+00,	-2.01191e-03	
386	7.244360e+06	3.141149e+00,	-2.05883e-03	
387	7.413102e+06	3.141158e+00,	-2.10684e-03	
388	7.585776e+06	3.141168e+00,	-2.15598e-03	
389	7.762471e+06	3.141178e+00,	-2.20627e-03	
390	7.943282e+06	3.141189e+00,	-2.25773e-03	
391	8.128305e+06	3.141200e+00,	-2.31040e-03	
392	8.317638e+06	3.141211e+00,	-2.36430e-03	
393	8.511380e+06	3.141223e+00,	-2.41947e-03	
394	8.709636e+06	3.141236e+00,	-2.47592e-03	
395	8.912509e+06	3.141249e+00,	-2.53370e-03	
396	9.120108e+06	3.141263e+00,	-2.59283e-03	
397	9.332543e+06	3.141278e+00,	-2.65335e-03	
398	9.549926e+06	3.141293e+00,	-2.71529e-03	
399	9.772372e+06	3.141310e+00,	-2.77868e-03	
400	1.000000e+07	3.141326e+00,	-2.84356e-03	
401	1.023293e+07	3.141344e+00,	-2.90996e-03	
402	1.047129e+07	3.141362e+00,	-2.97792e-03	

Index   frequency       vop                             
--------------------------------------------------------------------------------
403	1.071519e+07	3.141382e+00,	-3.04748e-03	
404	1.096478e+07	3.141402e+00,	-3.11868e-03	
405	1.122018e+07	3.141423e+00,	-3.19155e-03	
406	1.148154e+07	3.141445e+00,	-3.26613e-03	
407	1.174898e+07	3.141469e+00,	-3.34247e-03	
408	1.202264e+07	3.141493e+00,	-3.42061e-03	
409	1.230269e+07	3.141519e+00,	-3.50060e-03	
410	1.258925e+07	3.141545e+00,	-3.58247e-03	
411	1.288250e+07	3.141573e+00,	-3.66627e-03	
412	1.318257e+07	3.141603e+00,	-3.75206e-03	
413	1.348963e+07	3.141634e+00,	-3.83988e-03	
414	1.380384e+07	3.141666e+00,	-3.92978e-03	
415	1.412538e+07	3.141700e+00,	-4.02180e-03	
416	1.445440e+07	3.141735e+00,	-4.11602e-03	
