** sch_path: /home/andylithia/openmpw/project-reisen-chip1/xschem/ota_wideband.sch
AC Analysis  Sun Oct 30 17:11:03  2022
--------------------------------------------------------------------------------
Index   frequency       vop                             
--------------------------------------------------------------------------------
0	1.000000e+03	3.534970e+00,	-1.87789e-06	
1	1.023293e+03	3.534970e+00,	-1.92163e-06	
2	1.047129e+03	3.534970e+00,	-1.96639e-06	
3	1.071519e+03	3.534970e+00,	-2.01219e-06	
4	1.096478e+03	3.534970e+00,	-2.05906e-06	
5	1.122018e+03	3.534970e+00,	-2.10702e-06	
6	1.148154e+03	3.534970e+00,	-2.15610e-06	
7	1.174898e+03	3.534970e+00,	-2.20633e-06	
8	1.202264e+03	3.534970e+00,	-2.25772e-06	
9	1.230269e+03	3.534970e+00,	-2.31031e-06	
10	1.258925e+03	3.534970e+00,	-2.36412e-06	
11	1.288250e+03	3.534970e+00,	-2.41919e-06	
12	1.318257e+03	3.534970e+00,	-2.47554e-06	
13	1.348963e+03	3.534970e+00,	-2.53320e-06	
14	1.380384e+03	3.534970e+00,	-2.59221e-06	
15	1.412538e+03	3.534970e+00,	-2.65259e-06	
16	1.445440e+03	3.534970e+00,	-2.71437e-06	
17	1.479108e+03	3.534970e+00,	-2.77760e-06	
18	1.513561e+03	3.534970e+00,	-2.84230e-06	
19	1.548817e+03	3.534970e+00,	-2.90850e-06	
20	1.584893e+03	3.534970e+00,	-2.97625e-06	
21	1.621810e+03	3.534970e+00,	-3.04558e-06	
22	1.659587e+03	3.534970e+00,	-3.11652e-06	
23	1.698244e+03	3.534970e+00,	-3.18911e-06	
24	1.737801e+03	3.534970e+00,	-3.26339e-06	
25	1.778279e+03	3.534970e+00,	-3.33941e-06	
26	1.819701e+03	3.534970e+00,	-3.41719e-06	
27	1.862087e+03	3.534970e+00,	-3.49679e-06	
28	1.905461e+03	3.534970e+00,	-3.57824e-06	
29	1.949845e+03	3.534970e+00,	-3.66159e-06	
30	1.995262e+03	3.534970e+00,	-3.74688e-06	
31	2.041738e+03	3.534970e+00,	-3.83415e-06	
32	2.089296e+03	3.534970e+00,	-3.92346e-06	
33	2.137962e+03	3.534970e+00,	-4.01485e-06	
34	2.187762e+03	3.534970e+00,	-4.10837e-06	
35	2.238721e+03	3.534970e+00,	-4.20407e-06	
36	2.290868e+03	3.534970e+00,	-4.30199e-06	
37	2.344229e+03	3.534970e+00,	-4.40220e-06	
38	2.398833e+03	3.534970e+00,	-4.50474e-06	
39	2.454709e+03	3.534970e+00,	-4.60967e-06	
40	2.511886e+03	3.534970e+00,	-4.71704e-06	
41	2.570396e+03	3.534970e+00,	-4.82691e-06	
42	2.630268e+03	3.534970e+00,	-4.93935e-06	
43	2.691535e+03	3.534970e+00,	-5.05440e-06	
44	2.754229e+03	3.534970e+00,	-5.17213e-06	
45	2.818383e+03	3.534970e+00,	-5.29261e-06	
46	2.884032e+03	3.534970e+00,	-5.41589e-06	
47	2.951209e+03	3.534970e+00,	-5.54204e-06	
48	3.019952e+03	3.534970e+00,	-5.67113e-06	
49	3.090295e+03	3.534970e+00,	-5.80323e-06	
50	3.162278e+03	3.534970e+00,	-5.93840e-06	
51	3.235937e+03	3.534970e+00,	-6.07672e-06	
52	3.311311e+03	3.534970e+00,	-6.21827e-06	
53	3.388442e+03	3.534970e+00,	-6.36311e-06	
54	3.467369e+03	3.534970e+00,	-6.51133e-06	

Index   frequency       vop                             
--------------------------------------------------------------------------------
55	3.548134e+03	3.534970e+00,	-6.66300e-06	
56	3.630781e+03	3.534970e+00,	-6.81820e-06	
57	3.715352e+03	3.534970e+00,	-6.97701e-06	
58	3.801894e+03	3.534970e+00,	-7.13953e-06	
59	3.890451e+03	3.534970e+00,	-7.30583e-06	
60	3.981072e+03	3.534970e+00,	-7.47600e-06	
61	4.073803e+03	3.534970e+00,	-7.65014e-06	
62	4.168694e+03	3.534970e+00,	-7.82834e-06	
63	4.265795e+03	3.534970e+00,	-8.01068e-06	
64	4.365158e+03	3.534970e+00,	-8.19728e-06	
65	4.466836e+03	3.534970e+00,	-8.38821e-06	
66	4.570882e+03	3.534970e+00,	-8.58360e-06	
67	4.677351e+03	3.534970e+00,	-8.78354e-06	
68	4.786301e+03	3.534970e+00,	-8.98813e-06	
69	4.897788e+03	3.534970e+00,	-9.19749e-06	
70	5.011872e+03	3.534970e+00,	-9.41173e-06	
71	5.128614e+03	3.534970e+00,	-9.63096e-06	
72	5.248075e+03	3.534970e+00,	-9.85529e-06	
73	5.370318e+03	3.534970e+00,	-1.00849e-05	
74	5.495409e+03	3.534970e+00,	-1.03198e-05	
75	5.623413e+03	3.534970e+00,	-1.05601e-05	
76	5.754399e+03	3.534970e+00,	-1.08061e-05	
77	5.888437e+03	3.534970e+00,	-1.10578e-05	
78	6.025596e+03	3.534970e+00,	-1.13154e-05	
79	6.165950e+03	3.534970e+00,	-1.15790e-05	
80	6.309573e+03	3.534970e+00,	-1.18487e-05	
81	6.456542e+03	3.534970e+00,	-1.21247e-05	
82	6.606934e+03	3.534970e+00,	-1.24071e-05	
83	6.760830e+03	3.534970e+00,	-1.26961e-05	
84	6.918310e+03	3.534970e+00,	-1.29918e-05	
85	7.079458e+03	3.534970e+00,	-1.32944e-05	
86	7.244360e+03	3.534970e+00,	-1.36041e-05	
87	7.413102e+03	3.534970e+00,	-1.39210e-05	
88	7.585776e+03	3.534970e+00,	-1.42452e-05	
89	7.762471e+03	3.534970e+00,	-1.45770e-05	
90	7.943282e+03	3.534970e+00,	-1.49166e-05	
91	8.128305e+03	3.534970e+00,	-1.52640e-05	
92	8.317638e+03	3.534970e+00,	-1.56196e-05	
93	8.511380e+03	3.534970e+00,	-1.59834e-05	
94	8.709636e+03	3.534970e+00,	-1.63557e-05	
95	8.912509e+03	3.534970e+00,	-1.67367e-05	
96	9.120108e+03	3.534970e+00,	-1.71265e-05	
97	9.332543e+03	3.534970e+00,	-1.75255e-05	
98	9.549926e+03	3.534970e+00,	-1.79337e-05	
99	9.772372e+03	3.534970e+00,	-1.83514e-05	
100	1.000000e+04	3.534970e+00,	-1.87789e-05	
101	1.023293e+04	3.534970e+00,	-1.92163e-05	
102	1.047129e+04	3.534970e+00,	-1.96639e-05	
103	1.071519e+04	3.534970e+00,	-2.01219e-05	
104	1.096478e+04	3.534970e+00,	-2.05906e-05	
105	1.122018e+04	3.534970e+00,	-2.10702e-05	
106	1.148154e+04	3.534970e+00,	-2.15610e-05	
107	1.174898e+04	3.534970e+00,	-2.20633e-05	
108	1.202264e+04	3.534970e+00,	-2.25772e-05	
109	1.230269e+04	3.534970e+00,	-2.31031e-05	
110	1.258925e+04	3.534970e+00,	-2.36412e-05	
111	1.288250e+04	3.534970e+00,	-2.41919e-05	
112	1.318257e+04	3.534970e+00,	-2.47554e-05	

Index   frequency       vop                             
--------------------------------------------------------------------------------
113	1.348963e+04	3.534970e+00,	-2.53320e-05	
114	1.380384e+04	3.534970e+00,	-2.59221e-05	
115	1.412538e+04	3.534970e+00,	-2.65259e-05	
116	1.445440e+04	3.534970e+00,	-2.71437e-05	
117	1.479108e+04	3.534970e+00,	-2.77760e-05	
118	1.513561e+04	3.534970e+00,	-2.84230e-05	
119	1.548817e+04	3.534970e+00,	-2.90850e-05	
120	1.584893e+04	3.534970e+00,	-2.97625e-05	
121	1.621810e+04	3.534970e+00,	-3.04558e-05	
122	1.659587e+04	3.534970e+00,	-3.11652e-05	
123	1.698244e+04	3.534970e+00,	-3.18911e-05	
124	1.737801e+04	3.534970e+00,	-3.26339e-05	
125	1.778279e+04	3.534970e+00,	-3.33941e-05	
126	1.819701e+04	3.534970e+00,	-3.41719e-05	
127	1.862087e+04	3.534970e+00,	-3.49679e-05	
128	1.905461e+04	3.534970e+00,	-3.57824e-05	
129	1.949845e+04	3.534970e+00,	-3.66159e-05	
130	1.995262e+04	3.534970e+00,	-3.74688e-05	
131	2.041738e+04	3.534970e+00,	-3.83415e-05	
132	2.089296e+04	3.534970e+00,	-3.92346e-05	
133	2.137962e+04	3.534970e+00,	-4.01485e-05	
134	2.187762e+04	3.534970e+00,	-4.10837e-05	
135	2.238721e+04	3.534970e+00,	-4.20407e-05	
136	2.290868e+04	3.534970e+00,	-4.30199e-05	
137	2.344229e+04	3.534970e+00,	-4.40220e-05	
138	2.398833e+04	3.534970e+00,	-4.50474e-05	
139	2.454709e+04	3.534970e+00,	-4.60967e-05	
140	2.511886e+04	3.534970e+00,	-4.71704e-05	
141	2.570396e+04	3.534970e+00,	-4.82691e-05	
142	2.630268e+04	3.534970e+00,	-4.93935e-05	
143	2.691535e+04	3.534970e+00,	-5.05440e-05	
144	2.754229e+04	3.534970e+00,	-5.17213e-05	
145	2.818383e+04	3.534970e+00,	-5.29261e-05	
146	2.884032e+04	3.534970e+00,	-5.41589e-05	
147	2.951209e+04	3.534970e+00,	-5.54204e-05	
148	3.019952e+04	3.534970e+00,	-5.67113e-05	
149	3.090295e+04	3.534970e+00,	-5.80323e-05	
150	3.162278e+04	3.534970e+00,	-5.93840e-05	
151	3.235937e+04	3.534970e+00,	-6.07672e-05	
152	3.311311e+04	3.534970e+00,	-6.21827e-05	
153	3.388442e+04	3.534970e+00,	-6.36311e-05	
154	3.467369e+04	3.534970e+00,	-6.51133e-05	
155	3.548134e+04	3.534970e+00,	-6.66300e-05	
156	3.630781e+04	3.534970e+00,	-6.81820e-05	
157	3.715352e+04	3.534970e+00,	-6.97701e-05	
158	3.801894e+04	3.534970e+00,	-7.13953e-05	
159	3.890451e+04	3.534970e+00,	-7.30583e-05	
160	3.981072e+04	3.534970e+00,	-7.47600e-05	
161	4.073803e+04	3.534970e+00,	-7.65014e-05	
162	4.168694e+04	3.534970e+00,	-7.82834e-05	
163	4.265795e+04	3.534970e+00,	-8.01068e-05	
164	4.365158e+04	3.534970e+00,	-8.19728e-05	
165	4.466836e+04	3.534970e+00,	-8.38821e-05	
166	4.570882e+04	3.534970e+00,	-8.58360e-05	
167	4.677351e+04	3.534970e+00,	-8.78354e-05	
168	4.786301e+04	3.534970e+00,	-8.98813e-05	
169	4.897788e+04	3.534970e+00,	-9.19749e-05	
170	5.011872e+04	3.534970e+00,	-9.41173e-05	

Index   frequency       vop                             
--------------------------------------------------------------------------------
171	5.128614e+04	3.534970e+00,	-9.63096e-05	
172	5.248075e+04	3.534970e+00,	-9.85529e-05	
173	5.370318e+04	3.534970e+00,	-1.00849e-04	
174	5.495409e+04	3.534970e+00,	-1.03198e-04	
175	5.623413e+04	3.534970e+00,	-1.05601e-04	
176	5.754399e+04	3.534970e+00,	-1.08061e-04	
177	5.888437e+04	3.534970e+00,	-1.10578e-04	
178	6.025596e+04	3.534970e+00,	-1.13154e-04	
179	6.165950e+04	3.534970e+00,	-1.15790e-04	
180	6.309573e+04	3.534970e+00,	-1.18487e-04	
181	6.456542e+04	3.534970e+00,	-1.21247e-04	
182	6.606934e+04	3.534970e+00,	-1.24071e-04	
183	6.760830e+04	3.534970e+00,	-1.26961e-04	
184	6.918310e+04	3.534970e+00,	-1.29918e-04	
185	7.079458e+04	3.534970e+00,	-1.32944e-04	
186	7.244360e+04	3.534970e+00,	-1.36041e-04	
187	7.413102e+04	3.534970e+00,	-1.39210e-04	
188	7.585776e+04	3.534970e+00,	-1.42452e-04	
189	7.762471e+04	3.534970e+00,	-1.45770e-04	
190	7.943282e+04	3.534970e+00,	-1.49166e-04	
191	8.128305e+04	3.534970e+00,	-1.52640e-04	
192	8.317638e+04	3.534970e+00,	-1.56196e-04	
193	8.511380e+04	3.534970e+00,	-1.59834e-04	
194	8.709636e+04	3.534970e+00,	-1.63557e-04	
195	8.912509e+04	3.534970e+00,	-1.67367e-04	
196	9.120108e+04	3.534970e+00,	-1.71265e-04	
197	9.332543e+04	3.534970e+00,	-1.75255e-04	
198	9.549926e+04	3.534970e+00,	-1.79337e-04	
199	9.772372e+04	3.534970e+00,	-1.83514e-04	
200	1.000000e+05	3.534970e+00,	-1.87789e-04	
201	1.023293e+05	3.534970e+00,	-1.92163e-04	
202	1.047129e+05	3.534970e+00,	-1.96639e-04	
203	1.071519e+05	3.534970e+00,	-2.01219e-04	
204	1.096478e+05	3.534970e+00,	-2.05906e-04	
205	1.122018e+05	3.534970e+00,	-2.10702e-04	
206	1.148154e+05	3.534970e+00,	-2.15610e-04	
207	1.174898e+05	3.534970e+00,	-2.20633e-04	
208	1.202264e+05	3.534970e+00,	-2.25772e-04	
209	1.230269e+05	3.534970e+00,	-2.31031e-04	
210	1.258925e+05	3.534970e+00,	-2.36412e-04	
211	1.288250e+05	3.534970e+00,	-2.41919e-04	
212	1.318257e+05	3.534970e+00,	-2.47554e-04	
213	1.348963e+05	3.534970e+00,	-2.53320e-04	
214	1.380384e+05	3.534970e+00,	-2.59221e-04	
215	1.412538e+05	3.534970e+00,	-2.65259e-04	
216	1.445440e+05	3.534970e+00,	-2.71437e-04	
217	1.479108e+05	3.534970e+00,	-2.77760e-04	
218	1.513561e+05	3.534970e+00,	-2.84230e-04	
219	1.548817e+05	3.534970e+00,	-2.90850e-04	
220	1.584893e+05	3.534970e+00,	-2.97625e-04	
221	1.621810e+05	3.534970e+00,	-3.04558e-04	
222	1.659587e+05	3.534970e+00,	-3.11652e-04	
223	1.698244e+05	3.534970e+00,	-3.18911e-04	
224	1.737801e+05	3.534970e+00,	-3.26339e-04	
225	1.778279e+05	3.534970e+00,	-3.33941e-04	
226	1.819701e+05	3.534970e+00,	-3.41719e-04	
227	1.862087e+05	3.534970e+00,	-3.49679e-04	
228	1.905461e+05	3.534970e+00,	-3.57824e-04	

Index   frequency       vop                             
--------------------------------------------------------------------------------
229	1.949845e+05	3.534970e+00,	-3.66159e-04	
230	1.995262e+05	3.534970e+00,	-3.74688e-04	
231	2.041738e+05	3.534970e+00,	-3.83415e-04	
232	2.089296e+05	3.534970e+00,	-3.92346e-04	
233	2.137962e+05	3.534970e+00,	-4.01485e-04	
234	2.187762e+05	3.534970e+00,	-4.10837e-04	
235	2.238721e+05	3.534970e+00,	-4.20407e-04	
236	2.290868e+05	3.534970e+00,	-4.30199e-04	
237	2.344229e+05	3.534970e+00,	-4.40220e-04	
238	2.398833e+05	3.534970e+00,	-4.50474e-04	
239	2.454709e+05	3.534970e+00,	-4.60967e-04	
240	2.511886e+05	3.534970e+00,	-4.71704e-04	
241	2.570396e+05	3.534970e+00,	-4.82691e-04	
242	2.630268e+05	3.534970e+00,	-4.93935e-04	
243	2.691535e+05	3.534970e+00,	-5.05440e-04	
244	2.754229e+05	3.534970e+00,	-5.17213e-04	
245	2.818383e+05	3.534970e+00,	-5.29261e-04	
246	2.884032e+05	3.534970e+00,	-5.41589e-04	
247	2.951209e+05	3.534970e+00,	-5.54204e-04	
248	3.019952e+05	3.534970e+00,	-5.67113e-04	
249	3.090295e+05	3.534970e+00,	-5.80323e-04	
250	3.162278e+05	3.534970e+00,	-5.93840e-04	
251	3.235937e+05	3.534970e+00,	-6.07673e-04	
252	3.311311e+05	3.534970e+00,	-6.21827e-04	
253	3.388442e+05	3.534970e+00,	-6.36311e-04	
254	3.467369e+05	3.534970e+00,	-6.51133e-04	
255	3.548134e+05	3.534970e+00,	-6.66300e-04	
256	3.630781e+05	3.534970e+00,	-6.81820e-04	
257	3.715352e+05	3.534970e+00,	-6.97702e-04	
258	3.801894e+05	3.534970e+00,	-7.13953e-04	
259	3.890451e+05	3.534970e+00,	-7.30583e-04	
260	3.981072e+05	3.534970e+00,	-7.47601e-04	
261	4.073803e+05	3.534970e+00,	-7.65015e-04	
262	4.168694e+05	3.534970e+00,	-7.82834e-04	
263	4.265795e+05	3.534970e+00,	-8.01069e-04	
264	4.365158e+05	3.534970e+00,	-8.19728e-04	
265	4.466836e+05	3.534970e+00,	-8.38822e-04	
266	4.570882e+05	3.534970e+00,	-8.58361e-04	
267	4.677351e+05	3.534970e+00,	-8.78354e-04	
268	4.786301e+05	3.534970e+00,	-8.98814e-04	
269	4.897788e+05	3.534970e+00,	-9.19750e-04	
270	5.011872e+05	3.534970e+00,	-9.41174e-04	
271	5.128614e+05	3.534970e+00,	-9.63096e-04	
272	5.248075e+05	3.534970e+00,	-9.85530e-04	
273	5.370318e+05	3.534970e+00,	-1.00849e-03	
274	5.495409e+05	3.534970e+00,	-1.03198e-03	
275	5.623413e+05	3.534970e+00,	-1.05601e-03	
276	5.754399e+05	3.534970e+00,	-1.08061e-03	
277	5.888437e+05	3.534970e+00,	-1.10578e-03	
278	6.025596e+05	3.534970e+00,	-1.13154e-03	
279	6.165950e+05	3.534970e+00,	-1.15790e-03	
280	6.309573e+05	3.534970e+00,	-1.18487e-03	
281	6.456542e+05	3.534970e+00,	-1.21247e-03	
282	6.606934e+05	3.534970e+00,	-1.24071e-03	
283	6.760830e+05	3.534970e+00,	-1.26961e-03	
284	6.918310e+05	3.534970e+00,	-1.29918e-03	
285	7.079458e+05	3.534970e+00,	-1.32944e-03	
286	7.244360e+05	3.534970e+00,	-1.36041e-03	

Index   frequency       vop                             
--------------------------------------------------------------------------------
287	7.413102e+05	3.534970e+00,	-1.39210e-03	
288	7.585776e+05	3.534970e+00,	-1.42453e-03	
289	7.762471e+05	3.534970e+00,	-1.45771e-03	
290	7.943282e+05	3.534970e+00,	-1.49166e-03	
291	8.128305e+05	3.534970e+00,	-1.52641e-03	
292	8.317638e+05	3.534970e+00,	-1.56196e-03	
293	8.511380e+05	3.534970e+00,	-1.59834e-03	
294	8.709636e+05	3.534970e+00,	-1.63557e-03	
295	8.912509e+05	3.534970e+00,	-1.67367e-03	
296	9.120108e+05	3.534970e+00,	-1.71266e-03	
297	9.332543e+05	3.534970e+00,	-1.75255e-03	
298	9.549926e+05	3.534970e+00,	-1.79337e-03	
299	9.772372e+05	3.534970e+00,	-1.83515e-03	
300	1.000000e+06	3.534970e+00,	-1.87789e-03	
301	1.023293e+06	3.534970e+00,	-1.92163e-03	
302	1.047129e+06	3.534970e+00,	-1.96639e-03	
303	1.071519e+06	3.534970e+00,	-2.01220e-03	
304	1.096478e+06	3.534970e+00,	-2.05907e-03	
305	1.122018e+06	3.534970e+00,	-2.10703e-03	
306	1.148154e+06	3.534970e+00,	-2.15611e-03	
307	1.174898e+06	3.534970e+00,	-2.20633e-03	
308	1.202264e+06	3.534970e+00,	-2.25772e-03	
309	1.230269e+06	3.534970e+00,	-2.31031e-03	
310	1.258925e+06	3.534970e+00,	-2.36413e-03	
311	1.288250e+06	3.534970e+00,	-2.41920e-03	
312	1.318257e+06	3.534970e+00,	-2.47555e-03	
313	1.348963e+06	3.534970e+00,	-2.53321e-03	
314	1.380384e+06	3.534970e+00,	-2.59222e-03	
315	1.412538e+06	3.534970e+00,	-2.65260e-03	
316	1.445440e+06	3.534970e+00,	-2.71439e-03	
317	1.479108e+06	3.534970e+00,	-2.77761e-03	
318	1.513561e+06	3.534970e+00,	-2.84231e-03	
319	1.548817e+06	3.534969e+00,	-2.90852e-03	
320	1.584893e+06	3.534969e+00,	-2.97627e-03	
321	1.621810e+06	3.534969e+00,	-3.04560e-03	
322	1.659587e+06	3.534969e+00,	-3.11654e-03	
323	1.698244e+06	3.534969e+00,	-3.18913e-03	
324	1.737801e+06	3.534969e+00,	-3.26342e-03	
325	1.778279e+06	3.534969e+00,	-3.33943e-03	
326	1.819701e+06	3.534969e+00,	-3.41722e-03	
327	1.862087e+06	3.534969e+00,	-3.49682e-03	
328	1.905461e+06	3.534969e+00,	-3.57827e-03	
329	1.949845e+06	3.534969e+00,	-3.66162e-03	
330	1.995262e+06	3.534969e+00,	-3.74691e-03	
331	2.041738e+06	3.534969e+00,	-3.83419e-03	
332	2.089296e+06	3.534969e+00,	-3.92350e-03	
333	2.137962e+06	3.534969e+00,	-4.01489e-03	
334	2.187762e+06	3.534969e+00,	-4.10841e-03	
335	2.238721e+06	3.534968e+00,	-4.20411e-03	
336	2.290868e+06	3.534968e+00,	-4.30204e-03	
337	2.344229e+06	3.534968e+00,	-4.40225e-03	
338	2.398833e+06	3.534968e+00,	-4.50480e-03	
339	2.454709e+06	3.534968e+00,	-4.60973e-03	
340	2.511886e+06	3.534968e+00,	-4.71711e-03	
341	2.570396e+06	3.534968e+00,	-4.82699e-03	
342	2.630268e+06	3.534968e+00,	-4.93943e-03	
343	2.691535e+06	3.534968e+00,	-5.05448e-03	
344	2.754229e+06	3.534967e+00,	-5.17222e-03	

Index   frequency       vop                             
--------------------------------------------------------------------------------
345	2.818383e+06	3.534967e+00,	-5.29270e-03	
346	2.884032e+06	3.534967e+00,	-5.41599e-03	
347	2.951209e+06	3.534967e+00,	-5.54215e-03	
348	3.019952e+06	3.534967e+00,	-5.67125e-03	
349	3.090295e+06	3.534967e+00,	-5.80335e-03	
350	3.162278e+06	3.534966e+00,	-5.93854e-03	
351	3.235937e+06	3.534966e+00,	-6.07687e-03	
352	3.311311e+06	3.534966e+00,	-6.21843e-03	
353	3.388442e+06	3.534966e+00,	-6.36328e-03	
354	3.467369e+06	3.534966e+00,	-6.51151e-03	
355	3.548134e+06	3.534965e+00,	-6.66319e-03	
356	3.630781e+06	3.534965e+00,	-6.81840e-03	
357	3.715352e+06	3.534965e+00,	-6.97723e-03	
358	3.801894e+06	3.534965e+00,	-7.13977e-03	
359	3.890451e+06	3.534964e+00,	-7.30608e-03	
360	3.981072e+06	3.534964e+00,	-7.47628e-03	
361	4.073803e+06	3.534964e+00,	-7.65043e-03	
362	4.168694e+06	3.534963e+00,	-7.82865e-03	
363	4.265795e+06	3.534963e+00,	-8.01102e-03	
364	4.365158e+06	3.534963e+00,	-8.19763e-03	
365	4.466836e+06	3.534962e+00,	-8.38860e-03	
366	4.570882e+06	3.534962e+00,	-8.58401e-03	
367	4.677351e+06	3.534962e+00,	-8.78398e-03	
368	4.786301e+06	3.534961e+00,	-8.98861e-03	
369	4.897788e+06	3.534961e+00,	-9.19800e-03	
370	5.011872e+06	3.534960e+00,	-9.41227e-03	
371	5.128614e+06	3.534960e+00,	-9.63154e-03	
372	5.248075e+06	3.534959e+00,	-9.85591e-03	
373	5.370318e+06	3.534959e+00,	-1.00855e-02	
374	5.495409e+06	3.534958e+00,	-1.03205e-02	
375	5.623413e+06	3.534958e+00,	-1.05609e-02	
376	5.754399e+06	3.534957e+00,	-1.08069e-02	
377	5.888437e+06	3.534956e+00,	-1.10587e-02	
378	6.025596e+06	3.534956e+00,	-1.13163e-02	
379	6.165950e+06	3.534955e+00,	-1.15800e-02	
380	6.309573e+06	3.534954e+00,	-1.18497e-02	
381	6.456542e+06	3.534954e+00,	-1.21258e-02	
382	6.606934e+06	3.534953e+00,	-1.24083e-02	
383	6.760830e+06	3.534952e+00,	-1.26974e-02	
384	6.918310e+06	3.534951e+00,	-1.29932e-02	
385	7.079458e+06	3.534950e+00,	-1.32959e-02	
386	7.244360e+06	3.534949e+00,	-1.36057e-02	
387	7.413102e+06	3.534948e+00,	-1.39227e-02	
388	7.585776e+06	3.534947e+00,	-1.42471e-02	
389	7.762471e+06	3.534946e+00,	-1.45790e-02	
390	7.943282e+06	3.534945e+00,	-1.49187e-02	
391	8.128305e+06	3.534944e+00,	-1.52663e-02	
392	8.317638e+06	3.534942e+00,	-1.56220e-02	
393	8.511380e+06	3.534941e+00,	-1.59860e-02	
394	8.709636e+06	3.534940e+00,	-1.63585e-02	
395	8.912509e+06	3.534938e+00,	-1.67397e-02	
396	9.120108e+06	3.534937e+00,	-1.71298e-02	
397	9.332543e+06	3.534935e+00,	-1.75289e-02	
398	9.549926e+06	3.534933e+00,	-1.79374e-02	
399	9.772372e+06	3.534932e+00,	-1.83554e-02	
400	1.000000e+07	3.534930e+00,	-1.87831e-02	
401	1.023293e+07	3.534928e+00,	-1.92208e-02	
402	1.047129e+07	3.534926e+00,	-1.96687e-02	

Index   frequency       vop                             
--------------------------------------------------------------------------------
403	1.071519e+07	3.534924e+00,	-2.01271e-02	
404	1.096478e+07	3.534921e+00,	-2.05962e-02	
405	1.122018e+07	3.534919e+00,	-2.10762e-02	
406	1.148154e+07	3.534917e+00,	-2.15674e-02	
407	1.174898e+07	3.534914e+00,	-2.20700e-02	
408	1.202264e+07	3.534911e+00,	-2.25844e-02	
409	1.230269e+07	3.534908e+00,	-2.31108e-02	
410	1.258925e+07	3.534905e+00,	-2.36495e-02	
411	1.288250e+07	3.534902e+00,	-2.42008e-02	
412	1.318257e+07	3.534899e+00,	-2.47649e-02	
413	1.348963e+07	3.534896e+00,	-2.53422e-02	
414	1.380384e+07	3.534892e+00,	-2.59330e-02	
415	1.412538e+07	3.534888e+00,	-2.65375e-02	
416	1.445440e+07	3.534884e+00,	-2.71562e-02	
