** sch_path: /home/andylithia/openmpw/project-reisen-chip1/xschem/ota_wideband.sch
AC Analysis  Sun Oct 30 17:11:03  2022
--------------------------------------------------------------------------------
Index   frequency       vop                             
--------------------------------------------------------------------------------
0	1.000000e+03	3.014501e+00,	4.903038e-07	
1	1.023293e+03	3.014501e+00,	5.017244e-07	
2	1.047129e+03	3.014501e+00,	5.134111e-07	
3	1.071519e+03	3.014501e+00,	5.253700e-07	
4	1.096478e+03	3.014501e+00,	5.376074e-07	
5	1.122018e+03	3.014501e+00,	5.501299e-07	
6	1.148154e+03	3.014501e+00,	5.629441e-07	
7	1.174898e+03	3.014501e+00,	5.760567e-07	
8	1.202264e+03	3.014501e+00,	5.894748e-07	
9	1.230269e+03	3.014501e+00,	6.032055e-07	
10	1.258925e+03	3.014501e+00,	6.172559e-07	
11	1.288250e+03	3.014501e+00,	6.316337e-07	
12	1.318257e+03	3.014501e+00,	6.463463e-07	
13	1.348963e+03	3.014501e+00,	6.614016e-07	
14	1.380384e+03	3.014501e+00,	6.768077e-07	
15	1.412538e+03	3.014501e+00,	6.925725e-07	
16	1.445440e+03	3.014501e+00,	7.087046e-07	
17	1.479108e+03	3.014501e+00,	7.252125e-07	
18	1.513561e+03	3.014501e+00,	7.421048e-07	
19	1.548817e+03	3.014501e+00,	7.593907e-07	
20	1.584893e+03	3.014501e+00,	7.770792e-07	
21	1.621810e+03	3.014501e+00,	7.951797e-07	
22	1.659587e+03	3.014501e+00,	8.137018e-07	
23	1.698244e+03	3.014501e+00,	8.326553e-07	
24	1.737801e+03	3.014501e+00,	8.520504e-07	
25	1.778279e+03	3.014501e+00,	8.718972e-07	
26	1.819701e+03	3.014501e+00,	8.922062e-07	
27	1.862087e+03	3.014501e+00,	9.129884e-07	
28	1.905461e+03	3.014501e+00,	9.342546e-07	
29	1.949845e+03	3.014501e+00,	9.560162e-07	
30	1.995262e+03	3.014501e+00,	9.782847e-07	
31	2.041738e+03	3.014501e+00,	1.001072e-06	
32	2.089296e+03	3.014501e+00,	1.024390e-06	
33	2.137962e+03	3.014501e+00,	1.048251e-06	
34	2.187762e+03	3.014501e+00,	1.072668e-06	
35	2.238721e+03	3.014501e+00,	1.097653e-06	
36	2.290868e+03	3.014501e+00,	1.123221e-06	
37	2.344229e+03	3.014501e+00,	1.149384e-06	
38	2.398833e+03	3.014501e+00,	1.176157e-06	
39	2.454709e+03	3.014501e+00,	1.203553e-06	
40	2.511886e+03	3.014501e+00,	1.231587e-06	
41	2.570396e+03	3.014501e+00,	1.260275e-06	
42	2.630268e+03	3.014501e+00,	1.289630e-06	
43	2.691535e+03	3.014501e+00,	1.319670e-06	
44	2.754229e+03	3.014501e+00,	1.350409e-06	
45	2.818383e+03	3.014501e+00,	1.381864e-06	
46	2.884032e+03	3.014501e+00,	1.414052e-06	
47	2.951209e+03	3.014501e+00,	1.446989e-06	
48	3.019952e+03	3.014501e+00,	1.480694e-06	
49	3.090295e+03	3.014501e+00,	1.515184e-06	
50	3.162278e+03	3.014501e+00,	1.550477e-06	
51	3.235937e+03	3.014501e+00,	1.586592e-06	
52	3.311311e+03	3.014501e+00,	1.623548e-06	
53	3.388442e+03	3.014501e+00,	1.661366e-06	
54	3.467369e+03	3.014501e+00,	1.700064e-06	

Index   frequency       vop                             
--------------------------------------------------------------------------------
55	3.548134e+03	3.014501e+00,	1.739664e-06	
56	3.630781e+03	3.014501e+00,	1.780186e-06	
57	3.715352e+03	3.014501e+00,	1.821651e-06	
58	3.801894e+03	3.014501e+00,	1.864083e-06	
59	3.890451e+03	3.014501e+00,	1.907503e-06	
60	3.981072e+03	3.014501e+00,	1.951935e-06	
61	4.073803e+03	3.014501e+00,	1.997401e-06	
62	4.168694e+03	3.014501e+00,	2.043926e-06	
63	4.265795e+03	3.014501e+00,	2.091536e-06	
64	4.365158e+03	3.014501e+00,	2.140254e-06	
65	4.466836e+03	3.014501e+00,	2.190107e-06	
66	4.570882e+03	3.014501e+00,	2.241121e-06	
67	4.677351e+03	3.014501e+00,	2.293323e-06	
68	4.786301e+03	3.014501e+00,	2.346742e-06	
69	4.897788e+03	3.014501e+00,	2.401404e-06	
70	5.011872e+03	3.014501e+00,	2.457340e-06	
71	5.128614e+03	3.014501e+00,	2.514579e-06	
72	5.248075e+03	3.014501e+00,	2.573151e-06	
73	5.370318e+03	3.014501e+00,	2.633087e-06	
74	5.495409e+03	3.014501e+00,	2.694420e-06	
75	5.623413e+03	3.014501e+00,	2.757181e-06	
76	5.754399e+03	3.014501e+00,	2.821404e-06	
77	5.888437e+03	3.014501e+00,	2.887123e-06	
78	6.025596e+03	3.014501e+00,	2.954373e-06	
79	6.165950e+03	3.014501e+00,	3.023189e-06	
80	6.309573e+03	3.014501e+00,	3.093608e-06	
81	6.456542e+03	3.014501e+00,	3.165667e-06	
82	6.606934e+03	3.014501e+00,	3.239405e-06	
83	6.760830e+03	3.014501e+00,	3.314861e-06	
84	6.918310e+03	3.014501e+00,	3.392074e-06	
85	7.079458e+03	3.014501e+00,	3.471085e-06	
86	7.244360e+03	3.014501e+00,	3.551937e-06	
87	7.413102e+03	3.014501e+00,	3.634672e-06	
88	7.585776e+03	3.014501e+00,	3.719335e-06	
89	7.762471e+03	3.014501e+00,	3.805969e-06	
90	7.943282e+03	3.014501e+00,	3.894622e-06	
91	8.128305e+03	3.014501e+00,	3.985339e-06	
92	8.317638e+03	3.014501e+00,	4.078169e-06	
93	8.511380e+03	3.014501e+00,	4.173162e-06	
94	8.709636e+03	3.014501e+00,	4.270368e-06	
95	8.912509e+03	3.014501e+00,	4.369837e-06	
96	9.120108e+03	3.014501e+00,	4.471624e-06	
97	9.332543e+03	3.014501e+00,	4.575781e-06	
98	9.549926e+03	3.014501e+00,	4.682365e-06	
99	9.772372e+03	3.014501e+00,	4.791431e-06	
100	1.000000e+04	3.014501e+00,	4.903038e-06	
101	1.023293e+04	3.014501e+00,	5.017244e-06	
102	1.047129e+04	3.014501e+00,	5.134111e-06	
103	1.071519e+04	3.014501e+00,	5.253700e-06	
104	1.096478e+04	3.014501e+00,	5.376074e-06	
105	1.122018e+04	3.014501e+00,	5.501299e-06	
106	1.148154e+04	3.014501e+00,	5.629441e-06	
107	1.174898e+04	3.014501e+00,	5.760567e-06	
108	1.202264e+04	3.014501e+00,	5.894748e-06	
109	1.230269e+04	3.014501e+00,	6.032055e-06	
110	1.258925e+04	3.014501e+00,	6.172559e-06	
111	1.288250e+04	3.014501e+00,	6.316336e-06	
112	1.318257e+04	3.014501e+00,	6.463463e-06	

Index   frequency       vop                             
--------------------------------------------------------------------------------
113	1.348963e+04	3.014501e+00,	6.614016e-06	
114	1.380384e+04	3.014501e+00,	6.768076e-06	
115	1.412538e+04	3.014501e+00,	6.925725e-06	
116	1.445440e+04	3.014501e+00,	7.087046e-06	
117	1.479108e+04	3.014501e+00,	7.252125e-06	
118	1.513561e+04	3.014501e+00,	7.421048e-06	
119	1.548817e+04	3.014501e+00,	7.593907e-06	
120	1.584893e+04	3.014501e+00,	7.770792e-06	
121	1.621810e+04	3.014501e+00,	7.951796e-06	
122	1.659587e+04	3.014501e+00,	8.137018e-06	
123	1.698244e+04	3.014501e+00,	8.326553e-06	
124	1.737801e+04	3.014501e+00,	8.520503e-06	
125	1.778279e+04	3.014501e+00,	8.718971e-06	
126	1.819701e+04	3.014501e+00,	8.922062e-06	
127	1.862087e+04	3.014501e+00,	9.129884e-06	
128	1.905461e+04	3.014501e+00,	9.342546e-06	
129	1.949845e+04	3.014501e+00,	9.560162e-06	
130	1.995262e+04	3.014501e+00,	9.782847e-06	
131	2.041738e+04	3.014501e+00,	1.001072e-05	
132	2.089296e+04	3.014501e+00,	1.024390e-05	
133	2.137962e+04	3.014501e+00,	1.048251e-05	
134	2.187762e+04	3.014501e+00,	1.072668e-05	
135	2.238721e+04	3.014501e+00,	1.097653e-05	
136	2.290868e+04	3.014501e+00,	1.123221e-05	
137	2.344229e+04	3.014501e+00,	1.149384e-05	
138	2.398833e+04	3.014501e+00,	1.176157e-05	
139	2.454709e+04	3.014501e+00,	1.203553e-05	
140	2.511886e+04	3.014501e+00,	1.231587e-05	
141	2.570396e+04	3.014501e+00,	1.260275e-05	
142	2.630268e+04	3.014501e+00,	1.289630e-05	
143	2.691535e+04	3.014501e+00,	1.319670e-05	
144	2.754229e+04	3.014501e+00,	1.350409e-05	
145	2.818383e+04	3.014501e+00,	1.381864e-05	
146	2.884032e+04	3.014501e+00,	1.414052e-05	
147	2.951209e+04	3.014501e+00,	1.446989e-05	
148	3.019952e+04	3.014501e+00,	1.480694e-05	
149	3.090295e+04	3.014501e+00,	1.515184e-05	
150	3.162278e+04	3.014501e+00,	1.550477e-05	
151	3.235937e+04	3.014501e+00,	1.586592e-05	
152	3.311311e+04	3.014501e+00,	1.623548e-05	
153	3.388442e+04	3.014501e+00,	1.661366e-05	
154	3.467369e+04	3.014501e+00,	1.700064e-05	
155	3.548134e+04	3.014501e+00,	1.739663e-05	
156	3.630781e+04	3.014501e+00,	1.780185e-05	
157	3.715352e+04	3.014501e+00,	1.821651e-05	
158	3.801894e+04	3.014501e+00,	1.864083e-05	
159	3.890451e+04	3.014501e+00,	1.907503e-05	
160	3.981072e+04	3.014501e+00,	1.951935e-05	
161	4.073803e+04	3.014501e+00,	1.997401e-05	
162	4.168694e+04	3.014501e+00,	2.043926e-05	
163	4.265795e+04	3.014501e+00,	2.091535e-05	
164	4.365158e+04	3.014501e+00,	2.140254e-05	
165	4.466836e+04	3.014501e+00,	2.190107e-05	
166	4.570882e+04	3.014501e+00,	2.241121e-05	
167	4.677351e+04	3.014501e+00,	2.293323e-05	
168	4.786301e+04	3.014501e+00,	2.346741e-05	
169	4.897788e+04	3.014501e+00,	2.401404e-05	
170	5.011872e+04	3.014501e+00,	2.457340e-05	

Index   frequency       vop                             
--------------------------------------------------------------------------------
171	5.128614e+04	3.014501e+00,	2.514579e-05	
172	5.248075e+04	3.014501e+00,	2.573151e-05	
173	5.370318e+04	3.014501e+00,	2.633087e-05	
174	5.495409e+04	3.014501e+00,	2.694420e-05	
175	5.623413e+04	3.014501e+00,	2.757181e-05	
176	5.754399e+04	3.014501e+00,	2.821404e-05	
177	5.888437e+04	3.014501e+00,	2.887123e-05	
178	6.025596e+04	3.014501e+00,	2.954372e-05	
179	6.165950e+04	3.014501e+00,	3.023188e-05	
180	6.309573e+04	3.014501e+00,	3.093607e-05	
181	6.456542e+04	3.014501e+00,	3.165667e-05	
182	6.606934e+04	3.014501e+00,	3.239405e-05	
183	6.760830e+04	3.014501e+00,	3.314860e-05	
184	6.918310e+04	3.014501e+00,	3.392073e-05	
185	7.079458e+04	3.014501e+00,	3.471085e-05	
186	7.244360e+04	3.014501e+00,	3.551937e-05	
187	7.413102e+04	3.014501e+00,	3.634672e-05	
188	7.585776e+04	3.014501e+00,	3.719334e-05	
189	7.762471e+04	3.014501e+00,	3.805968e-05	
190	7.943282e+04	3.014501e+00,	3.894621e-05	
191	8.128305e+04	3.014501e+00,	3.985338e-05	
192	8.317638e+04	3.014501e+00,	4.078169e-05	
193	8.511380e+04	3.014501e+00,	4.173161e-05	
194	8.709636e+04	3.014501e+00,	4.270367e-05	
195	8.912509e+04	3.014501e+00,	4.369836e-05	
196	9.120108e+04	3.014501e+00,	4.471623e-05	
197	9.332543e+04	3.014501e+00,	4.575780e-05	
198	9.549926e+04	3.014501e+00,	4.682364e-05	
199	9.772372e+04	3.014501e+00,	4.791430e-05	
200	1.000000e+05	3.014501e+00,	4.903037e-05	
201	1.023293e+05	3.014501e+00,	5.017243e-05	
202	1.047129e+05	3.014501e+00,	5.134109e-05	
203	1.071519e+05	3.014501e+00,	5.253698e-05	
204	1.096478e+05	3.014501e+00,	5.376072e-05	
205	1.122018e+05	3.014501e+00,	5.501297e-05	
206	1.148154e+05	3.014501e+00,	5.629439e-05	
207	1.174898e+05	3.014501e+00,	5.760565e-05	
208	1.202264e+05	3.014501e+00,	5.894746e-05	
209	1.230269e+05	3.014501e+00,	6.032052e-05	
210	1.258925e+05	3.014501e+00,	6.172556e-05	
211	1.288250e+05	3.014501e+00,	6.316334e-05	
212	1.318257e+05	3.014501e+00,	6.463460e-05	
213	1.348963e+05	3.014501e+00,	6.614013e-05	
214	1.380384e+05	3.014501e+00,	6.768073e-05	
215	1.412538e+05	3.014501e+00,	6.925721e-05	
216	1.445440e+05	3.014501e+00,	7.087042e-05	
217	1.479108e+05	3.014501e+00,	7.252120e-05	
218	1.513561e+05	3.014501e+00,	7.421044e-05	
219	1.548817e+05	3.014501e+00,	7.593902e-05	
220	1.584893e+05	3.014501e+00,	7.770786e-05	
221	1.621810e+05	3.014501e+00,	7.951791e-05	
222	1.659587e+05	3.014501e+00,	8.137011e-05	
223	1.698244e+05	3.014501e+00,	8.326546e-05	
224	1.737801e+05	3.014501e+00,	8.520496e-05	
225	1.778279e+05	3.014501e+00,	8.718964e-05	
226	1.819701e+05	3.014501e+00,	8.922054e-05	
227	1.862087e+05	3.014501e+00,	9.129875e-05	
228	1.905461e+05	3.014501e+00,	9.342537e-05	

Index   frequency       vop                             
--------------------------------------------------------------------------------
229	1.949845e+05	3.014501e+00,	9.560152e-05	
230	1.995262e+05	3.014501e+00,	9.782836e-05	
231	2.041738e+05	3.014501e+00,	1.001071e-04	
232	2.089296e+05	3.014501e+00,	1.024389e-04	
233	2.137962e+05	3.014501e+00,	1.048250e-04	
234	2.187762e+05	3.014501e+00,	1.072666e-04	
235	2.238721e+05	3.014501e+00,	1.097652e-04	
236	2.290868e+05	3.014501e+00,	1.123219e-04	
237	2.344229e+05	3.014501e+00,	1.149383e-04	
238	2.398833e+05	3.014501e+00,	1.176155e-04	
239	2.454709e+05	3.014501e+00,	1.203551e-04	
240	2.511886e+05	3.014501e+00,	1.231585e-04	
241	2.570396e+05	3.014501e+00,	1.260272e-04	
242	2.630268e+05	3.014501e+00,	1.289628e-04	
243	2.691535e+05	3.014501e+00,	1.319667e-04	
244	2.754229e+05	3.014501e+00,	1.350406e-04	
245	2.818383e+05	3.014502e+00,	1.381861e-04	
246	2.884032e+05	3.014502e+00,	1.414048e-04	
247	2.951209e+05	3.014502e+00,	1.446986e-04	
248	3.019952e+05	3.014502e+00,	1.480690e-04	
249	3.090295e+05	3.014502e+00,	1.515180e-04	
250	3.162278e+05	3.014502e+00,	1.550472e-04	
251	3.235937e+05	3.014502e+00,	1.586587e-04	
252	3.311311e+05	3.014502e+00,	1.623543e-04	
253	3.388442e+05	3.014502e+00,	1.661360e-04	
254	3.467369e+05	3.014502e+00,	1.700058e-04	
255	3.548134e+05	3.014502e+00,	1.739657e-04	
256	3.630781e+05	3.014502e+00,	1.780179e-04	
257	3.715352e+05	3.014502e+00,	1.821644e-04	
258	3.801894e+05	3.014502e+00,	1.864075e-04	
259	3.890451e+05	3.014502e+00,	1.907495e-04	
260	3.981072e+05	3.014502e+00,	1.951926e-04	
261	4.073803e+05	3.014502e+00,	1.997392e-04	
262	4.168694e+05	3.014502e+00,	2.043916e-04	
263	4.265795e+05	3.014502e+00,	2.091525e-04	
264	4.365158e+05	3.014502e+00,	2.140242e-04	
265	4.466836e+05	3.014502e+00,	2.190094e-04	
266	4.570882e+05	3.014502e+00,	2.241108e-04	
267	4.677351e+05	3.014503e+00,	2.293309e-04	
268	4.786301e+05	3.014503e+00,	2.346726e-04	
269	4.897788e+05	3.014503e+00,	2.401388e-04	
270	5.011872e+05	3.014503e+00,	2.457323e-04	
271	5.128614e+05	3.014503e+00,	2.514560e-04	
272	5.248075e+05	3.014503e+00,	2.573131e-04	
273	5.370318e+05	3.014503e+00,	2.633066e-04	
274	5.495409e+05	3.014503e+00,	2.694397e-04	
275	5.623413e+05	3.014503e+00,	2.757156e-04	
276	5.754399e+05	3.014503e+00,	2.821377e-04	
277	5.888437e+05	3.014503e+00,	2.887095e-04	
278	6.025596e+05	3.014504e+00,	2.954342e-04	
279	6.165950e+05	3.014504e+00,	3.023156e-04	
280	6.309573e+05	3.014504e+00,	3.093573e-04	
281	6.456542e+05	3.014504e+00,	3.165630e-04	
282	6.606934e+05	3.014504e+00,	3.239365e-04	
283	6.760830e+05	3.014504e+00,	3.314818e-04	
284	6.918310e+05	3.014504e+00,	3.392028e-04	
285	7.079458e+05	3.014504e+00,	3.471036e-04	
286	7.244360e+05	3.014505e+00,	3.551884e-04	

Index   frequency       vop                             
--------------------------------------------------------------------------------
287	7.413102e+05	3.014505e+00,	3.634616e-04	
288	7.585776e+05	3.014505e+00,	3.719274e-04	
289	7.762471e+05	3.014505e+00,	3.805904e-04	
290	7.943282e+05	3.014505e+00,	3.894552e-04	
291	8.128305e+05	3.014506e+00,	3.985264e-04	
292	8.317638e+05	3.014506e+00,	4.078090e-04	
293	8.511380e+05	3.014506e+00,	4.173077e-04	
294	8.709636e+05	3.014506e+00,	4.270276e-04	
295	8.912509e+05	3.014507e+00,	4.369739e-04	
296	9.120108e+05	3.014507e+00,	4.471519e-04	
297	9.332543e+05	3.014507e+00,	4.575669e-04	
298	9.549926e+05	3.014507e+00,	4.682244e-04	
299	9.772372e+05	3.014508e+00,	4.791302e-04	
300	1.000000e+06	3.014508e+00,	4.902899e-04	
301	1.023293e+06	3.014508e+00,	5.017096e-04	
302	1.047129e+06	3.014509e+00,	5.133952e-04	
303	1.071519e+06	3.014509e+00,	5.253529e-04	
304	1.096478e+06	3.014509e+00,	5.375891e-04	
305	1.122018e+06	3.014510e+00,	5.501103e-04	
306	1.148154e+06	3.014510e+00,	5.629231e-04	
307	1.174898e+06	3.014511e+00,	5.760342e-04	
308	1.202264e+06	3.014511e+00,	5.894507e-04	
309	1.230269e+06	3.014512e+00,	6.031796e-04	
310	1.258925e+06	3.014512e+00,	6.172282e-04	
311	1.288250e+06	3.014513e+00,	6.316040e-04	
312	1.318257e+06	3.014513e+00,	6.463145e-04	
313	1.348963e+06	3.014514e+00,	6.613676e-04	
314	1.380384e+06	3.014514e+00,	6.767712e-04	
315	1.412538e+06	3.014515e+00,	6.925334e-04	
316	1.445440e+06	3.014516e+00,	7.086627e-04	
317	1.479108e+06	3.014516e+00,	7.251676e-04	
318	1.513561e+06	3.014517e+00,	7.420567e-04	
319	1.548817e+06	3.014518e+00,	7.593391e-04	
320	1.584893e+06	3.014519e+00,	7.770239e-04	
321	1.621810e+06	3.014519e+00,	7.951205e-04	
322	1.659587e+06	3.014520e+00,	8.136384e-04	
323	1.698244e+06	3.014521e+00,	8.325874e-04	
324	1.737801e+06	3.014522e+00,	8.519775e-04	
325	1.778279e+06	3.014523e+00,	8.718191e-04	
326	1.819701e+06	3.014524e+00,	8.921227e-04	
327	1.862087e+06	3.014525e+00,	9.128988e-04	
328	1.905461e+06	3.014527e+00,	9.341586e-04	
329	1.949845e+06	3.014528e+00,	9.559134e-04	
330	1.995262e+06	3.014529e+00,	9.781745e-04	
331	2.041738e+06	3.014530e+00,	1.000954e-03	
332	2.089296e+06	3.014532e+00,	1.024263e-03	
333	2.137962e+06	3.014533e+00,	1.048115e-03	
334	2.187762e+06	3.014535e+00,	1.072523e-03	
335	2.238721e+06	3.014536e+00,	1.097498e-03	
336	2.290868e+06	3.014538e+00,	1.123054e-03	
337	2.344229e+06	3.014540e+00,	1.149205e-03	
338	2.398833e+06	3.014541e+00,	1.175965e-03	
339	2.454709e+06	3.014543e+00,	1.203348e-03	
340	2.511886e+06	3.014545e+00,	1.231367e-03	
341	2.570396e+06	3.014547e+00,	1.260039e-03	
342	2.630268e+06	3.014550e+00,	1.289378e-03	
343	2.691535e+06	3.014552e+00,	1.319399e-03	
344	2.754229e+06	3.014554e+00,	1.350119e-03	

Index   frequency       vop                             
--------------------------------------------------------------------------------
345	2.818383e+06	3.014557e+00,	1.381553e-03	
346	2.884032e+06	3.014560e+00,	1.413718e-03	
347	2.951209e+06	3.014562e+00,	1.446632e-03	
348	3.019952e+06	3.014565e+00,	1.480311e-03	
349	3.090295e+06	3.014568e+00,	1.514774e-03	
350	3.162278e+06	3.014571e+00,	1.550037e-03	
351	3.235937e+06	3.014575e+00,	1.586121e-03	
352	3.311311e+06	3.014578e+00,	1.623044e-03	
353	3.388442e+06	3.014582e+00,	1.660825e-03	
354	3.467369e+06	3.014586e+00,	1.699485e-03	
355	3.548134e+06	3.014590e+00,	1.739043e-03	
356	3.630781e+06	3.014594e+00,	1.779520e-03	
357	3.715352e+06	3.014598e+00,	1.820938e-03	
358	3.801894e+06	3.014603e+00,	1.863319e-03	
359	3.890451e+06	3.014608e+00,	1.906684e-03	
360	3.981072e+06	3.014613e+00,	1.951057e-03	
361	4.073803e+06	3.014618e+00,	1.996460e-03	
362	4.168694e+06	3.014623e+00,	2.042918e-03	
363	4.265795e+06	3.014629e+00,	2.090455e-03	
364	4.365158e+06	3.014635e+00,	2.139096e-03	
365	4.466836e+06	3.014642e+00,	2.188866e-03	
366	4.570882e+06	3.014648e+00,	2.239791e-03	
367	4.677351e+06	3.014655e+00,	2.291898e-03	
368	4.786301e+06	3.014662e+00,	2.345214e-03	
369	4.897788e+06	3.014670e+00,	2.399767e-03	
370	5.011872e+06	3.014678e+00,	2.455585e-03	
371	5.128614e+06	3.014686e+00,	2.512698e-03	
372	5.248075e+06	3.014695e+00,	2.571135e-03	
373	5.370318e+06	3.014704e+00,	2.630927e-03	
374	5.495409e+06	3.014714e+00,	2.692104e-03	
375	5.623413e+06	3.014724e+00,	2.754699e-03	
376	5.754399e+06	3.014734e+00,	2.818743e-03	
377	5.888437e+06	3.014745e+00,	2.884271e-03	
378	6.025596e+06	3.014757e+00,	2.951316e-03	
379	6.165950e+06	3.014769e+00,	3.019912e-03	
380	6.309573e+06	3.014781e+00,	3.090096e-03	
381	6.456542e+06	3.014795e+00,	3.161902e-03	
382	6.606934e+06	3.014809e+00,	3.235369e-03	
383	6.760830e+06	3.014823e+00,	3.310534e-03	
384	6.918310e+06	3.014838e+00,	3.387436e-03	
385	7.079458e+06	3.014854e+00,	3.466113e-03	
386	7.244360e+06	3.014871e+00,	3.546607e-03	
387	7.413102e+06	3.014888e+00,	3.628958e-03	
388	7.585776e+06	3.014907e+00,	3.713208e-03	
389	7.762471e+06	3.014926e+00,	3.799401e-03	
390	7.943282e+06	3.014946e+00,	3.887579e-03	
391	8.128305e+06	3.014967e+00,	3.977788e-03	
392	8.317638e+06	3.014989e+00,	4.070074e-03	
393	8.511380e+06	3.015012e+00,	4.164481e-03	
394	8.709636e+06	3.015036e+00,	4.261059e-03	
395	8.912509e+06	3.015061e+00,	4.359856e-03	
396	9.120108e+06	3.015088e+00,	4.460920e-03	
397	9.332543e+06	3.015115e+00,	4.564303e-03	
398	9.549926e+06	3.015144e+00,	4.670056e-03	
399	9.772372e+06	3.015175e+00,	4.778230e-03	
400	1.000000e+07	3.015206e+00,	4.888880e-03	
401	1.023293e+07	3.015240e+00,	5.002059e-03	
402	1.047129e+07	3.015275e+00,	5.117823e-03	

Index   frequency       vop                             
--------------------------------------------------------------------------------
403	1.071519e+07	3.015311e+00,	5.236229e-03	
404	1.096478e+07	3.015349e+00,	5.357334e-03	
405	1.122018e+07	3.015389e+00,	5.481195e-03	
406	1.148154e+07	3.015431e+00,	5.607874e-03	
407	1.174898e+07	3.015475e+00,	5.737429e-03	
408	1.202264e+07	3.015521e+00,	5.869923e-03	
409	1.230269e+07	3.015570e+00,	6.005419e-03	
410	1.258925e+07	3.015620e+00,	6.143978e-03	
411	1.288250e+07	3.015673e+00,	6.285667e-03	
412	1.318257e+07	3.015728e+00,	6.430550e-03	
413	1.348963e+07	3.015786e+00,	6.578694e-03	
414	1.380384e+07	3.015847e+00,	6.730166e-03	
415	1.412538e+07	3.015911e+00,	6.885034e-03	
416	1.445440e+07	3.015977e+00,	7.043366e-03	
