** sch_path: /home/andylithia/openmpw/project-reisen-chip1/xschem/ota_wideband.sch
AC Analysis  Sun Oct 30 17:11:03  2022
--------------------------------------------------------------------------------
Index   frequency       vop                             
--------------------------------------------------------------------------------
0	1.000000e+03	3.461141e+00,	-1.69827e-06	
1	1.023293e+03	3.461141e+00,	-1.73783e-06	
2	1.047129e+03	3.461141e+00,	-1.77831e-06	
3	1.071519e+03	3.461141e+00,	-1.81973e-06	
4	1.096478e+03	3.461141e+00,	-1.86211e-06	
5	1.122018e+03	3.461141e+00,	-1.90549e-06	
6	1.148154e+03	3.461141e+00,	-1.94987e-06	
7	1.174898e+03	3.461141e+00,	-1.99529e-06	
8	1.202264e+03	3.461141e+00,	-2.04177e-06	
9	1.230269e+03	3.461141e+00,	-2.08933e-06	
10	1.258925e+03	3.461141e+00,	-2.13799e-06	
11	1.288250e+03	3.461141e+00,	-2.18779e-06	
12	1.318257e+03	3.461141e+00,	-2.23875e-06	
13	1.348963e+03	3.461141e+00,	-2.29090e-06	
14	1.380384e+03	3.461141e+00,	-2.34426e-06	
15	1.412538e+03	3.461141e+00,	-2.39887e-06	
16	1.445440e+03	3.461141e+00,	-2.45474e-06	
17	1.479108e+03	3.461141e+00,	-2.51192e-06	
18	1.513561e+03	3.461141e+00,	-2.57043e-06	
19	1.548817e+03	3.461141e+00,	-2.63031e-06	
20	1.584893e+03	3.461141e+00,	-2.69157e-06	
21	1.621810e+03	3.461141e+00,	-2.75427e-06	
22	1.659587e+03	3.461141e+00,	-2.81842e-06	
23	1.698244e+03	3.461141e+00,	-2.88407e-06	
24	1.737801e+03	3.461141e+00,	-2.95125e-06	
25	1.778279e+03	3.461141e+00,	-3.02000e-06	
26	1.819701e+03	3.461141e+00,	-3.09034e-06	
27	1.862087e+03	3.461141e+00,	-3.16232e-06	
28	1.905461e+03	3.461141e+00,	-3.23598e-06	
29	1.949845e+03	3.461141e+00,	-3.31136e-06	
30	1.995262e+03	3.461141e+00,	-3.38849e-06	
31	2.041738e+03	3.461141e+00,	-3.46742e-06	
32	2.089296e+03	3.461141e+00,	-3.54819e-06	
33	2.137962e+03	3.461141e+00,	-3.63083e-06	
34	2.187762e+03	3.461141e+00,	-3.71541e-06	
35	2.238721e+03	3.461141e+00,	-3.80195e-06	
36	2.290868e+03	3.461141e+00,	-3.89051e-06	
37	2.344229e+03	3.461141e+00,	-3.98113e-06	
38	2.398833e+03	3.461141e+00,	-4.07386e-06	
39	2.454709e+03	3.461141e+00,	-4.16875e-06	
40	2.511886e+03	3.461141e+00,	-4.26586e-06	
41	2.570396e+03	3.461141e+00,	-4.36522e-06	
42	2.630268e+03	3.461141e+00,	-4.46690e-06	
43	2.691535e+03	3.461141e+00,	-4.57095e-06	
44	2.754229e+03	3.461141e+00,	-4.67742e-06	
45	2.818383e+03	3.461141e+00,	-4.78637e-06	
46	2.884032e+03	3.461141e+00,	-4.89786e-06	
47	2.951209e+03	3.461141e+00,	-5.01195e-06	
48	3.019952e+03	3.461141e+00,	-5.12869e-06	
49	3.090295e+03	3.461141e+00,	-5.24815e-06	
50	3.162278e+03	3.461141e+00,	-5.37040e-06	
51	3.235937e+03	3.461141e+00,	-5.49549e-06	
52	3.311311e+03	3.461141e+00,	-5.62350e-06	
53	3.388442e+03	3.461141e+00,	-5.75448e-06	
54	3.467369e+03	3.461141e+00,	-5.88852e-06	

Index   frequency       vop                             
--------------------------------------------------------------------------------
55	3.548134e+03	3.461141e+00,	-6.02568e-06	
56	3.630781e+03	3.461141e+00,	-6.16604e-06	
57	3.715352e+03	3.461141e+00,	-6.30967e-06	
58	3.801894e+03	3.461141e+00,	-6.45664e-06	
59	3.890451e+03	3.461141e+00,	-6.60703e-06	
60	3.981072e+03	3.461141e+00,	-6.76093e-06	
61	4.073803e+03	3.461141e+00,	-6.91841e-06	
62	4.168694e+03	3.461141e+00,	-7.07956e-06	
63	4.265795e+03	3.461141e+00,	-7.24447e-06	
64	4.365158e+03	3.461141e+00,	-7.41321e-06	
65	4.466836e+03	3.461141e+00,	-7.58589e-06	
66	4.570882e+03	3.461141e+00,	-7.76258e-06	
67	4.677351e+03	3.461141e+00,	-7.94340e-06	
68	4.786301e+03	3.461141e+00,	-8.12842e-06	
69	4.897788e+03	3.461141e+00,	-8.31776e-06	
70	5.011872e+03	3.461141e+00,	-8.51150e-06	
71	5.128614e+03	3.461141e+00,	-8.70976e-06	
72	5.248075e+03	3.461141e+00,	-8.91264e-06	
73	5.370318e+03	3.461141e+00,	-9.12024e-06	
74	5.495409e+03	3.461141e+00,	-9.33268e-06	
75	5.623413e+03	3.461141e+00,	-9.55007e-06	
76	5.754399e+03	3.461141e+00,	-9.77251e-06	
77	5.888437e+03	3.461141e+00,	-1.00001e-05	
78	6.025596e+03	3.461141e+00,	-1.02331e-05	
79	6.165950e+03	3.461141e+00,	-1.04714e-05	
80	6.309573e+03	3.461141e+00,	-1.07153e-05	
81	6.456542e+03	3.461141e+00,	-1.09649e-05	
82	6.606934e+03	3.461141e+00,	-1.12203e-05	
83	6.760830e+03	3.461141e+00,	-1.14817e-05	
84	6.918310e+03	3.461141e+00,	-1.17491e-05	
85	7.079458e+03	3.461141e+00,	-1.20228e-05	
86	7.244360e+03	3.461141e+00,	-1.23029e-05	
87	7.413102e+03	3.461141e+00,	-1.25894e-05	
88	7.585776e+03	3.461141e+00,	-1.28827e-05	
89	7.762471e+03	3.461141e+00,	-1.31828e-05	
90	7.943282e+03	3.461141e+00,	-1.34898e-05	
91	8.128305e+03	3.461141e+00,	-1.38040e-05	
92	8.317638e+03	3.461141e+00,	-1.41256e-05	
93	8.511380e+03	3.461141e+00,	-1.44546e-05	
94	8.709636e+03	3.461141e+00,	-1.47913e-05	
95	8.912509e+03	3.461141e+00,	-1.51358e-05	
96	9.120108e+03	3.461141e+00,	-1.54884e-05	
97	9.332543e+03	3.461141e+00,	-1.58492e-05	
98	9.549926e+03	3.461141e+00,	-1.62183e-05	
99	9.772372e+03	3.461141e+00,	-1.65961e-05	
100	1.000000e+04	3.461141e+00,	-1.69827e-05	
101	1.023293e+04	3.461141e+00,	-1.73783e-05	
102	1.047129e+04	3.461141e+00,	-1.77831e-05	
103	1.071519e+04	3.461141e+00,	-1.81973e-05	
104	1.096478e+04	3.461141e+00,	-1.86211e-05	
105	1.122018e+04	3.461141e+00,	-1.90549e-05	
106	1.148154e+04	3.461141e+00,	-1.94987e-05	
107	1.174898e+04	3.461141e+00,	-1.99529e-05	
108	1.202264e+04	3.461141e+00,	-2.04177e-05	
109	1.230269e+04	3.461141e+00,	-2.08933e-05	
110	1.258925e+04	3.461141e+00,	-2.13799e-05	
111	1.288250e+04	3.461141e+00,	-2.18779e-05	
112	1.318257e+04	3.461141e+00,	-2.23875e-05	

Index   frequency       vop                             
--------------------------------------------------------------------------------
113	1.348963e+04	3.461141e+00,	-2.29090e-05	
114	1.380384e+04	3.461141e+00,	-2.34426e-05	
115	1.412538e+04	3.461141e+00,	-2.39887e-05	
116	1.445440e+04	3.461141e+00,	-2.45474e-05	
117	1.479108e+04	3.461141e+00,	-2.51192e-05	
118	1.513561e+04	3.461141e+00,	-2.57043e-05	
119	1.548817e+04	3.461141e+00,	-2.63031e-05	
120	1.584893e+04	3.461141e+00,	-2.69157e-05	
121	1.621810e+04	3.461141e+00,	-2.75427e-05	
122	1.659587e+04	3.461141e+00,	-2.81842e-05	
123	1.698244e+04	3.461141e+00,	-2.88407e-05	
124	1.737801e+04	3.461141e+00,	-2.95125e-05	
125	1.778279e+04	3.461141e+00,	-3.02000e-05	
126	1.819701e+04	3.461141e+00,	-3.09034e-05	
127	1.862087e+04	3.461141e+00,	-3.16232e-05	
128	1.905461e+04	3.461141e+00,	-3.23598e-05	
129	1.949845e+04	3.461141e+00,	-3.31136e-05	
130	1.995262e+04	3.461141e+00,	-3.38849e-05	
131	2.041738e+04	3.461141e+00,	-3.46742e-05	
132	2.089296e+04	3.461141e+00,	-3.54819e-05	
133	2.137962e+04	3.461141e+00,	-3.63083e-05	
134	2.187762e+04	3.461141e+00,	-3.71541e-05	
135	2.238721e+04	3.461141e+00,	-3.80195e-05	
136	2.290868e+04	3.461141e+00,	-3.89051e-05	
137	2.344229e+04	3.461141e+00,	-3.98113e-05	
138	2.398833e+04	3.461141e+00,	-4.07386e-05	
139	2.454709e+04	3.461141e+00,	-4.16875e-05	
140	2.511886e+04	3.461141e+00,	-4.26586e-05	
141	2.570396e+04	3.461141e+00,	-4.36522e-05	
142	2.630268e+04	3.461141e+00,	-4.46690e-05	
143	2.691535e+04	3.461141e+00,	-4.57095e-05	
144	2.754229e+04	3.461141e+00,	-4.67742e-05	
145	2.818383e+04	3.461141e+00,	-4.78637e-05	
146	2.884032e+04	3.461141e+00,	-4.89786e-05	
147	2.951209e+04	3.461141e+00,	-5.01195e-05	
148	3.019952e+04	3.461141e+00,	-5.12869e-05	
149	3.090295e+04	3.461141e+00,	-5.24815e-05	
150	3.162278e+04	3.461141e+00,	-5.37040e-05	
151	3.235937e+04	3.461141e+00,	-5.49549e-05	
152	3.311311e+04	3.461141e+00,	-5.62350e-05	
153	3.388442e+04	3.461141e+00,	-5.75448e-05	
154	3.467369e+04	3.461141e+00,	-5.88852e-05	
155	3.548134e+04	3.461141e+00,	-6.02568e-05	
156	3.630781e+04	3.461141e+00,	-6.16604e-05	
157	3.715352e+04	3.461141e+00,	-6.30967e-05	
158	3.801894e+04	3.461141e+00,	-6.45664e-05	
159	3.890451e+04	3.461141e+00,	-6.60703e-05	
160	3.981072e+04	3.461141e+00,	-6.76093e-05	
161	4.073803e+04	3.461141e+00,	-6.91841e-05	
162	4.168694e+04	3.461141e+00,	-7.07956e-05	
163	4.265795e+04	3.461141e+00,	-7.24447e-05	
164	4.365158e+04	3.461141e+00,	-7.41321e-05	
165	4.466836e+04	3.461141e+00,	-7.58589e-05	
166	4.570882e+04	3.461141e+00,	-7.76258e-05	
167	4.677351e+04	3.461141e+00,	-7.94340e-05	
168	4.786301e+04	3.461141e+00,	-8.12842e-05	
169	4.897788e+04	3.461141e+00,	-8.31776e-05	
170	5.011872e+04	3.461141e+00,	-8.51150e-05	

Index   frequency       vop                             
--------------------------------------------------------------------------------
171	5.128614e+04	3.461141e+00,	-8.70976e-05	
172	5.248075e+04	3.461141e+00,	-8.91264e-05	
173	5.370318e+04	3.461141e+00,	-9.12024e-05	
174	5.495409e+04	3.461141e+00,	-9.33268e-05	
175	5.623413e+04	3.461141e+00,	-9.55007e-05	
176	5.754399e+04	3.461141e+00,	-9.77251e-05	
177	5.888437e+04	3.461141e+00,	-1.00001e-04	
178	6.025596e+04	3.461141e+00,	-1.02331e-04	
179	6.165950e+04	3.461141e+00,	-1.04714e-04	
180	6.309573e+04	3.461141e+00,	-1.07153e-04	
181	6.456542e+04	3.461141e+00,	-1.09649e-04	
182	6.606934e+04	3.461141e+00,	-1.12203e-04	
183	6.760830e+04	3.461141e+00,	-1.14817e-04	
184	6.918310e+04	3.461141e+00,	-1.17491e-04	
185	7.079458e+04	3.461141e+00,	-1.20228e-04	
186	7.244360e+04	3.461141e+00,	-1.23029e-04	
187	7.413102e+04	3.461141e+00,	-1.25894e-04	
188	7.585776e+04	3.461141e+00,	-1.28827e-04	
189	7.762471e+04	3.461141e+00,	-1.31828e-04	
190	7.943282e+04	3.461141e+00,	-1.34898e-04	
191	8.128305e+04	3.461141e+00,	-1.38040e-04	
192	8.317638e+04	3.461141e+00,	-1.41256e-04	
193	8.511380e+04	3.461141e+00,	-1.44546e-04	
194	8.709636e+04	3.461141e+00,	-1.47913e-04	
195	8.912509e+04	3.461141e+00,	-1.51358e-04	
196	9.120108e+04	3.461141e+00,	-1.54884e-04	
197	9.332543e+04	3.461141e+00,	-1.58492e-04	
198	9.549926e+04	3.461141e+00,	-1.62183e-04	
199	9.772372e+04	3.461141e+00,	-1.65961e-04	
200	1.000000e+05	3.461141e+00,	-1.69827e-04	
201	1.023293e+05	3.461141e+00,	-1.73783e-04	
202	1.047129e+05	3.461141e+00,	-1.77831e-04	
203	1.071519e+05	3.461141e+00,	-1.81973e-04	
204	1.096478e+05	3.461141e+00,	-1.86211e-04	
205	1.122018e+05	3.461141e+00,	-1.90549e-04	
206	1.148154e+05	3.461141e+00,	-1.94987e-04	
207	1.174898e+05	3.461141e+00,	-1.99529e-04	
208	1.202264e+05	3.461141e+00,	-2.04177e-04	
209	1.230269e+05	3.461141e+00,	-2.08933e-04	
210	1.258925e+05	3.461141e+00,	-2.13799e-04	
211	1.288250e+05	3.461141e+00,	-2.18779e-04	
212	1.318257e+05	3.461141e+00,	-2.23875e-04	
213	1.348963e+05	3.461141e+00,	-2.29090e-04	
214	1.380384e+05	3.461141e+00,	-2.34426e-04	
215	1.412538e+05	3.461141e+00,	-2.39887e-04	
216	1.445440e+05	3.461141e+00,	-2.45474e-04	
217	1.479108e+05	3.461141e+00,	-2.51192e-04	
218	1.513561e+05	3.461141e+00,	-2.57043e-04	
219	1.548817e+05	3.461141e+00,	-2.63031e-04	
220	1.584893e+05	3.461141e+00,	-2.69157e-04	
221	1.621810e+05	3.461141e+00,	-2.75427e-04	
222	1.659587e+05	3.461141e+00,	-2.81842e-04	
223	1.698244e+05	3.461141e+00,	-2.88407e-04	
224	1.737801e+05	3.461141e+00,	-2.95125e-04	
225	1.778279e+05	3.461141e+00,	-3.02000e-04	
226	1.819701e+05	3.461141e+00,	-3.09034e-04	
227	1.862087e+05	3.461141e+00,	-3.16232e-04	
228	1.905461e+05	3.461141e+00,	-3.23598e-04	

Index   frequency       vop                             
--------------------------------------------------------------------------------
229	1.949845e+05	3.461141e+00,	-3.31136e-04	
230	1.995262e+05	3.461141e+00,	-3.38849e-04	
231	2.041738e+05	3.461141e+00,	-3.46742e-04	
232	2.089296e+05	3.461141e+00,	-3.54819e-04	
233	2.137962e+05	3.461141e+00,	-3.63083e-04	
234	2.187762e+05	3.461141e+00,	-3.71541e-04	
235	2.238721e+05	3.461141e+00,	-3.80195e-04	
236	2.290868e+05	3.461141e+00,	-3.89051e-04	
237	2.344229e+05	3.461141e+00,	-3.98113e-04	
238	2.398833e+05	3.461141e+00,	-4.07386e-04	
239	2.454709e+05	3.461141e+00,	-4.16875e-04	
240	2.511886e+05	3.461141e+00,	-4.26586e-04	
241	2.570396e+05	3.461141e+00,	-4.36522e-04	
242	2.630268e+05	3.461141e+00,	-4.46690e-04	
243	2.691535e+05	3.461141e+00,	-4.57095e-04	
244	2.754229e+05	3.461141e+00,	-4.67742e-04	
245	2.818383e+05	3.461141e+00,	-4.78637e-04	
246	2.884032e+05	3.461141e+00,	-4.89786e-04	
247	2.951209e+05	3.461141e+00,	-5.01194e-04	
248	3.019952e+05	3.461141e+00,	-5.12869e-04	
249	3.090295e+05	3.461141e+00,	-5.24815e-04	
250	3.162278e+05	3.461141e+00,	-5.37039e-04	
251	3.235937e+05	3.461141e+00,	-5.49549e-04	
252	3.311311e+05	3.461141e+00,	-5.62349e-04	
253	3.388442e+05	3.461141e+00,	-5.75448e-04	
254	3.467369e+05	3.461141e+00,	-5.88852e-04	
255	3.548134e+05	3.461141e+00,	-6.02568e-04	
256	3.630781e+05	3.461141e+00,	-6.16604e-04	
257	3.715352e+05	3.461141e+00,	-6.30966e-04	
258	3.801894e+05	3.461141e+00,	-6.45663e-04	
259	3.890451e+05	3.461141e+00,	-6.60703e-04	
260	3.981072e+05	3.461141e+00,	-6.76093e-04	
261	4.073803e+05	3.461141e+00,	-6.91841e-04	
262	4.168694e+05	3.461141e+00,	-7.07956e-04	
263	4.265795e+05	3.461141e+00,	-7.24446e-04	
264	4.365158e+05	3.461141e+00,	-7.41321e-04	
265	4.466836e+05	3.461141e+00,	-7.58588e-04	
266	4.570882e+05	3.461141e+00,	-7.76258e-04	
267	4.677351e+05	3.461141e+00,	-7.94339e-04	
268	4.786301e+05	3.461141e+00,	-8.12842e-04	
269	4.897788e+05	3.461141e+00,	-8.31775e-04	
270	5.011872e+05	3.461141e+00,	-8.51150e-04	
271	5.128614e+05	3.461141e+00,	-8.70976e-04	
272	5.248075e+05	3.461141e+00,	-8.91263e-04	
273	5.370318e+05	3.461141e+00,	-9.12023e-04	
274	5.495409e+05	3.461141e+00,	-9.33267e-04	
275	5.623413e+05	3.461141e+00,	-9.55006e-04	
276	5.754399e+05	3.461141e+00,	-9.77251e-04	
277	5.888437e+05	3.461141e+00,	-1.00001e-03	
278	6.025596e+05	3.461141e+00,	-1.02331e-03	
279	6.165950e+05	3.461141e+00,	-1.04714e-03	
280	6.309573e+05	3.461141e+00,	-1.07153e-03	
281	6.456542e+05	3.461141e+00,	-1.09649e-03	
282	6.606934e+05	3.461141e+00,	-1.12203e-03	
283	6.760830e+05	3.461141e+00,	-1.14817e-03	
284	6.918310e+05	3.461141e+00,	-1.17491e-03	
285	7.079458e+05	3.461141e+00,	-1.20228e-03	
286	7.244360e+05	3.461141e+00,	-1.23028e-03	

Index   frequency       vop                             
--------------------------------------------------------------------------------
287	7.413102e+05	3.461141e+00,	-1.25894e-03	
288	7.585776e+05	3.461141e+00,	-1.28827e-03	
289	7.762471e+05	3.461140e+00,	-1.31827e-03	
290	7.943282e+05	3.461140e+00,	-1.34898e-03	
291	8.128305e+05	3.461140e+00,	-1.38040e-03	
292	8.317638e+05	3.461140e+00,	-1.41256e-03	
293	8.511380e+05	3.461140e+00,	-1.44546e-03	
294	8.709636e+05	3.461140e+00,	-1.47913e-03	
295	8.912509e+05	3.461140e+00,	-1.51358e-03	
296	9.120108e+05	3.461140e+00,	-1.54884e-03	
297	9.332543e+05	3.461140e+00,	-1.58491e-03	
298	9.549926e+05	3.461140e+00,	-1.62183e-03	
299	9.772372e+05	3.461140e+00,	-1.65961e-03	
300	1.000000e+06	3.461140e+00,	-1.69826e-03	
301	1.023293e+06	3.461140e+00,	-1.73782e-03	
302	1.047129e+06	3.461140e+00,	-1.77830e-03	
303	1.071519e+06	3.461140e+00,	-1.81972e-03	
304	1.096478e+06	3.461140e+00,	-1.86211e-03	
305	1.122018e+06	3.461140e+00,	-1.90548e-03	
306	1.148154e+06	3.461140e+00,	-1.94987e-03	
307	1.174898e+06	3.461140e+00,	-1.99528e-03	
308	1.202264e+06	3.461140e+00,	-2.04176e-03	
309	1.230269e+06	3.461140e+00,	-2.08932e-03	
310	1.258925e+06	3.461140e+00,	-2.13798e-03	
311	1.288250e+06	3.461140e+00,	-2.18778e-03	
312	1.318257e+06	3.461140e+00,	-2.23874e-03	
313	1.348963e+06	3.461140e+00,	-2.29089e-03	
314	1.380384e+06	3.461140e+00,	-2.34425e-03	
315	1.412538e+06	3.461140e+00,	-2.39885e-03	
316	1.445440e+06	3.461140e+00,	-2.45473e-03	
317	1.479108e+06	3.461140e+00,	-2.51191e-03	
318	1.513561e+06	3.461139e+00,	-2.57042e-03	
319	1.548817e+06	3.461139e+00,	-2.63029e-03	
320	1.584893e+06	3.461139e+00,	-2.69156e-03	
321	1.621810e+06	3.461139e+00,	-2.75425e-03	
322	1.659587e+06	3.461139e+00,	-2.81840e-03	
323	1.698244e+06	3.461139e+00,	-2.88405e-03	
324	1.737801e+06	3.461139e+00,	-2.95123e-03	
325	1.778279e+06	3.461139e+00,	-3.01997e-03	
326	1.819701e+06	3.461139e+00,	-3.09031e-03	
327	1.862087e+06	3.461139e+00,	-3.16229e-03	
328	1.905461e+06	3.461139e+00,	-3.23595e-03	
329	1.949845e+06	3.461139e+00,	-3.31132e-03	
330	1.995262e+06	3.461138e+00,	-3.38845e-03	
331	2.041738e+06	3.461138e+00,	-3.46738e-03	
332	2.089296e+06	3.461138e+00,	-3.54814e-03	
333	2.137962e+06	3.461138e+00,	-3.63079e-03	
334	2.187762e+06	3.461138e+00,	-3.71536e-03	
335	2.238721e+06	3.461138e+00,	-3.80190e-03	
336	2.290868e+06	3.461138e+00,	-3.89045e-03	
337	2.344229e+06	3.461138e+00,	-3.98107e-03	
338	2.398833e+06	3.461137e+00,	-4.07380e-03	
339	2.454709e+06	3.461137e+00,	-4.16869e-03	
340	2.511886e+06	3.461137e+00,	-4.26578e-03	
341	2.570396e+06	3.461137e+00,	-4.36514e-03	
342	2.630268e+06	3.461137e+00,	-4.46682e-03	
343	2.691535e+06	3.461137e+00,	-4.57086e-03	
344	2.754229e+06	3.461136e+00,	-4.67732e-03	

Index   frequency       vop                             
--------------------------------------------------------------------------------
345	2.818383e+06	3.461136e+00,	-4.78627e-03	
346	2.884032e+06	3.461136e+00,	-4.89775e-03	
347	2.951209e+06	3.461136e+00,	-5.01183e-03	
348	3.019952e+06	3.461135e+00,	-5.12856e-03	
349	3.090295e+06	3.461135e+00,	-5.24801e-03	
350	3.162278e+06	3.461135e+00,	-5.37025e-03	
351	3.235937e+06	3.461135e+00,	-5.49533e-03	
352	3.311311e+06	3.461134e+00,	-5.62333e-03	
353	3.388442e+06	3.461134e+00,	-5.75430e-03	
354	3.467369e+06	3.461134e+00,	-5.88833e-03	
355	3.548134e+06	3.461133e+00,	-6.02548e-03	
356	3.630781e+06	3.461133e+00,	-6.16582e-03	
357	3.715352e+06	3.461133e+00,	-6.30943e-03	
358	3.801894e+06	3.461132e+00,	-6.45638e-03	
359	3.890451e+06	3.461132e+00,	-6.60676e-03	
360	3.981072e+06	3.461131e+00,	-6.76063e-03	
361	4.073803e+06	3.461131e+00,	-6.91810e-03	
362	4.168694e+06	3.461131e+00,	-7.07922e-03	
363	4.265795e+06	3.461130e+00,	-7.24410e-03	
364	4.365158e+06	3.461130e+00,	-7.41282e-03	
365	4.466836e+06	3.461129e+00,	-7.58547e-03	
366	4.570882e+06	3.461128e+00,	-7.76214e-03	
367	4.677351e+06	3.461128e+00,	-7.94292e-03	
368	4.786301e+06	3.461127e+00,	-8.12791e-03	
369	4.897788e+06	3.461127e+00,	-8.31721e-03	
370	5.011872e+06	3.461126e+00,	-8.51092e-03	
371	5.128614e+06	3.461125e+00,	-8.70913e-03	
372	5.248075e+06	3.461124e+00,	-8.91197e-03	
373	5.370318e+06	3.461124e+00,	-9.11952e-03	
374	5.495409e+06	3.461123e+00,	-9.33191e-03	
375	5.623413e+06	3.461122e+00,	-9.54924e-03	
376	5.754399e+06	3.461121e+00,	-9.77163e-03	
377	5.888437e+06	3.461120e+00,	-9.99920e-03	
378	6.025596e+06	3.461119e+00,	-1.02321e-02	
379	6.165950e+06	3.461118e+00,	-1.04704e-02	
380	6.309573e+06	3.461117e+00,	-1.07142e-02	
381	6.456542e+06	3.461116e+00,	-1.09637e-02	
382	6.606934e+06	3.461115e+00,	-1.12190e-02	
383	6.760830e+06	3.461114e+00,	-1.14803e-02	
384	6.918310e+06	3.461112e+00,	-1.17476e-02	
385	7.079458e+06	3.461111e+00,	-1.20212e-02	
386	7.244360e+06	3.461110e+00,	-1.23011e-02	
387	7.413102e+06	3.461108e+00,	-1.25876e-02	
388	7.585776e+06	3.461107e+00,	-1.28807e-02	
389	7.762471e+06	3.461105e+00,	-1.31806e-02	
390	7.943282e+06	3.461104e+00,	-1.34875e-02	
391	8.128305e+06	3.461102e+00,	-1.38016e-02	
392	8.317638e+06	3.461100e+00,	-1.41229e-02	
393	8.511380e+06	3.461098e+00,	-1.44518e-02	
394	8.709636e+06	3.461096e+00,	-1.47883e-02	
395	8.912509e+06	3.461094e+00,	-1.51326e-02	
396	9.120108e+06	3.461092e+00,	-1.54849e-02	
397	9.332543e+06	3.461089e+00,	-1.58454e-02	
398	9.549926e+06	3.461087e+00,	-1.62144e-02	
399	9.772372e+06	3.461085e+00,	-1.65918e-02	
400	1.000000e+07	3.461082e+00,	-1.69781e-02	
401	1.023293e+07	3.461079e+00,	-1.73734e-02	
402	1.047129e+07	3.461076e+00,	-1.77778e-02	

Index   frequency       vop                             
--------------------------------------------------------------------------------
403	1.071519e+07	3.461073e+00,	-1.81917e-02	
404	1.096478e+07	3.461070e+00,	-1.86152e-02	
405	1.122018e+07	3.461067e+00,	-1.90485e-02	
406	1.148154e+07	3.461064e+00,	-1.94919e-02	
407	1.174898e+07	3.461060e+00,	-1.99456e-02	
408	1.202264e+07	3.461056e+00,	-2.04098e-02	
409	1.230269e+07	3.461052e+00,	-2.08849e-02	
410	1.258925e+07	3.461048e+00,	-2.13710e-02	
411	1.288250e+07	3.461044e+00,	-2.18683e-02	
412	1.318257e+07	3.461039e+00,	-2.23773e-02	
413	1.348963e+07	3.461035e+00,	-2.28980e-02	
414	1.380384e+07	3.461030e+00,	-2.34309e-02	
415	1.412538e+07	3.461025e+00,	-2.39761e-02	
416	1.445440e+07	3.461019e+00,	-2.45340e-02	
