** sch_path: /home/andylithia/openmpw/project-reisen-chip1/xschem/ota_wideband.sch
AC Analysis  Sun Oct 30 17:11:03  2022
--------------------------------------------------------------------------------
Index   frequency       vop                             
--------------------------------------------------------------------------------
0	1.000000e+03	3.315123e+00,	-1.15082e-06	
1	1.023293e+03	3.315123e+00,	-1.17763e-06	
2	1.047129e+03	3.315123e+00,	-1.20506e-06	
3	1.071519e+03	3.315123e+00,	-1.23313e-06	
4	1.096478e+03	3.315123e+00,	-1.26185e-06	
5	1.122018e+03	3.315123e+00,	-1.29124e-06	
6	1.148154e+03	3.315123e+00,	-1.32132e-06	
7	1.174898e+03	3.315123e+00,	-1.35210e-06	
8	1.202264e+03	3.315123e+00,	-1.38359e-06	
9	1.230269e+03	3.315123e+00,	-1.41582e-06	
10	1.258925e+03	3.315123e+00,	-1.44880e-06	
11	1.288250e+03	3.315123e+00,	-1.48255e-06	
12	1.318257e+03	3.315123e+00,	-1.51708e-06	
13	1.348963e+03	3.315123e+00,	-1.55242e-06	
14	1.380384e+03	3.315123e+00,	-1.58858e-06	
15	1.412538e+03	3.315123e+00,	-1.62558e-06	
16	1.445440e+03	3.315123e+00,	-1.66344e-06	
17	1.479108e+03	3.315123e+00,	-1.70219e-06	
18	1.513561e+03	3.315123e+00,	-1.74184e-06	
19	1.548817e+03	3.315123e+00,	-1.78241e-06	
20	1.584893e+03	3.315123e+00,	-1.82393e-06	
21	1.621810e+03	3.315123e+00,	-1.86642e-06	
22	1.659587e+03	3.315123e+00,	-1.90989e-06	
23	1.698244e+03	3.315123e+00,	-1.95438e-06	
24	1.737801e+03	3.315123e+00,	-1.99990e-06	
25	1.778279e+03	3.315123e+00,	-2.04648e-06	
26	1.819701e+03	3.315123e+00,	-2.09415e-06	
27	1.862087e+03	3.315123e+00,	-2.14293e-06	
28	1.905461e+03	3.315123e+00,	-2.19285e-06	
29	1.949845e+03	3.315123e+00,	-2.24392e-06	
30	1.995262e+03	3.315123e+00,	-2.29619e-06	
31	2.041738e+03	3.315123e+00,	-2.34968e-06	
32	2.089296e+03	3.315123e+00,	-2.40441e-06	
33	2.137962e+03	3.315123e+00,	-2.46041e-06	
34	2.187762e+03	3.315123e+00,	-2.51772e-06	
35	2.238721e+03	3.315123e+00,	-2.57637e-06	
36	2.290868e+03	3.315123e+00,	-2.63638e-06	
37	2.344229e+03	3.315123e+00,	-2.69779e-06	
38	2.398833e+03	3.315123e+00,	-2.76063e-06	
39	2.454709e+03	3.315123e+00,	-2.82493e-06	
40	2.511886e+03	3.315123e+00,	-2.89073e-06	
41	2.570396e+03	3.315123e+00,	-2.95807e-06	
42	2.630268e+03	3.315123e+00,	-3.02697e-06	
43	2.691535e+03	3.315123e+00,	-3.09748e-06	
44	2.754229e+03	3.315123e+00,	-3.16963e-06	
45	2.818383e+03	3.315123e+00,	-3.24346e-06	
46	2.884032e+03	3.315123e+00,	-3.31901e-06	
47	2.951209e+03	3.315123e+00,	-3.39632e-06	
48	3.019952e+03	3.315123e+00,	-3.47543e-06	
49	3.090295e+03	3.315123e+00,	-3.55638e-06	
50	3.162278e+03	3.315123e+00,	-3.63922e-06	
51	3.235937e+03	3.315123e+00,	-3.72399e-06	
52	3.311311e+03	3.315123e+00,	-3.81073e-06	
53	3.388442e+03	3.315123e+00,	-3.89949e-06	
54	3.467369e+03	3.315123e+00,	-3.99032e-06	

Index   frequency       vop                             
--------------------------------------------------------------------------------
55	3.548134e+03	3.315123e+00,	-4.08327e-06	
56	3.630781e+03	3.315123e+00,	-4.17838e-06	
57	3.715352e+03	3.315123e+00,	-4.27571e-06	
58	3.801894e+03	3.315123e+00,	-4.37530e-06	
59	3.890451e+03	3.315123e+00,	-4.47722e-06	
60	3.981072e+03	3.315123e+00,	-4.58151e-06	
61	4.073803e+03	3.315123e+00,	-4.68822e-06	
62	4.168694e+03	3.315123e+00,	-4.79743e-06	
63	4.265795e+03	3.315123e+00,	-4.90917e-06	
64	4.365158e+03	3.315123e+00,	-5.02352e-06	
65	4.466836e+03	3.315123e+00,	-5.14053e-06	
66	4.570882e+03	3.315123e+00,	-5.26027e-06	
67	4.677351e+03	3.315123e+00,	-5.38280e-06	
68	4.786301e+03	3.315123e+00,	-5.50818e-06	
69	4.897788e+03	3.315123e+00,	-5.63648e-06	
70	5.011872e+03	3.315123e+00,	-5.76777e-06	
71	5.128614e+03	3.315123e+00,	-5.90212e-06	
72	5.248075e+03	3.315123e+00,	-6.03960e-06	
73	5.370318e+03	3.315123e+00,	-6.18028e-06	
74	5.495409e+03	3.315123e+00,	-6.32424e-06	
75	5.623413e+03	3.315123e+00,	-6.47155e-06	
76	5.754399e+03	3.315123e+00,	-6.62229e-06	
77	5.888437e+03	3.315123e+00,	-6.77654e-06	
78	6.025596e+03	3.315123e+00,	-6.93439e-06	
79	6.165950e+03	3.315123e+00,	-7.09591e-06	
80	6.309573e+03	3.315123e+00,	-7.26120e-06	
81	6.456542e+03	3.315123e+00,	-7.43033e-06	
82	6.606934e+03	3.315123e+00,	-7.60341e-06	
83	6.760830e+03	3.315123e+00,	-7.78051e-06	
84	6.918310e+03	3.315123e+00,	-7.96174e-06	
85	7.079458e+03	3.315123e+00,	-8.14720e-06	
86	7.244360e+03	3.315123e+00,	-8.33697e-06	
87	7.413102e+03	3.315123e+00,	-8.53116e-06	
88	7.585776e+03	3.315123e+00,	-8.72988e-06	
89	7.762471e+03	3.315123e+00,	-8.93322e-06	
90	7.943282e+03	3.315123e+00,	-9.14131e-06	
91	8.128305e+03	3.315123e+00,	-9.35423e-06	
92	8.317638e+03	3.315123e+00,	-9.57212e-06	
93	8.511380e+03	3.315123e+00,	-9.79509e-06	
94	8.709636e+03	3.315123e+00,	-1.00232e-05	
95	8.912509e+03	3.315123e+00,	-1.02567e-05	
96	9.120108e+03	3.315123e+00,	-1.04956e-05	
97	9.332543e+03	3.315123e+00,	-1.07401e-05	
98	9.549926e+03	3.315123e+00,	-1.09903e-05	
99	9.772372e+03	3.315123e+00,	-1.12463e-05	
100	1.000000e+04	3.315123e+00,	-1.15082e-05	
101	1.023293e+04	3.315123e+00,	-1.17763e-05	
102	1.047129e+04	3.315123e+00,	-1.20506e-05	
103	1.071519e+04	3.315123e+00,	-1.23313e-05	
104	1.096478e+04	3.315123e+00,	-1.26185e-05	
105	1.122018e+04	3.315123e+00,	-1.29124e-05	
106	1.148154e+04	3.315123e+00,	-1.32132e-05	
107	1.174898e+04	3.315123e+00,	-1.35210e-05	
108	1.202264e+04	3.315123e+00,	-1.38359e-05	
109	1.230269e+04	3.315123e+00,	-1.41582e-05	
110	1.258925e+04	3.315123e+00,	-1.44880e-05	
111	1.288250e+04	3.315123e+00,	-1.48255e-05	
112	1.318257e+04	3.315123e+00,	-1.51708e-05	

Index   frequency       vop                             
--------------------------------------------------------------------------------
113	1.348963e+04	3.315123e+00,	-1.55242e-05	
114	1.380384e+04	3.315123e+00,	-1.58858e-05	
115	1.412538e+04	3.315123e+00,	-1.62558e-05	
116	1.445440e+04	3.315123e+00,	-1.66344e-05	
117	1.479108e+04	3.315123e+00,	-1.70219e-05	
118	1.513561e+04	3.315123e+00,	-1.74184e-05	
119	1.548817e+04	3.315123e+00,	-1.78241e-05	
120	1.584893e+04	3.315123e+00,	-1.82393e-05	
121	1.621810e+04	3.315123e+00,	-1.86642e-05	
122	1.659587e+04	3.315123e+00,	-1.90989e-05	
123	1.698244e+04	3.315123e+00,	-1.95438e-05	
124	1.737801e+04	3.315123e+00,	-1.99990e-05	
125	1.778279e+04	3.315123e+00,	-2.04648e-05	
126	1.819701e+04	3.315123e+00,	-2.09415e-05	
127	1.862087e+04	3.315123e+00,	-2.14293e-05	
128	1.905461e+04	3.315123e+00,	-2.19285e-05	
129	1.949845e+04	3.315123e+00,	-2.24392e-05	
130	1.995262e+04	3.315123e+00,	-2.29619e-05	
131	2.041738e+04	3.315123e+00,	-2.34968e-05	
132	2.089296e+04	3.315123e+00,	-2.40441e-05	
133	2.137962e+04	3.315123e+00,	-2.46041e-05	
134	2.187762e+04	3.315123e+00,	-2.51772e-05	
135	2.238721e+04	3.315123e+00,	-2.57637e-05	
136	2.290868e+04	3.315123e+00,	-2.63638e-05	
137	2.344229e+04	3.315123e+00,	-2.69779e-05	
138	2.398833e+04	3.315123e+00,	-2.76063e-05	
139	2.454709e+04	3.315123e+00,	-2.82493e-05	
140	2.511886e+04	3.315123e+00,	-2.89073e-05	
141	2.570396e+04	3.315123e+00,	-2.95807e-05	
142	2.630268e+04	3.315123e+00,	-3.02697e-05	
143	2.691535e+04	3.315123e+00,	-3.09748e-05	
144	2.754229e+04	3.315123e+00,	-3.16963e-05	
145	2.818383e+04	3.315123e+00,	-3.24346e-05	
146	2.884032e+04	3.315123e+00,	-3.31901e-05	
147	2.951209e+04	3.315123e+00,	-3.39632e-05	
148	3.019952e+04	3.315123e+00,	-3.47543e-05	
149	3.090295e+04	3.315123e+00,	-3.55638e-05	
150	3.162278e+04	3.315123e+00,	-3.63922e-05	
151	3.235937e+04	3.315123e+00,	-3.72399e-05	
152	3.311311e+04	3.315123e+00,	-3.81073e-05	
153	3.388442e+04	3.315123e+00,	-3.89949e-05	
154	3.467369e+04	3.315123e+00,	-3.99032e-05	
155	3.548134e+04	3.315123e+00,	-4.08327e-05	
156	3.630781e+04	3.315123e+00,	-4.17838e-05	
157	3.715352e+04	3.315123e+00,	-4.27571e-05	
158	3.801894e+04	3.315123e+00,	-4.37530e-05	
159	3.890451e+04	3.315123e+00,	-4.47722e-05	
160	3.981072e+04	3.315123e+00,	-4.58151e-05	
161	4.073803e+04	3.315123e+00,	-4.68822e-05	
162	4.168694e+04	3.315123e+00,	-4.79743e-05	
163	4.265795e+04	3.315123e+00,	-4.90917e-05	
164	4.365158e+04	3.315123e+00,	-5.02352e-05	
165	4.466836e+04	3.315123e+00,	-5.14053e-05	
166	4.570882e+04	3.315123e+00,	-5.26027e-05	
167	4.677351e+04	3.315123e+00,	-5.38280e-05	
168	4.786301e+04	3.315123e+00,	-5.50818e-05	
169	4.897788e+04	3.315123e+00,	-5.63648e-05	
170	5.011872e+04	3.315123e+00,	-5.76777e-05	

Index   frequency       vop                             
--------------------------------------------------------------------------------
171	5.128614e+04	3.315123e+00,	-5.90212e-05	
172	5.248075e+04	3.315123e+00,	-6.03960e-05	
173	5.370318e+04	3.315123e+00,	-6.18028e-05	
174	5.495409e+04	3.315123e+00,	-6.32424e-05	
175	5.623413e+04	3.315123e+00,	-6.47155e-05	
176	5.754399e+04	3.315123e+00,	-6.62229e-05	
177	5.888437e+04	3.315123e+00,	-6.77654e-05	
178	6.025596e+04	3.315123e+00,	-6.93439e-05	
179	6.165950e+04	3.315123e+00,	-7.09591e-05	
180	6.309573e+04	3.315123e+00,	-7.26120e-05	
181	6.456542e+04	3.315123e+00,	-7.43033e-05	
182	6.606934e+04	3.315123e+00,	-7.60341e-05	
183	6.760830e+04	3.315123e+00,	-7.78051e-05	
184	6.918310e+04	3.315123e+00,	-7.96174e-05	
185	7.079458e+04	3.315123e+00,	-8.14720e-05	
186	7.244360e+04	3.315123e+00,	-8.33697e-05	
187	7.413102e+04	3.315123e+00,	-8.53116e-05	
188	7.585776e+04	3.315123e+00,	-8.72988e-05	
189	7.762471e+04	3.315123e+00,	-8.93322e-05	
190	7.943282e+04	3.315123e+00,	-9.14131e-05	
191	8.128305e+04	3.315123e+00,	-9.35423e-05	
192	8.317638e+04	3.315123e+00,	-9.57212e-05	
193	8.511380e+04	3.315123e+00,	-9.79509e-05	
194	8.709636e+04	3.315123e+00,	-1.00232e-04	
195	8.912509e+04	3.315123e+00,	-1.02567e-04	
196	9.120108e+04	3.315123e+00,	-1.04956e-04	
197	9.332543e+04	3.315123e+00,	-1.07401e-04	
198	9.549926e+04	3.315123e+00,	-1.09903e-04	
199	9.772372e+04	3.315123e+00,	-1.12463e-04	
200	1.000000e+05	3.315123e+00,	-1.15082e-04	
201	1.023293e+05	3.315123e+00,	-1.17763e-04	
202	1.047129e+05	3.315123e+00,	-1.20506e-04	
203	1.071519e+05	3.315123e+00,	-1.23313e-04	
204	1.096478e+05	3.315123e+00,	-1.26185e-04	
205	1.122018e+05	3.315123e+00,	-1.29124e-04	
206	1.148154e+05	3.315123e+00,	-1.32132e-04	
207	1.174898e+05	3.315123e+00,	-1.35210e-04	
208	1.202264e+05	3.315123e+00,	-1.38359e-04	
209	1.230269e+05	3.315123e+00,	-1.41582e-04	
210	1.258925e+05	3.315123e+00,	-1.44880e-04	
211	1.288250e+05	3.315123e+00,	-1.48255e-04	
212	1.318257e+05	3.315123e+00,	-1.51708e-04	
213	1.348963e+05	3.315123e+00,	-1.55242e-04	
214	1.380384e+05	3.315123e+00,	-1.58858e-04	
215	1.412538e+05	3.315123e+00,	-1.62558e-04	
216	1.445440e+05	3.315123e+00,	-1.66344e-04	
217	1.479108e+05	3.315123e+00,	-1.70219e-04	
218	1.513561e+05	3.315123e+00,	-1.74184e-04	
219	1.548817e+05	3.315123e+00,	-1.78241e-04	
220	1.584893e+05	3.315123e+00,	-1.82393e-04	
221	1.621810e+05	3.315123e+00,	-1.86641e-04	
222	1.659587e+05	3.315123e+00,	-1.90989e-04	
223	1.698244e+05	3.315123e+00,	-1.95438e-04	
224	1.737801e+05	3.315123e+00,	-1.99990e-04	
225	1.778279e+05	3.315123e+00,	-2.04648e-04	
226	1.819701e+05	3.315123e+00,	-2.09415e-04	
227	1.862087e+05	3.315123e+00,	-2.14293e-04	
228	1.905461e+05	3.315123e+00,	-2.19285e-04	

Index   frequency       vop                             
--------------------------------------------------------------------------------
229	1.949845e+05	3.315123e+00,	-2.24392e-04	
230	1.995262e+05	3.315123e+00,	-2.29619e-04	
231	2.041738e+05	3.315123e+00,	-2.34968e-04	
232	2.089296e+05	3.315123e+00,	-2.40441e-04	
233	2.137962e+05	3.315123e+00,	-2.46041e-04	
234	2.187762e+05	3.315123e+00,	-2.51772e-04	
235	2.238721e+05	3.315123e+00,	-2.57637e-04	
236	2.290868e+05	3.315123e+00,	-2.63638e-04	
237	2.344229e+05	3.315123e+00,	-2.69779e-04	
238	2.398833e+05	3.315123e+00,	-2.76063e-04	
239	2.454709e+05	3.315123e+00,	-2.82493e-04	
240	2.511886e+05	3.315123e+00,	-2.89073e-04	
241	2.570396e+05	3.315123e+00,	-2.95807e-04	
242	2.630268e+05	3.315123e+00,	-3.02697e-04	
243	2.691535e+05	3.315123e+00,	-3.09748e-04	
244	2.754229e+05	3.315123e+00,	-3.16963e-04	
245	2.818383e+05	3.315123e+00,	-3.24346e-04	
246	2.884032e+05	3.315123e+00,	-3.31901e-04	
247	2.951209e+05	3.315123e+00,	-3.39632e-04	
248	3.019952e+05	3.315123e+00,	-3.47543e-04	
249	3.090295e+05	3.315123e+00,	-3.55638e-04	
250	3.162278e+05	3.315123e+00,	-3.63922e-04	
251	3.235937e+05	3.315123e+00,	-3.72399e-04	
252	3.311311e+05	3.315123e+00,	-3.81073e-04	
253	3.388442e+05	3.315123e+00,	-3.89949e-04	
254	3.467369e+05	3.315123e+00,	-3.99032e-04	
255	3.548134e+05	3.315123e+00,	-4.08327e-04	
256	3.630781e+05	3.315123e+00,	-4.17838e-04	
257	3.715352e+05	3.315123e+00,	-4.27571e-04	
258	3.801894e+05	3.315123e+00,	-4.37530e-04	
259	3.890451e+05	3.315123e+00,	-4.47722e-04	
260	3.981072e+05	3.315123e+00,	-4.58150e-04	
261	4.073803e+05	3.315123e+00,	-4.68822e-04	
262	4.168694e+05	3.315123e+00,	-4.79742e-04	
263	4.265795e+05	3.315123e+00,	-4.90917e-04	
264	4.365158e+05	3.315123e+00,	-5.02352e-04	
265	4.466836e+05	3.315123e+00,	-5.14053e-04	
266	4.570882e+05	3.315123e+00,	-5.26027e-04	
267	4.677351e+05	3.315123e+00,	-5.38280e-04	
268	4.786301e+05	3.315123e+00,	-5.50818e-04	
269	4.897788e+05	3.315123e+00,	-5.63648e-04	
270	5.011872e+05	3.315123e+00,	-5.76777e-04	
271	5.128614e+05	3.315123e+00,	-5.90212e-04	
272	5.248075e+05	3.315123e+00,	-6.03960e-04	
273	5.370318e+05	3.315123e+00,	-6.18028e-04	
274	5.495409e+05	3.315123e+00,	-6.32423e-04	
275	5.623413e+05	3.315123e+00,	-6.47154e-04	
276	5.754399e+05	3.315123e+00,	-6.62228e-04	
277	5.888437e+05	3.315123e+00,	-6.77654e-04	
278	6.025596e+05	3.315123e+00,	-6.93438e-04	
279	6.165950e+05	3.315123e+00,	-7.09590e-04	
280	6.309573e+05	3.315123e+00,	-7.26119e-04	
281	6.456542e+05	3.315123e+00,	-7.43032e-04	
282	6.606934e+05	3.315123e+00,	-7.60340e-04	
283	6.760830e+05	3.315123e+00,	-7.78050e-04	
284	6.918310e+05	3.315123e+00,	-7.96173e-04	
285	7.079458e+05	3.315123e+00,	-8.14718e-04	
286	7.244360e+05	3.315123e+00,	-8.33696e-04	

Index   frequency       vop                             
--------------------------------------------------------------------------------
287	7.413102e+05	3.315123e+00,	-8.53115e-04	
288	7.585776e+05	3.315123e+00,	-8.72986e-04	
289	7.762471e+05	3.315123e+00,	-8.93321e-04	
290	7.943282e+05	3.315124e+00,	-9.14129e-04	
291	8.128305e+05	3.315124e+00,	-9.35421e-04	
292	8.317638e+05	3.315124e+00,	-9.57210e-04	
293	8.511380e+05	3.315124e+00,	-9.79506e-04	
294	8.709636e+05	3.315124e+00,	-1.00232e-03	
295	8.912509e+05	3.315124e+00,	-1.02567e-03	
296	9.120108e+05	3.315124e+00,	-1.04956e-03	
297	9.332543e+05	3.315124e+00,	-1.07401e-03	
298	9.549926e+05	3.315124e+00,	-1.09902e-03	
299	9.772372e+05	3.315124e+00,	-1.12462e-03	
300	1.000000e+06	3.315124e+00,	-1.15082e-03	
301	1.023293e+06	3.315124e+00,	-1.17762e-03	
302	1.047129e+06	3.315124e+00,	-1.20505e-03	
303	1.071519e+06	3.315124e+00,	-1.23312e-03	
304	1.096478e+06	3.315124e+00,	-1.26185e-03	
305	1.122018e+06	3.315124e+00,	-1.29124e-03	
306	1.148154e+06	3.315124e+00,	-1.32132e-03	
307	1.174898e+06	3.315124e+00,	-1.35209e-03	
308	1.202264e+06	3.315124e+00,	-1.38359e-03	
309	1.230269e+06	3.315124e+00,	-1.41581e-03	
310	1.258925e+06	3.315124e+00,	-1.44879e-03	
311	1.288250e+06	3.315124e+00,	-1.48254e-03	
312	1.318257e+06	3.315124e+00,	-1.51707e-03	
313	1.348963e+06	3.315124e+00,	-1.55241e-03	
314	1.380384e+06	3.315124e+00,	-1.58857e-03	
315	1.412538e+06	3.315125e+00,	-1.62557e-03	
316	1.445440e+06	3.315125e+00,	-1.66343e-03	
317	1.479108e+06	3.315125e+00,	-1.70218e-03	
318	1.513561e+06	3.315125e+00,	-1.74183e-03	
319	1.548817e+06	3.315125e+00,	-1.78240e-03	
320	1.584893e+06	3.315125e+00,	-1.82392e-03	
321	1.621810e+06	3.315125e+00,	-1.86640e-03	
322	1.659587e+06	3.315125e+00,	-1.90987e-03	
323	1.698244e+06	3.315125e+00,	-1.95436e-03	
324	1.737801e+06	3.315125e+00,	-1.99988e-03	
325	1.778279e+06	3.315125e+00,	-2.04646e-03	
326	1.819701e+06	3.315126e+00,	-2.09413e-03	
327	1.862087e+06	3.315126e+00,	-2.14291e-03	
328	1.905461e+06	3.315126e+00,	-2.19282e-03	
329	1.949845e+06	3.315126e+00,	-2.24390e-03	
330	1.995262e+06	3.315126e+00,	-2.29616e-03	
331	2.041738e+06	3.315126e+00,	-2.34965e-03	
332	2.089296e+06	3.315126e+00,	-2.40437e-03	
333	2.137962e+06	3.315126e+00,	-2.46038e-03	
334	2.187762e+06	3.315127e+00,	-2.51769e-03	
335	2.238721e+06	3.315127e+00,	-2.57633e-03	
336	2.290868e+06	3.315127e+00,	-2.63634e-03	
337	2.344229e+06	3.315127e+00,	-2.69774e-03	
338	2.398833e+06	3.315127e+00,	-2.76058e-03	
339	2.454709e+06	3.315128e+00,	-2.82488e-03	
340	2.511886e+06	3.315128e+00,	-2.89068e-03	
341	2.570396e+06	3.315128e+00,	-2.95801e-03	
342	2.630268e+06	3.315128e+00,	-3.02690e-03	
343	2.691535e+06	3.315128e+00,	-3.09741e-03	
344	2.754229e+06	3.315129e+00,	-3.16955e-03	

Index   frequency       vop                             
--------------------------------------------------------------------------------
345	2.818383e+06	3.315129e+00,	-3.24337e-03	
346	2.884032e+06	3.315129e+00,	-3.31892e-03	
347	2.951209e+06	3.315130e+00,	-3.39622e-03	
348	3.019952e+06	3.315130e+00,	-3.47533e-03	
349	3.090295e+06	3.315130e+00,	-3.55627e-03	
350	3.162278e+06	3.315131e+00,	-3.63910e-03	
351	3.235937e+06	3.315131e+00,	-3.72386e-03	
352	3.311311e+06	3.315131e+00,	-3.81060e-03	
353	3.388442e+06	3.315132e+00,	-3.89935e-03	
354	3.467369e+06	3.315132e+00,	-3.99017e-03	
355	3.548134e+06	3.315132e+00,	-4.08311e-03	
356	3.630781e+06	3.315133e+00,	-4.17821e-03	
357	3.715352e+06	3.315133e+00,	-4.27552e-03	
358	3.801894e+06	3.315134e+00,	-4.37510e-03	
359	3.890451e+06	3.315134e+00,	-4.47700e-03	
360	3.981072e+06	3.315135e+00,	-4.58127e-03	
361	4.073803e+06	3.315135e+00,	-4.68797e-03	
362	4.168694e+06	3.315136e+00,	-4.79716e-03	
363	4.265795e+06	3.315137e+00,	-4.90889e-03	
364	4.365158e+06	3.315137e+00,	-5.02322e-03	
365	4.466836e+06	3.315138e+00,	-5.14021e-03	
366	4.570882e+06	3.315139e+00,	-5.25992e-03	
367	4.677351e+06	3.315139e+00,	-5.38242e-03	
368	4.786301e+06	3.315140e+00,	-5.50778e-03	
369	4.897788e+06	3.315141e+00,	-5.63605e-03	
370	5.011872e+06	3.315142e+00,	-5.76731e-03	
371	5.128614e+06	3.315143e+00,	-5.90163e-03	
372	5.248075e+06	3.315144e+00,	-6.03907e-03	
373	5.370318e+06	3.315145e+00,	-6.17971e-03	
374	5.495409e+06	3.315146e+00,	-6.32363e-03	
375	5.623413e+06	3.315147e+00,	-6.47090e-03	
376	5.754399e+06	3.315148e+00,	-6.62160e-03	
377	5.888437e+06	3.315149e+00,	-6.77580e-03	
378	6.025596e+06	3.315150e+00,	-6.93359e-03	
379	6.165950e+06	3.315152e+00,	-7.09506e-03	
380	6.309573e+06	3.315153e+00,	-7.26028e-03	
381	6.456542e+06	3.315154e+00,	-7.42935e-03	
382	6.606934e+06	3.315156e+00,	-7.60236e-03	
383	6.760830e+06	3.315157e+00,	-7.77939e-03	
384	6.918310e+06	3.315159e+00,	-7.96054e-03	
385	7.079458e+06	3.315161e+00,	-8.14591e-03	
386	7.244360e+06	3.315162e+00,	-8.33560e-03	
387	7.413102e+06	3.315164e+00,	-8.52969e-03	
388	7.585776e+06	3.315166e+00,	-8.72830e-03	
389	7.762471e+06	3.315168e+00,	-8.93154e-03	
390	7.943282e+06	3.315171e+00,	-9.13950e-03	
391	8.128305e+06	3.315173e+00,	-9.35231e-03	
392	8.317638e+06	3.315175e+00,	-9.57006e-03	
393	8.511380e+06	3.315178e+00,	-9.79288e-03	
394	8.709636e+06	3.315180e+00,	-1.00209e-02	
395	8.912509e+06	3.315183e+00,	-1.02542e-02	
396	9.120108e+06	3.315186e+00,	-1.04929e-02	
397	9.332543e+06	3.315189e+00,	-1.07372e-02	
398	9.549926e+06	3.315192e+00,	-1.09872e-02	
399	9.772372e+06	3.315195e+00,	-1.12430e-02	
400	1.000000e+07	3.315199e+00,	-1.15047e-02	
401	1.023293e+07	3.315202e+00,	-1.17725e-02	
402	1.047129e+07	3.315206e+00,	-1.20466e-02	

Index   frequency       vop                             
--------------------------------------------------------------------------------
403	1.071519e+07	3.315210e+00,	-1.23270e-02	
404	1.096478e+07	3.315214e+00,	-1.26139e-02	
405	1.122018e+07	3.315219e+00,	-1.29075e-02	
406	1.148154e+07	3.315223e+00,	-1.32079e-02	
407	1.174898e+07	3.315228e+00,	-1.35154e-02	
408	1.202264e+07	3.315233e+00,	-1.38299e-02	
409	1.230269e+07	3.315238e+00,	-1.41518e-02	
410	1.258925e+07	3.315244e+00,	-1.44811e-02	
411	1.288250e+07	3.315250e+00,	-1.48182e-02	
412	1.318257e+07	3.315256e+00,	-1.51630e-02	
413	1.348963e+07	3.315262e+00,	-1.55158e-02	
414	1.380384e+07	3.315269e+00,	-1.58769e-02	
415	1.412538e+07	3.315276e+00,	-1.62463e-02	
416	1.445440e+07	3.315284e+00,	-1.66243e-02	
