** sch_path: /home/andylithia/openmpw/project-reisen-chip1/xschem/ota_wideband.sch
AC Analysis  Sun Oct 30 16:54:48  2022
--------------------------------------------------------------------------------
Index   frequency       vop                             
--------------------------------------------------------------------------------
0	1.000000e+03	1.835824e+00,	1.358531e-05	
1	1.023293e+03	1.835824e+00,	1.390176e-05	
2	1.047129e+03	1.835824e+00,	1.422557e-05	
3	1.071519e+03	1.835824e+00,	1.455693e-05	
4	1.096478e+03	1.835824e+00,	1.489600e-05	
5	1.122018e+03	1.835824e+00,	1.524297e-05	
6	1.148154e+03	1.835824e+00,	1.559803e-05	
7	1.174898e+03	1.835824e+00,	1.596135e-05	
8	1.202264e+03	1.835824e+00,	1.633314e-05	
9	1.230269e+03	1.835824e+00,	1.671359e-05	
10	1.258925e+03	1.835824e+00,	1.710290e-05	
11	1.288250e+03	1.835824e+00,	1.750127e-05	
12	1.318257e+03	1.835824e+00,	1.790893e-05	
13	1.348963e+03	1.835824e+00,	1.832608e-05	
14	1.380384e+03	1.835824e+00,	1.875295e-05	
15	1.412538e+03	1.835824e+00,	1.918977e-05	
16	1.445440e+03	1.835824e+00,	1.963675e-05	
17	1.479108e+03	1.835824e+00,	2.009415e-05	
18	1.513561e+03	1.835824e+00,	2.056221e-05	
19	1.548817e+03	1.835824e+00,	2.104116e-05	
20	1.584893e+03	1.835824e+00,	2.153127e-05	
21	1.621810e+03	1.835824e+00,	2.203280e-05	
22	1.659587e+03	1.835824e+00,	2.254601e-05	
23	1.698244e+03	1.835824e+00,	2.307117e-05	
24	1.737801e+03	1.835824e+00,	2.360857e-05	
25	1.778279e+03	1.835824e+00,	2.415848e-05	
26	1.819701e+03	1.835824e+00,	2.472121e-05	
27	1.862087e+03	1.835824e+00,	2.529704e-05	
28	1.905461e+03	1.835824e+00,	2.588628e-05	
29	1.949845e+03	1.835824e+00,	2.648925e-05	
30	1.995262e+03	1.835824e+00,	2.710627e-05	
31	2.041738e+03	1.835824e+00,	2.773765e-05	
32	2.089296e+03	1.835824e+00,	2.838374e-05	
33	2.137962e+03	1.835824e+00,	2.904489e-05	
34	2.187762e+03	1.835824e+00,	2.972143e-05	
35	2.238721e+03	1.835824e+00,	3.041373e-05	
36	2.290868e+03	1.835824e+00,	3.112216e-05	
37	2.344229e+03	1.835824e+00,	3.184709e-05	
38	2.398833e+03	1.835824e+00,	3.258890e-05	
39	2.454709e+03	1.835824e+00,	3.334799e-05	
40	2.511886e+03	1.835824e+00,	3.412477e-05	
41	2.570396e+03	1.835824e+00,	3.491963e-05	
42	2.630268e+03	1.835824e+00,	3.573302e-05	
43	2.691535e+03	1.835824e+00,	3.656535e-05	
44	2.754229e+03	1.835824e+00,	3.741706e-05	
45	2.818383e+03	1.835824e+00,	3.828862e-05	
46	2.884032e+03	1.835824e+00,	3.918047e-05	
47	2.951209e+03	1.835824e+00,	4.009310e-05	
48	3.019952e+03	1.835824e+00,	4.102699e-05	
49	3.090295e+03	1.835824e+00,	4.198263e-05	
50	3.162278e+03	1.835824e+00,	4.296054e-05	
51	3.235937e+03	1.835824e+00,	4.396122e-05	
52	3.311311e+03	1.835824e+00,	4.498520e-05	
53	3.388442e+03	1.835824e+00,	4.603304e-05	
54	3.467369e+03	1.835824e+00,	4.710529e-05	

Index   frequency       vop                             
--------------------------------------------------------------------------------
55	3.548134e+03	1.835824e+00,	4.820251e-05	
56	3.630781e+03	1.835824e+00,	4.932529e-05	
57	3.715352e+03	1.835824e+00,	5.047423e-05	
58	3.801894e+03	1.835824e+00,	5.164992e-05	
59	3.890451e+03	1.835824e+00,	5.285301e-05	
60	3.981072e+03	1.835824e+00,	5.408411e-05	
61	4.073803e+03	1.835824e+00,	5.534389e-05	
62	4.168694e+03	1.835824e+00,	5.663302e-05	
63	4.265795e+03	1.835824e+00,	5.795217e-05	
64	4.365158e+03	1.835824e+00,	5.930205e-05	
65	4.466836e+03	1.835824e+00,	6.068337e-05	
66	4.570882e+03	1.835824e+00,	6.209687e-05	
67	4.677351e+03	1.835824e+00,	6.354329e-05	
68	4.786301e+03	1.835824e+00,	6.502340e-05	
69	4.897788e+03	1.835824e+00,	6.653799e-05	
70	5.011872e+03	1.835824e+00,	6.808786e-05	
71	5.128614e+03	1.835824e+00,	6.967383e-05	
72	5.248075e+03	1.835824e+00,	7.129674e-05	
73	5.370318e+03	1.835824e+00,	7.295746e-05	
74	5.495409e+03	1.835824e+00,	7.465685e-05	
75	5.623413e+03	1.835824e+00,	7.639584e-05	
76	5.754399e+03	1.835824e+00,	7.817532e-05	
77	5.888437e+03	1.835824e+00,	7.999626e-05	
78	6.025596e+03	1.835824e+00,	8.185961e-05	
79	6.165950e+03	1.835824e+00,	8.376637e-05	
80	6.309573e+03	1.835824e+00,	8.571754e-05	
81	6.456542e+03	1.835824e+00,	8.771416e-05	
82	6.606934e+03	1.835824e+00,	8.975728e-05	
83	6.760830e+03	1.835824e+00,	9.184800e-05	
84	6.918310e+03	1.835824e+00,	9.398741e-05	
85	7.079458e+03	1.835824e+00,	9.617666e-05	
86	7.244360e+03	1.835824e+00,	9.841690e-05	
87	7.413102e+03	1.835824e+00,	1.007093e-04	
88	7.585776e+03	1.835824e+00,	1.030551e-04	
89	7.762471e+03	1.835824e+00,	1.054556e-04	
90	7.943282e+03	1.835824e+00,	1.079120e-04	
91	8.128305e+03	1.835824e+00,	1.104256e-04	
92	8.317638e+03	1.835824e+00,	1.129977e-04	
93	8.511380e+03	1.835824e+00,	1.156298e-04	
94	8.709636e+03	1.835824e+00,	1.183231e-04	
95	8.912509e+03	1.835824e+00,	1.210792e-04	
96	9.120108e+03	1.835824e+00,	1.238995e-04	
97	9.332543e+03	1.835824e+00,	1.267855e-04	
98	9.549926e+03	1.835824e+00,	1.297387e-04	
99	9.772372e+03	1.835824e+00,	1.327607e-04	
100	1.000000e+04	1.835824e+00,	1.358531e-04	
101	1.023293e+04	1.835824e+00,	1.390176e-04	
102	1.047129e+04	1.835824e+00,	1.422557e-04	
103	1.071519e+04	1.835824e+00,	1.455693e-04	
104	1.096478e+04	1.835824e+00,	1.489600e-04	
105	1.122018e+04	1.835824e+00,	1.524297e-04	
106	1.148154e+04	1.835824e+00,	1.559803e-04	
107	1.174898e+04	1.835824e+00,	1.596135e-04	
108	1.202264e+04	1.835824e+00,	1.633314e-04	
109	1.230269e+04	1.835824e+00,	1.671359e-04	
110	1.258925e+04	1.835824e+00,	1.710290e-04	
111	1.288250e+04	1.835824e+00,	1.750127e-04	
112	1.318257e+04	1.835824e+00,	1.790893e-04	

Index   frequency       vop                             
--------------------------------------------------------------------------------
113	1.348963e+04	1.835824e+00,	1.832608e-04	
114	1.380384e+04	1.835824e+00,	1.875295e-04	
115	1.412538e+04	1.835824e+00,	1.918977e-04	
116	1.445440e+04	1.835824e+00,	1.963675e-04	
117	1.479108e+04	1.835824e+00,	2.009415e-04	
118	1.513561e+04	1.835824e+00,	2.056220e-04	
119	1.548817e+04	1.835824e+00,	2.104116e-04	
120	1.584893e+04	1.835824e+00,	2.153127e-04	
121	1.621810e+04	1.835824e+00,	2.203280e-04	
122	1.659587e+04	1.835824e+00,	2.254601e-04	
123	1.698244e+04	1.835824e+00,	2.307117e-04	
124	1.737801e+04	1.835824e+00,	2.360857e-04	
125	1.778279e+04	1.835824e+00,	2.415848e-04	
126	1.819701e+04	1.835824e+00,	2.472121e-04	
127	1.862087e+04	1.835824e+00,	2.529704e-04	
128	1.905461e+04	1.835824e+00,	2.588628e-04	
129	1.949845e+04	1.835824e+00,	2.648925e-04	
130	1.995262e+04	1.835824e+00,	2.710626e-04	
131	2.041738e+04	1.835824e+00,	2.773765e-04	
132	2.089296e+04	1.835824e+00,	2.838374e-04	
133	2.137962e+04	1.835824e+00,	2.904489e-04	
134	2.187762e+04	1.835824e+00,	2.972143e-04	
135	2.238721e+04	1.835824e+00,	3.041373e-04	
136	2.290868e+04	1.835824e+00,	3.112216e-04	
137	2.344229e+04	1.835824e+00,	3.184708e-04	
138	2.398833e+04	1.835824e+00,	3.258890e-04	
139	2.454709e+04	1.835824e+00,	3.334799e-04	
140	2.511886e+04	1.835824e+00,	3.412477e-04	
141	2.570396e+04	1.835824e+00,	3.491963e-04	
142	2.630268e+04	1.835824e+00,	3.573302e-04	
143	2.691535e+04	1.835824e+00,	3.656534e-04	
144	2.754229e+04	1.835824e+00,	3.741706e-04	
145	2.818383e+04	1.835824e+00,	3.828862e-04	
146	2.884032e+04	1.835824e+00,	3.918047e-04	
147	2.951209e+04	1.835824e+00,	4.009310e-04	
148	3.019952e+04	1.835824e+00,	4.102699e-04	
149	3.090295e+04	1.835824e+00,	4.198263e-04	
150	3.162278e+04	1.835824e+00,	4.296053e-04	
151	3.235937e+04	1.835824e+00,	4.396121e-04	
152	3.311311e+04	1.835824e+00,	4.498520e-04	
153	3.388442e+04	1.835824e+00,	4.603304e-04	
154	3.467369e+04	1.835824e+00,	4.710529e-04	
155	3.548134e+04	1.835824e+00,	4.820251e-04	
156	3.630781e+04	1.835824e+00,	4.932529e-04	
157	3.715352e+04	1.835824e+00,	5.047422e-04	
158	3.801894e+04	1.835824e+00,	5.164992e-04	
159	3.890451e+04	1.835824e+00,	5.285300e-04	
160	3.981072e+04	1.835824e+00,	5.408410e-04	
161	4.073803e+04	1.835824e+00,	5.534388e-04	
162	4.168694e+04	1.835824e+00,	5.663301e-04	
163	4.265795e+04	1.835825e+00,	5.795216e-04	
164	4.365158e+04	1.835825e+00,	5.930204e-04	
165	4.466836e+04	1.835825e+00,	6.068336e-04	
166	4.570882e+04	1.835825e+00,	6.209686e-04	
167	4.677351e+04	1.835825e+00,	6.354328e-04	
168	4.786301e+04	1.835825e+00,	6.502339e-04	
169	4.897788e+04	1.835825e+00,	6.653798e-04	
170	5.011872e+04	1.835825e+00,	6.808785e-04	

Index   frequency       vop                             
--------------------------------------------------------------------------------
171	5.128614e+04	1.835825e+00,	6.967382e-04	
172	5.248075e+04	1.835825e+00,	7.129673e-04	
173	5.370318e+04	1.835825e+00,	7.295744e-04	
174	5.495409e+04	1.835825e+00,	7.465684e-04	
175	5.623413e+04	1.835825e+00,	7.639582e-04	
176	5.754399e+04	1.835825e+00,	7.817531e-04	
177	5.888437e+04	1.835825e+00,	7.999624e-04	
178	6.025596e+04	1.835825e+00,	8.185959e-04	
179	6.165950e+04	1.835825e+00,	8.376635e-04	
180	6.309573e+04	1.835825e+00,	8.571752e-04	
181	6.456542e+04	1.835825e+00,	8.771413e-04	
182	6.606934e+04	1.835825e+00,	8.975726e-04	
183	6.760830e+04	1.835825e+00,	9.184797e-04	
184	6.918310e+04	1.835825e+00,	9.398738e-04	
185	7.079458e+04	1.835825e+00,	9.617663e-04	
186	7.244360e+04	1.835825e+00,	9.841687e-04	
187	7.413102e+04	1.835825e+00,	1.007093e-03	
188	7.585776e+04	1.835825e+00,	1.030551e-03	
189	7.762471e+04	1.835825e+00,	1.054556e-03	
190	7.943282e+04	1.835825e+00,	1.079119e-03	
191	8.128305e+04	1.835825e+00,	1.104255e-03	
192	8.317638e+04	1.835825e+00,	1.129977e-03	
193	8.511380e+04	1.835825e+00,	1.156297e-03	
194	8.709636e+04	1.835825e+00,	1.183231e-03	
195	8.912509e+04	1.835825e+00,	1.210792e-03	
196	9.120108e+04	1.835825e+00,	1.238995e-03	
197	9.332543e+04	1.835825e+00,	1.267855e-03	
198	9.549926e+04	1.835825e+00,	1.297387e-03	
199	9.772372e+04	1.835825e+00,	1.327607e-03	
200	1.000000e+05	1.835825e+00,	1.358531e-03	
201	1.023293e+05	1.835826e+00,	1.390175e-03	
202	1.047129e+05	1.835826e+00,	1.422556e-03	
203	1.071519e+05	1.835826e+00,	1.455692e-03	
204	1.096478e+05	1.835826e+00,	1.489599e-03	
205	1.122018e+05	1.835826e+00,	1.524296e-03	
206	1.148154e+05	1.835826e+00,	1.559801e-03	
207	1.174898e+05	1.835826e+00,	1.596134e-03	
208	1.202264e+05	1.835826e+00,	1.633312e-03	
209	1.230269e+05	1.835826e+00,	1.671357e-03	
210	1.258925e+05	1.835826e+00,	1.710288e-03	
211	1.288250e+05	1.835826e+00,	1.750126e-03	
212	1.318257e+05	1.835826e+00,	1.790891e-03	
213	1.348963e+05	1.835826e+00,	1.832606e-03	
214	1.380384e+05	1.835827e+00,	1.875293e-03	
215	1.412538e+05	1.835827e+00,	1.918974e-03	
216	1.445440e+05	1.835827e+00,	1.963673e-03	
217	1.479108e+05	1.835827e+00,	2.009412e-03	
218	1.513561e+05	1.835827e+00,	2.056217e-03	
219	1.548817e+05	1.835827e+00,	2.104113e-03	
220	1.584893e+05	1.835827e+00,	2.153124e-03	
221	1.621810e+05	1.835827e+00,	2.203276e-03	
222	1.659587e+05	1.835828e+00,	2.254597e-03	
223	1.698244e+05	1.835828e+00,	2.307113e-03	
224	1.737801e+05	1.835828e+00,	2.360852e-03	
225	1.778279e+05	1.835828e+00,	2.415843e-03	
226	1.819701e+05	1.835828e+00,	2.472115e-03	
227	1.862087e+05	1.835828e+00,	2.529698e-03	
228	1.905461e+05	1.835829e+00,	2.588622e-03	

Index   frequency       vop                             
--------------------------------------------------------------------------------
229	1.949845e+05	1.835829e+00,	2.648919e-03	
230	1.995262e+05	1.835829e+00,	2.710619e-03	
231	2.041738e+05	1.835829e+00,	2.773758e-03	
232	2.089296e+05	1.835829e+00,	2.838366e-03	
233	2.137962e+05	1.835830e+00,	2.904480e-03	
234	2.187762e+05	1.835830e+00,	2.972134e-03	
235	2.238721e+05	1.835830e+00,	3.041363e-03	
236	2.290868e+05	1.835831e+00,	3.112205e-03	
237	2.344229e+05	1.835831e+00,	3.184697e-03	
238	2.398833e+05	1.835831e+00,	3.258878e-03	
239	2.454709e+05	1.835831e+00,	3.334786e-03	
240	2.511886e+05	1.835832e+00,	3.412463e-03	
241	2.570396e+05	1.835832e+00,	3.491948e-03	
242	2.630268e+05	1.835833e+00,	3.573286e-03	
243	2.691535e+05	1.835833e+00,	3.656517e-03	
244	2.754229e+05	1.835833e+00,	3.741688e-03	
245	2.818383e+05	1.835834e+00,	3.828842e-03	
246	2.884032e+05	1.835834e+00,	3.918026e-03	
247	2.951209e+05	1.835835e+00,	4.009288e-03	
248	3.019952e+05	1.835835e+00,	4.102675e-03	
249	3.090295e+05	1.835836e+00,	4.198237e-03	
250	3.162278e+05	1.835836e+00,	4.296025e-03	
251	3.235937e+05	1.835837e+00,	4.396091e-03	
252	3.311311e+05	1.835837e+00,	4.498488e-03	
253	3.388442e+05	1.835838e+00,	4.603270e-03	
254	3.467369e+05	1.835839e+00,	4.710492e-03	
255	3.548134e+05	1.835839e+00,	4.820212e-03	
256	3.630781e+05	1.835840e+00,	4.932487e-03	
257	3.715352e+05	1.835841e+00,	5.047377e-03	
258	3.801894e+05	1.835841e+00,	5.164944e-03	
259	3.890451e+05	1.835842e+00,	5.285248e-03	
260	3.981072e+05	1.835843e+00,	5.408355e-03	
261	4.073803e+05	1.835844e+00,	5.534329e-03	
262	4.168694e+05	1.835845e+00,	5.663237e-03	
263	4.265795e+05	1.835846e+00,	5.795148e-03	
264	4.365158e+05	1.835847e+00,	5.930131e-03	
265	4.466836e+05	1.835848e+00,	6.068258e-03	
266	4.570882e+05	1.835849e+00,	6.209602e-03	
267	4.677351e+05	1.835850e+00,	6.354238e-03	
268	4.786301e+05	1.835852e+00,	6.502243e-03	
269	4.897788e+05	1.835853e+00,	6.653695e-03	
270	5.011872e+05	1.835854e+00,	6.808674e-03	
271	5.128614e+05	1.835856e+00,	6.967263e-03	
272	5.248075e+05	1.835857e+00,	7.129546e-03	
273	5.370318e+05	1.835859e+00,	7.295608e-03	
274	5.495409e+05	1.835860e+00,	7.465538e-03	
275	5.623413e+05	1.835862e+00,	7.639426e-03	
276	5.754399e+05	1.835864e+00,	7.817363e-03	
277	5.888437e+05	1.835866e+00,	7.999445e-03	
278	6.025596e+05	1.835868e+00,	8.185767e-03	
279	6.165950e+05	1.835870e+00,	8.376428e-03	
280	6.309573e+05	1.835872e+00,	8.571531e-03	
281	6.456542e+05	1.835874e+00,	8.771176e-03	
282	6.606934e+05	1.835876e+00,	8.975472e-03	
283	6.760830e+05	1.835879e+00,	9.184525e-03	
284	6.918310e+05	1.835881e+00,	9.398447e-03	
285	7.079458e+05	1.835884e+00,	9.617351e-03	
286	7.244360e+05	1.835887e+00,	9.841352e-03	

Index   frequency       vop                             
--------------------------------------------------------------------------------
287	7.413102e+05	1.835890e+00,	1.007057e-02	
288	7.585776e+05	1.835893e+00,	1.030513e-02	
289	7.762471e+05	1.835896e+00,	1.054515e-02	
290	7.943282e+05	1.835899e+00,	1.079075e-02	
291	8.128305e+05	1.835903e+00,	1.104208e-02	
292	8.317638e+05	1.835907e+00,	1.129926e-02	
293	8.511380e+05	1.835911e+00,	1.156243e-02	
294	8.709636e+05	1.835915e+00,	1.183173e-02	
295	8.912509e+05	1.835919e+00,	1.210729e-02	
296	9.120108e+05	1.835923e+00,	1.238928e-02	
297	9.332543e+05	1.835928e+00,	1.267783e-02	
298	9.549926e+05	1.835933e+00,	1.297310e-02	
299	9.772372e+05	1.835938e+00,	1.327525e-02	
300	1.000000e+06	1.835943e+00,	1.358443e-02	
301	1.023293e+06	1.835949e+00,	1.390080e-02	
302	1.047129e+06	1.835955e+00,	1.422455e-02	
303	1.071519e+06	1.835961e+00,	1.455583e-02	
304	1.096478e+06	1.835967e+00,	1.489483e-02	
305	1.122018e+06	1.835974e+00,	1.524172e-02	
306	1.148154e+06	1.835981e+00,	1.559668e-02	
307	1.174898e+06	1.835989e+00,	1.595991e-02	
308	1.202264e+06	1.835996e+00,	1.633160e-02	
309	1.230269e+06	1.836004e+00,	1.671193e-02	
310	1.258925e+06	1.836013e+00,	1.710112e-02	
311	1.288250e+06	1.836022e+00,	1.749937e-02	
312	1.318257e+06	1.836031e+00,	1.790690e-02	
313	1.348963e+06	1.836041e+00,	1.832390e-02	
314	1.380384e+06	1.836051e+00,	1.875062e-02	
315	1.412538e+06	1.836062e+00,	1.918726e-02	
316	1.445440e+06	1.836073e+00,	1.963407e-02	
317	1.479108e+06	1.836085e+00,	2.009128e-02	
318	1.513561e+06	1.836097e+00,	2.055912e-02	
319	1.548817e+06	1.836110e+00,	2.103786e-02	
320	1.584893e+06	1.836123e+00,	2.152773e-02	
321	1.621810e+06	1.836137e+00,	2.202901e-02	
322	1.659587e+06	1.836152e+00,	2.254195e-02	
323	1.698244e+06	1.836168e+00,	2.306682e-02	
324	1.737801e+06	1.836184e+00,	2.360391e-02	
325	1.778279e+06	1.836201e+00,	2.415349e-02	
326	1.819701e+06	1.836218e+00,	2.471585e-02	
327	1.862087e+06	1.836237e+00,	2.529130e-02	
328	1.905461e+06	1.836256e+00,	2.588013e-02	
329	1.949845e+06	1.836277e+00,	2.648266e-02	
330	1.995262e+06	1.836298e+00,	2.709921e-02	
331	2.041738e+06	1.836320e+00,	2.773009e-02	
332	2.089296e+06	1.836344e+00,	2.837564e-02	
333	2.137962e+06	1.836368e+00,	2.903620e-02	
334	2.187762e+06	1.836394e+00,	2.971212e-02	
335	2.238721e+06	1.836421e+00,	3.040376e-02	
336	2.290868e+06	1.836449e+00,	3.111147e-02	
337	2.344229e+06	1.836478e+00,	3.183564e-02	
338	2.398833e+06	1.836509e+00,	3.257663e-02	
339	2.454709e+06	1.836541e+00,	3.333485e-02	
340	2.511886e+06	1.836575e+00,	3.411068e-02	
341	2.570396e+06	1.836610e+00,	3.490454e-02	
342	2.630268e+06	1.836647e+00,	3.571685e-02	
343	2.691535e+06	1.836686e+00,	3.654802e-02	
344	2.754229e+06	1.836727e+00,	3.739850e-02	

Index   frequency       vop                             
--------------------------------------------------------------------------------
345	2.818383e+06	1.836769e+00,	3.826872e-02	
346	2.884032e+06	1.836814e+00,	3.915916e-02	
347	2.951209e+06	1.836860e+00,	4.007027e-02	
348	3.019952e+06	1.836909e+00,	4.100252e-02	
349	3.090295e+06	1.836960e+00,	4.195641e-02	
350	3.162278e+06	1.837014e+00,	4.293244e-02	
351	3.235937e+06	1.837070e+00,	4.393111e-02	
352	3.311311e+06	1.837129e+00,	4.495295e-02	
353	3.388442e+06	1.837190e+00,	4.599848e-02	
354	3.467369e+06	1.837254e+00,	4.706825e-02	
355	3.548134e+06	1.837322e+00,	4.816283e-02	
356	3.630781e+06	1.837392e+00,	4.928277e-02	
357	3.715352e+06	1.837466e+00,	5.042867e-02	
358	3.801894e+06	1.837543e+00,	5.160111e-02	
359	3.890451e+06	1.837624e+00,	5.280070e-02	
360	3.981072e+06	1.837709e+00,	5.402806e-02	
361	4.073803e+06	1.837798e+00,	5.528384e-02	
362	4.168694e+06	1.837891e+00,	5.656867e-02	
363	4.265795e+06	1.837988e+00,	5.788322e-02	
364	4.365158e+06	1.838090e+00,	5.922818e-02	
365	4.466836e+06	1.838197e+00,	6.060422e-02	
366	4.570882e+06	1.838308e+00,	6.201206e-02	
367	4.677351e+06	1.838425e+00,	6.345242e-02	
368	4.786301e+06	1.838548e+00,	6.492604e-02	
369	4.897788e+06	1.838676e+00,	6.643367e-02	
370	5.011872e+06	1.838810e+00,	6.797608e-02	
371	5.128614e+06	1.838951e+00,	6.955406e-02	
372	5.248075e+06	1.839098e+00,	7.116842e-02	
373	5.370318e+06	1.839252e+00,	7.281996e-02	
374	5.495409e+06	1.839413e+00,	7.450954e-02	
375	5.623413e+06	1.839582e+00,	7.623799e-02	
376	5.754399e+06	1.839759e+00,	7.800620e-02	
377	5.888437e+06	1.839944e+00,	7.981506e-02	
378	6.025596e+06	1.840137e+00,	8.166547e-02	
379	6.165950e+06	1.840340e+00,	8.355835e-02	
380	6.309573e+06	1.840553e+00,	8.549466e-02	
381	6.456542e+06	1.840775e+00,	8.747536e-02	
382	6.606934e+06	1.841008e+00,	8.950143e-02	
383	6.760830e+06	1.841252e+00,	9.157388e-02	
384	6.918310e+06	1.841507e+00,	9.369372e-02	
385	7.079458e+06	1.841774e+00,	9.586199e-02	
386	7.244360e+06	1.842053e+00,	9.807977e-02	
387	7.413102e+06	1.842346e+00,	1.003481e-01	
388	7.585776e+06	1.842652e+00,	1.026682e-01	
389	7.762471e+06	1.842973e+00,	1.050410e-01	
390	7.943282e+06	1.843309e+00,	1.074678e-01	
391	8.128305e+06	1.843661e+00,	1.099497e-01	
392	8.317638e+06	1.844029e+00,	1.124878e-01	
393	8.511380e+06	1.844414e+00,	1.150835e-01	
394	8.709636e+06	1.844817e+00,	1.177379e-01	
395	8.912509e+06	1.845239e+00,	1.204523e-01	
396	9.120108e+06	1.845681e+00,	1.232278e-01	
397	9.332543e+06	1.846143e+00,	1.260659e-01	
398	9.549926e+06	1.846627e+00,	1.289678e-01	
399	9.772372e+06	1.847133e+00,	1.319348e-01	
400	1.000000e+07	1.847664e+00,	1.349684e-01	
401	1.023293e+07	1.848218e+00,	1.380697e-01	
402	1.047129e+07	1.848799e+00,	1.412403e-01	

Index   frequency       vop                             
--------------------------------------------------------------------------------
403	1.071519e+07	1.849407e+00,	1.444815e-01	
404	1.096478e+07	1.850043e+00,	1.477947e-01	
405	1.122018e+07	1.850709e+00,	1.511814e-01	
406	1.148154e+07	1.851405e+00,	1.546431e-01	
407	1.174898e+07	1.852134e+00,	1.581811e-01	
408	1.202264e+07	1.852897e+00,	1.617970e-01	
409	1.230269e+07	1.853695e+00,	1.654923e-01	
410	1.258925e+07	1.854530e+00,	1.692684e-01	
411	1.288250e+07	1.855404e+00,	1.731269e-01	
412	1.318257e+07	1.856318e+00,	1.770694e-01	
413	1.348963e+07	1.857275e+00,	1.810973e-01	
414	1.380384e+07	1.858275e+00,	1.852122e-01	
415	1.412538e+07	1.859322e+00,	1.894156e-01	
416	1.445440e+07	1.860417e+00,	1.937091e-01	
