** sch_path: /home/andylithia/openmpw/project-reisen-chip1/xschem/ota_wideband.sch
AC Analysis  Sun Oct 30 17:11:03  2022
--------------------------------------------------------------------------------
Index   frequency       vop                             
--------------------------------------------------------------------------------
0	1.000000e+03	3.555274e+00,	-1.96474e-06	
1	1.023293e+03	3.555274e+00,	-2.01051e-06	
2	1.047129e+03	3.555274e+00,	-2.05734e-06	
3	1.071519e+03	3.555274e+00,	-2.10526e-06	
4	1.096478e+03	3.555274e+00,	-2.15430e-06	
5	1.122018e+03	3.555274e+00,	-2.20448e-06	
6	1.148154e+03	3.555274e+00,	-2.25582e-06	
7	1.174898e+03	3.555274e+00,	-2.30837e-06	
8	1.202264e+03	3.555274e+00,	-2.36214e-06	
9	1.230269e+03	3.555274e+00,	-2.41716e-06	
10	1.258925e+03	3.555274e+00,	-2.47346e-06	
11	1.288250e+03	3.555274e+00,	-2.53108e-06	
12	1.318257e+03	3.555274e+00,	-2.59003e-06	
13	1.348963e+03	3.555274e+00,	-2.65036e-06	
14	1.380384e+03	3.555274e+00,	-2.71210e-06	
15	1.412538e+03	3.555274e+00,	-2.77527e-06	
16	1.445440e+03	3.555274e+00,	-2.83992e-06	
17	1.479108e+03	3.555274e+00,	-2.90607e-06	
18	1.513561e+03	3.555274e+00,	-2.97376e-06	
19	1.548817e+03	3.555274e+00,	-3.04302e-06	
20	1.584893e+03	3.555274e+00,	-3.11390e-06	
21	1.621810e+03	3.555274e+00,	-3.18644e-06	
22	1.659587e+03	3.555274e+00,	-3.26066e-06	
23	1.698244e+03	3.555274e+00,	-3.33661e-06	
24	1.737801e+03	3.555274e+00,	-3.41433e-06	
25	1.778279e+03	3.555274e+00,	-3.49386e-06	
26	1.819701e+03	3.555274e+00,	-3.57524e-06	
27	1.862087e+03	3.555274e+00,	-3.65852e-06	
28	1.905461e+03	3.555274e+00,	-3.74374e-06	
29	1.949845e+03	3.555274e+00,	-3.83094e-06	
30	1.995262e+03	3.555274e+00,	-3.92017e-06	
31	2.041738e+03	3.555274e+00,	-4.01149e-06	
32	2.089296e+03	3.555274e+00,	-4.10493e-06	
33	2.137962e+03	3.555274e+00,	-4.20054e-06	
34	2.187762e+03	3.555274e+00,	-4.29839e-06	
35	2.238721e+03	3.555274e+00,	-4.39851e-06	
36	2.290868e+03	3.555274e+00,	-4.50096e-06	
37	2.344229e+03	3.555274e+00,	-4.60580e-06	
38	2.398833e+03	3.555274e+00,	-4.71309e-06	
39	2.454709e+03	3.555274e+00,	-4.82287e-06	
40	2.511886e+03	3.555274e+00,	-4.93521e-06	
41	2.570396e+03	3.555274e+00,	-5.05016e-06	
42	2.630268e+03	3.555274e+00,	-5.16780e-06	
43	2.691535e+03	3.555274e+00,	-5.28817e-06	
44	2.754229e+03	3.555274e+00,	-5.41135e-06	
45	2.818383e+03	3.555274e+00,	-5.53739e-06	
46	2.884032e+03	3.555274e+00,	-5.66638e-06	
47	2.951209e+03	3.555274e+00,	-5.79836e-06	
48	3.019952e+03	3.555274e+00,	-5.93342e-06	
49	3.090295e+03	3.555274e+00,	-6.07163e-06	
50	3.162278e+03	3.555274e+00,	-6.21306e-06	
51	3.235937e+03	3.555274e+00,	-6.35778e-06	
52	3.311311e+03	3.555274e+00,	-6.50587e-06	
53	3.388442e+03	3.555274e+00,	-6.65741e-06	
54	3.467369e+03	3.555274e+00,	-6.81248e-06	

Index   frequency       vop                             
--------------------------------------------------------------------------------
55	3.548134e+03	3.555274e+00,	-6.97116e-06	
56	3.630781e+03	3.555274e+00,	-7.13354e-06	
57	3.715352e+03	3.555274e+00,	-7.29971e-06	
58	3.801894e+03	3.555274e+00,	-7.46974e-06	
59	3.890451e+03	3.555274e+00,	-7.64373e-06	
60	3.981072e+03	3.555274e+00,	-7.82178e-06	
61	4.073803e+03	3.555274e+00,	-8.00397e-06	
62	4.168694e+03	3.555274e+00,	-8.19040e-06	
63	4.265795e+03	3.555274e+00,	-8.38118e-06	
64	4.365158e+03	3.555274e+00,	-8.57641e-06	
65	4.466836e+03	3.555274e+00,	-8.77618e-06	
66	4.570882e+03	3.555274e+00,	-8.98060e-06	
67	4.677351e+03	3.555274e+00,	-9.18979e-06	
68	4.786301e+03	3.555274e+00,	-9.40384e-06	
69	4.897788e+03	3.555274e+00,	-9.62289e-06	
70	5.011872e+03	3.555274e+00,	-9.84703e-06	
71	5.128614e+03	3.555274e+00,	-1.00764e-05	
72	5.248075e+03	3.555274e+00,	-1.03111e-05	
73	5.370318e+03	3.555274e+00,	-1.05513e-05	
74	5.495409e+03	3.555274e+00,	-1.07971e-05	
75	5.623413e+03	3.555274e+00,	-1.10486e-05	
76	5.754399e+03	3.555274e+00,	-1.13059e-05	
77	5.888437e+03	3.555274e+00,	-1.15693e-05	
78	6.025596e+03	3.555274e+00,	-1.18387e-05	
79	6.165950e+03	3.555274e+00,	-1.21145e-05	
80	6.309573e+03	3.555274e+00,	-1.23967e-05	
81	6.456542e+03	3.555274e+00,	-1.26854e-05	
82	6.606934e+03	3.555274e+00,	-1.29809e-05	
83	6.760830e+03	3.555274e+00,	-1.32833e-05	
84	6.918310e+03	3.555274e+00,	-1.35927e-05	
85	7.079458e+03	3.555274e+00,	-1.39093e-05	
86	7.244360e+03	3.555274e+00,	-1.42333e-05	
87	7.413102e+03	3.555274e+00,	-1.45648e-05	
88	7.585776e+03	3.555274e+00,	-1.49041e-05	
89	7.762471e+03	3.555274e+00,	-1.52512e-05	
90	7.943282e+03	3.555274e+00,	-1.56065e-05	
91	8.128305e+03	3.555274e+00,	-1.59700e-05	
92	8.317638e+03	3.555274e+00,	-1.63420e-05	
93	8.511380e+03	3.555274e+00,	-1.67227e-05	
94	8.709636e+03	3.555274e+00,	-1.71122e-05	
95	8.912509e+03	3.555274e+00,	-1.75108e-05	
96	9.120108e+03	3.555274e+00,	-1.79187e-05	
97	9.332543e+03	3.555274e+00,	-1.83360e-05	
98	9.549926e+03	3.555274e+00,	-1.87631e-05	
99	9.772372e+03	3.555274e+00,	-1.92002e-05	
100	1.000000e+04	3.555274e+00,	-1.96474e-05	
101	1.023293e+04	3.555274e+00,	-2.01051e-05	
102	1.047129e+04	3.555274e+00,	-2.05734e-05	
103	1.071519e+04	3.555274e+00,	-2.10526e-05	
104	1.096478e+04	3.555274e+00,	-2.15430e-05	
105	1.122018e+04	3.555274e+00,	-2.20448e-05	
106	1.148154e+04	3.555274e+00,	-2.25582e-05	
107	1.174898e+04	3.555274e+00,	-2.30837e-05	
108	1.202264e+04	3.555274e+00,	-2.36214e-05	
109	1.230269e+04	3.555274e+00,	-2.41716e-05	
110	1.258925e+04	3.555274e+00,	-2.47346e-05	
111	1.288250e+04	3.555274e+00,	-2.53108e-05	
112	1.318257e+04	3.555274e+00,	-2.59003e-05	

Index   frequency       vop                             
--------------------------------------------------------------------------------
113	1.348963e+04	3.555274e+00,	-2.65036e-05	
114	1.380384e+04	3.555274e+00,	-2.71210e-05	
115	1.412538e+04	3.555274e+00,	-2.77527e-05	
116	1.445440e+04	3.555274e+00,	-2.83992e-05	
117	1.479108e+04	3.555274e+00,	-2.90607e-05	
118	1.513561e+04	3.555274e+00,	-2.97376e-05	
119	1.548817e+04	3.555274e+00,	-3.04302e-05	
120	1.584893e+04	3.555274e+00,	-3.11390e-05	
121	1.621810e+04	3.555274e+00,	-3.18644e-05	
122	1.659587e+04	3.555274e+00,	-3.26066e-05	
123	1.698244e+04	3.555274e+00,	-3.33661e-05	
124	1.737801e+04	3.555274e+00,	-3.41433e-05	
125	1.778279e+04	3.555274e+00,	-3.49386e-05	
126	1.819701e+04	3.555274e+00,	-3.57524e-05	
127	1.862087e+04	3.555274e+00,	-3.65852e-05	
128	1.905461e+04	3.555274e+00,	-3.74374e-05	
129	1.949845e+04	3.555274e+00,	-3.83094e-05	
130	1.995262e+04	3.555274e+00,	-3.92017e-05	
131	2.041738e+04	3.555274e+00,	-4.01149e-05	
132	2.089296e+04	3.555274e+00,	-4.10493e-05	
133	2.137962e+04	3.555274e+00,	-4.20054e-05	
134	2.187762e+04	3.555274e+00,	-4.29839e-05	
135	2.238721e+04	3.555274e+00,	-4.39851e-05	
136	2.290868e+04	3.555274e+00,	-4.50096e-05	
137	2.344229e+04	3.555274e+00,	-4.60580e-05	
138	2.398833e+04	3.555274e+00,	-4.71309e-05	
139	2.454709e+04	3.555274e+00,	-4.82287e-05	
140	2.511886e+04	3.555274e+00,	-4.93521e-05	
141	2.570396e+04	3.555274e+00,	-5.05016e-05	
142	2.630268e+04	3.555274e+00,	-5.16780e-05	
143	2.691535e+04	3.555274e+00,	-5.28817e-05	
144	2.754229e+04	3.555274e+00,	-5.41135e-05	
145	2.818383e+04	3.555274e+00,	-5.53739e-05	
146	2.884032e+04	3.555274e+00,	-5.66638e-05	
147	2.951209e+04	3.555274e+00,	-5.79836e-05	
148	3.019952e+04	3.555274e+00,	-5.93342e-05	
149	3.090295e+04	3.555274e+00,	-6.07163e-05	
150	3.162278e+04	3.555274e+00,	-6.21306e-05	
151	3.235937e+04	3.555274e+00,	-6.35778e-05	
152	3.311311e+04	3.555274e+00,	-6.50587e-05	
153	3.388442e+04	3.555274e+00,	-6.65741e-05	
154	3.467369e+04	3.555274e+00,	-6.81248e-05	
155	3.548134e+04	3.555274e+00,	-6.97116e-05	
156	3.630781e+04	3.555274e+00,	-7.13354e-05	
157	3.715352e+04	3.555274e+00,	-7.29971e-05	
158	3.801894e+04	3.555274e+00,	-7.46974e-05	
159	3.890451e+04	3.555274e+00,	-7.64373e-05	
160	3.981072e+04	3.555274e+00,	-7.82178e-05	
161	4.073803e+04	3.555274e+00,	-8.00397e-05	
162	4.168694e+04	3.555274e+00,	-8.19040e-05	
163	4.265795e+04	3.555274e+00,	-8.38118e-05	
164	4.365158e+04	3.555274e+00,	-8.57641e-05	
165	4.466836e+04	3.555274e+00,	-8.77618e-05	
166	4.570882e+04	3.555274e+00,	-8.98060e-05	
167	4.677351e+04	3.555274e+00,	-9.18979e-05	
168	4.786301e+04	3.555274e+00,	-9.40384e-05	
169	4.897788e+04	3.555274e+00,	-9.62289e-05	
170	5.011872e+04	3.555274e+00,	-9.84703e-05	

Index   frequency       vop                             
--------------------------------------------------------------------------------
171	5.128614e+04	3.555274e+00,	-1.00764e-04	
172	5.248075e+04	3.555274e+00,	-1.03111e-04	
173	5.370318e+04	3.555274e+00,	-1.05513e-04	
174	5.495409e+04	3.555274e+00,	-1.07971e-04	
175	5.623413e+04	3.555274e+00,	-1.10486e-04	
176	5.754399e+04	3.555274e+00,	-1.13059e-04	
177	5.888437e+04	3.555274e+00,	-1.15693e-04	
178	6.025596e+04	3.555274e+00,	-1.18387e-04	
179	6.165950e+04	3.555274e+00,	-1.21145e-04	
180	6.309573e+04	3.555274e+00,	-1.23967e-04	
181	6.456542e+04	3.555274e+00,	-1.26854e-04	
182	6.606934e+04	3.555274e+00,	-1.29809e-04	
183	6.760830e+04	3.555274e+00,	-1.32833e-04	
184	6.918310e+04	3.555274e+00,	-1.35927e-04	
185	7.079458e+04	3.555274e+00,	-1.39093e-04	
186	7.244360e+04	3.555274e+00,	-1.42333e-04	
187	7.413102e+04	3.555274e+00,	-1.45648e-04	
188	7.585776e+04	3.555274e+00,	-1.49041e-04	
189	7.762471e+04	3.555274e+00,	-1.52512e-04	
190	7.943282e+04	3.555274e+00,	-1.56065e-04	
191	8.128305e+04	3.555274e+00,	-1.59700e-04	
192	8.317638e+04	3.555274e+00,	-1.63420e-04	
193	8.511380e+04	3.555274e+00,	-1.67227e-04	
194	8.709636e+04	3.555274e+00,	-1.71122e-04	
195	8.912509e+04	3.555274e+00,	-1.75108e-04	
196	9.120108e+04	3.555274e+00,	-1.79187e-04	
197	9.332543e+04	3.555274e+00,	-1.83360e-04	
198	9.549926e+04	3.555274e+00,	-1.87631e-04	
199	9.772372e+04	3.555274e+00,	-1.92002e-04	
200	1.000000e+05	3.555274e+00,	-1.96474e-04	
201	1.023293e+05	3.555274e+00,	-2.01051e-04	
202	1.047129e+05	3.555274e+00,	-2.05734e-04	
203	1.071519e+05	3.555274e+00,	-2.10526e-04	
204	1.096478e+05	3.555274e+00,	-2.15430e-04	
205	1.122018e+05	3.555274e+00,	-2.20448e-04	
206	1.148154e+05	3.555274e+00,	-2.25582e-04	
207	1.174898e+05	3.555274e+00,	-2.30837e-04	
208	1.202264e+05	3.555274e+00,	-2.36214e-04	
209	1.230269e+05	3.555274e+00,	-2.41716e-04	
210	1.258925e+05	3.555274e+00,	-2.47346e-04	
211	1.288250e+05	3.555274e+00,	-2.53108e-04	
212	1.318257e+05	3.555274e+00,	-2.59003e-04	
213	1.348963e+05	3.555274e+00,	-2.65036e-04	
214	1.380384e+05	3.555274e+00,	-2.71210e-04	
215	1.412538e+05	3.555274e+00,	-2.77527e-04	
216	1.445440e+05	3.555274e+00,	-2.83991e-04	
217	1.479108e+05	3.555274e+00,	-2.90607e-04	
218	1.513561e+05	3.555274e+00,	-2.97376e-04	
219	1.548817e+05	3.555274e+00,	-3.04302e-04	
220	1.584893e+05	3.555274e+00,	-3.11390e-04	
221	1.621810e+05	3.555274e+00,	-3.18644e-04	
222	1.659587e+05	3.555274e+00,	-3.26066e-04	
223	1.698244e+05	3.555274e+00,	-3.33661e-04	
224	1.737801e+05	3.555274e+00,	-3.41433e-04	
225	1.778279e+05	3.555274e+00,	-3.49386e-04	
226	1.819701e+05	3.555274e+00,	-3.57524e-04	
227	1.862087e+05	3.555274e+00,	-3.65852e-04	
228	1.905461e+05	3.555274e+00,	-3.74374e-04	

Index   frequency       vop                             
--------------------------------------------------------------------------------
229	1.949845e+05	3.555274e+00,	-3.83094e-04	
230	1.995262e+05	3.555274e+00,	-3.92017e-04	
231	2.041738e+05	3.555274e+00,	-4.01149e-04	
232	2.089296e+05	3.555274e+00,	-4.10493e-04	
233	2.137962e+05	3.555274e+00,	-4.20054e-04	
234	2.187762e+05	3.555274e+00,	-4.29839e-04	
235	2.238721e+05	3.555274e+00,	-4.39851e-04	
236	2.290868e+05	3.555274e+00,	-4.50096e-04	
237	2.344229e+05	3.555274e+00,	-4.60580e-04	
238	2.398833e+05	3.555274e+00,	-4.71309e-04	
239	2.454709e+05	3.555274e+00,	-4.82287e-04	
240	2.511886e+05	3.555274e+00,	-4.93521e-04	
241	2.570396e+05	3.555274e+00,	-5.05016e-04	
242	2.630268e+05	3.555274e+00,	-5.16780e-04	
243	2.691535e+05	3.555274e+00,	-5.28817e-04	
244	2.754229e+05	3.555274e+00,	-5.41135e-04	
245	2.818383e+05	3.555274e+00,	-5.53739e-04	
246	2.884032e+05	3.555274e+00,	-5.66637e-04	
247	2.951209e+05	3.555274e+00,	-5.79836e-04	
248	3.019952e+05	3.555274e+00,	-5.93342e-04	
249	3.090295e+05	3.555274e+00,	-6.07163e-04	
250	3.162278e+05	3.555274e+00,	-6.21306e-04	
251	3.235937e+05	3.555274e+00,	-6.35778e-04	
252	3.311311e+05	3.555274e+00,	-6.50587e-04	
253	3.388442e+05	3.555274e+00,	-6.65741e-04	
254	3.467369e+05	3.555274e+00,	-6.81248e-04	
255	3.548134e+05	3.555274e+00,	-6.97116e-04	
256	3.630781e+05	3.555274e+00,	-7.13354e-04	
257	3.715352e+05	3.555274e+00,	-7.29970e-04	
258	3.801894e+05	3.555274e+00,	-7.46974e-04	
259	3.890451e+05	3.555274e+00,	-7.64373e-04	
260	3.981072e+05	3.555274e+00,	-7.82177e-04	
261	4.073803e+05	3.555274e+00,	-8.00397e-04	
262	4.168694e+05	3.555274e+00,	-8.19040e-04	
263	4.265795e+05	3.555274e+00,	-8.38118e-04	
264	4.365158e+05	3.555274e+00,	-8.57640e-04	
265	4.466836e+05	3.555273e+00,	-8.77617e-04	
266	4.570882e+05	3.555273e+00,	-8.98060e-04	
267	4.677351e+05	3.555273e+00,	-9.18978e-04	
268	4.786301e+05	3.555273e+00,	-9.40384e-04	
269	4.897788e+05	3.555273e+00,	-9.62288e-04	
270	5.011872e+05	3.555273e+00,	-9.84703e-04	
271	5.128614e+05	3.555273e+00,	-1.00764e-03	
272	5.248075e+05	3.555273e+00,	-1.03111e-03	
273	5.370318e+05	3.555273e+00,	-1.05513e-03	
274	5.495409e+05	3.555273e+00,	-1.07970e-03	
275	5.623413e+05	3.555273e+00,	-1.10485e-03	
276	5.754399e+05	3.555273e+00,	-1.13059e-03	
277	5.888437e+05	3.555273e+00,	-1.15692e-03	
278	6.025596e+05	3.555273e+00,	-1.18387e-03	
279	6.165950e+05	3.555273e+00,	-1.21145e-03	
280	6.309573e+05	3.555273e+00,	-1.23967e-03	
281	6.456542e+05	3.555273e+00,	-1.26854e-03	
282	6.606934e+05	3.555273e+00,	-1.29809e-03	
283	6.760830e+05	3.555273e+00,	-1.32833e-03	
284	6.918310e+05	3.555273e+00,	-1.35927e-03	
285	7.079458e+05	3.555273e+00,	-1.39093e-03	
286	7.244360e+05	3.555273e+00,	-1.42333e-03	

Index   frequency       vop                             
--------------------------------------------------------------------------------
287	7.413102e+05	3.555273e+00,	-1.45648e-03	
288	7.585776e+05	3.555273e+00,	-1.49041e-03	
289	7.762471e+05	3.555273e+00,	-1.52512e-03	
290	7.943282e+05	3.555273e+00,	-1.56065e-03	
291	8.128305e+05	3.555273e+00,	-1.59700e-03	
292	8.317638e+05	3.555273e+00,	-1.63420e-03	
293	8.511380e+05	3.555273e+00,	-1.67226e-03	
294	8.709636e+05	3.555273e+00,	-1.71122e-03	
295	8.912509e+05	3.555273e+00,	-1.75107e-03	
296	9.120108e+05	3.555273e+00,	-1.79186e-03	
297	9.332543e+05	3.555273e+00,	-1.83360e-03	
298	9.549926e+05	3.555273e+00,	-1.87631e-03	
299	9.772372e+05	3.555273e+00,	-1.92001e-03	
300	1.000000e+06	3.555273e+00,	-1.96474e-03	
301	1.023293e+06	3.555273e+00,	-2.01050e-03	
302	1.047129e+06	3.555273e+00,	-2.05733e-03	
303	1.071519e+06	3.555272e+00,	-2.10525e-03	
304	1.096478e+06	3.555272e+00,	-2.15429e-03	
305	1.122018e+06	3.555272e+00,	-2.20447e-03	
306	1.148154e+06	3.555272e+00,	-2.25582e-03	
307	1.174898e+06	3.555272e+00,	-2.30836e-03	
308	1.202264e+06	3.555272e+00,	-2.36213e-03	
309	1.230269e+06	3.555272e+00,	-2.41715e-03	
310	1.258925e+06	3.555272e+00,	-2.47345e-03	
311	1.288250e+06	3.555272e+00,	-2.53107e-03	
312	1.318257e+06	3.555272e+00,	-2.59002e-03	
313	1.348963e+06	3.555272e+00,	-2.65035e-03	
314	1.380384e+06	3.555272e+00,	-2.71209e-03	
315	1.412538e+06	3.555272e+00,	-2.77526e-03	
316	1.445440e+06	3.555272e+00,	-2.83990e-03	
317	1.479108e+06	3.555271e+00,	-2.90605e-03	
318	1.513561e+06	3.555271e+00,	-2.97374e-03	
319	1.548817e+06	3.555271e+00,	-3.04301e-03	
320	1.584893e+06	3.555271e+00,	-3.11389e-03	
321	1.621810e+06	3.555271e+00,	-3.18642e-03	
322	1.659587e+06	3.555271e+00,	-3.26064e-03	
323	1.698244e+06	3.555271e+00,	-3.33659e-03	
324	1.737801e+06	3.555271e+00,	-3.41431e-03	
325	1.778279e+06	3.555270e+00,	-3.49384e-03	
326	1.819701e+06	3.555270e+00,	-3.57522e-03	
327	1.862087e+06	3.555270e+00,	-3.65849e-03	
328	1.905461e+06	3.555270e+00,	-3.74371e-03	
329	1.949845e+06	3.555270e+00,	-3.83091e-03	
330	1.995262e+06	3.555270e+00,	-3.92014e-03	
331	2.041738e+06	3.555269e+00,	-4.01145e-03	
332	2.089296e+06	3.555269e+00,	-4.10489e-03	
333	2.137962e+06	3.555269e+00,	-4.20050e-03	
334	2.187762e+06	3.555269e+00,	-4.29834e-03	
335	2.238721e+06	3.555268e+00,	-4.39846e-03	
336	2.290868e+06	3.555268e+00,	-4.50091e-03	
337	2.344229e+06	3.555268e+00,	-4.60575e-03	
338	2.398833e+06	3.555268e+00,	-4.71303e-03	
339	2.454709e+06	3.555267e+00,	-4.82281e-03	
340	2.511886e+06	3.555267e+00,	-4.93514e-03	
341	2.570396e+06	3.555267e+00,	-5.05009e-03	
342	2.630268e+06	3.555266e+00,	-5.16772e-03	
343	2.691535e+06	3.555266e+00,	-5.28809e-03	
344	2.754229e+06	3.555266e+00,	-5.41126e-03	

Index   frequency       vop                             
--------------------------------------------------------------------------------
345	2.818383e+06	3.555265e+00,	-5.53730e-03	
346	2.884032e+06	3.555265e+00,	-5.66628e-03	
347	2.951209e+06	3.555265e+00,	-5.79826e-03	
348	3.019952e+06	3.555264e+00,	-5.93331e-03	
349	3.090295e+06	3.555264e+00,	-6.07151e-03	
350	3.162278e+06	3.555263e+00,	-6.21293e-03	
351	3.235937e+06	3.555263e+00,	-6.35764e-03	
352	3.311311e+06	3.555262e+00,	-6.50572e-03	
353	3.388442e+06	3.555262e+00,	-6.65725e-03	
354	3.467369e+06	3.555261e+00,	-6.81231e-03	
355	3.548134e+06	3.555260e+00,	-6.97098e-03	
356	3.630781e+06	3.555260e+00,	-7.13335e-03	
357	3.715352e+06	3.555259e+00,	-7.29949e-03	
358	3.801894e+06	3.555259e+00,	-7.46951e-03	
359	3.890451e+06	3.555258e+00,	-7.64349e-03	
360	3.981072e+06	3.555257e+00,	-7.82151e-03	
361	4.073803e+06	3.555256e+00,	-8.00369e-03	
362	4.168694e+06	3.555255e+00,	-8.19011e-03	
363	4.265795e+06	3.555255e+00,	-8.38086e-03	
364	4.365158e+06	3.555254e+00,	-8.57606e-03	
365	4.466836e+06	3.555253e+00,	-8.77581e-03	
366	4.570882e+06	3.555252e+00,	-8.98021e-03	
367	4.677351e+06	3.555251e+00,	-9.18936e-03	
368	4.786301e+06	3.555250e+00,	-9.40339e-03	
369	4.897788e+06	3.555249e+00,	-9.62240e-03	
370	5.011872e+06	3.555247e+00,	-9.84651e-03	
371	5.128614e+06	3.555246e+00,	-1.00758e-02	
372	5.248075e+06	3.555245e+00,	-1.03105e-02	
373	5.370318e+06	3.555243e+00,	-1.05506e-02	
374	5.495409e+06	3.555242e+00,	-1.07964e-02	
375	5.623413e+06	3.555241e+00,	-1.10478e-02	
376	5.754399e+06	3.555239e+00,	-1.13051e-02	
377	5.888437e+06	3.555237e+00,	-1.15684e-02	
378	6.025596e+06	3.555236e+00,	-1.18378e-02	
379	6.165950e+06	3.555234e+00,	-1.21135e-02	
380	6.309573e+06	3.555232e+00,	-1.23956e-02	
381	6.456542e+06	3.555230e+00,	-1.26843e-02	
382	6.606934e+06	3.555228e+00,	-1.29797e-02	
383	6.760830e+06	3.555226e+00,	-1.32820e-02	
384	6.918310e+06	3.555224e+00,	-1.35913e-02	
385	7.079458e+06	3.555221e+00,	-1.39078e-02	
386	7.244360e+06	3.555219e+00,	-1.42317e-02	
387	7.413102e+06	3.555216e+00,	-1.45632e-02	
388	7.585776e+06	3.555213e+00,	-1.49023e-02	
389	7.762471e+06	3.555211e+00,	-1.52493e-02	
390	7.943282e+06	3.555208e+00,	-1.56044e-02	
391	8.128305e+06	3.555205e+00,	-1.59678e-02	
392	8.317638e+06	3.555201e+00,	-1.63397e-02	
393	8.511380e+06	3.555198e+00,	-1.67201e-02	
394	8.709636e+06	3.555194e+00,	-1.71095e-02	
395	8.912509e+06	3.555191e+00,	-1.75079e-02	
396	9.120108e+06	3.555187e+00,	-1.79156e-02	
397	9.332543e+06	3.555183e+00,	-1.83327e-02	
398	9.549926e+06	3.555178e+00,	-1.87596e-02	
399	9.772372e+06	3.555174e+00,	-1.91964e-02	
400	1.000000e+07	3.555169e+00,	-1.96433e-02	
401	1.023293e+07	3.555164e+00,	-2.01007e-02	
402	1.047129e+07	3.555159e+00,	-2.05687e-02	

Index   frequency       vop                             
--------------------------------------------------------------------------------
403	1.071519e+07	3.555154e+00,	-2.10476e-02	
404	1.096478e+07	3.555148e+00,	-2.15376e-02	
405	1.122018e+07	3.555142e+00,	-2.20391e-02	
406	1.148154e+07	3.555136e+00,	-2.25521e-02	
407	1.174898e+07	3.555130e+00,	-2.30772e-02	
408	1.202264e+07	3.555123e+00,	-2.36144e-02	
409	1.230269e+07	3.555116e+00,	-2.41641e-02	
410	1.258925e+07	3.555109e+00,	-2.47266e-02	
411	1.288250e+07	3.555101e+00,	-2.53022e-02	
412	1.318257e+07	3.555093e+00,	-2.58912e-02	
413	1.348963e+07	3.555085e+00,	-2.64938e-02	
414	1.380384e+07	3.555076e+00,	-2.71105e-02	
415	1.412538e+07	3.555067e+00,	-2.77415e-02	
416	1.445440e+07	3.555057e+00,	-2.83872e-02	
