  ** sch_path: /home/andylithia/openmpw/project-reisen-chip1/xschem/ctle_3.sch
  AC Analysis  Sun Oct 30 23:22:42  2022
--------------------------------------------------------------------------------
Index   frequency       vop                             
--------------------------------------------------------------------------------
0	1.000000e+03	1.077293e-01,	7.821852e-07	
1	1.023293e+03	1.077293e-01,	8.004046e-07	
2	1.047129e+03	1.077293e-01,	8.190484e-07	
3	1.071519e+03	1.077293e-01,	8.381265e-07	
4	1.096478e+03	1.077293e-01,	8.576490e-07	
5	1.122018e+03	1.077293e-01,	8.776262e-07	
6	1.148154e+03	1.077293e-01,	8.980687e-07	
7	1.174898e+03	1.077293e-01,	9.189875e-07	
8	1.202264e+03	1.077293e-01,	9.403934e-07	
9	1.230269e+03	1.077293e-01,	9.622980e-07	
10	1.258925e+03	1.077293e-01,	9.847128e-07	
11	1.288250e+03	1.077293e-01,	1.007650e-06	
12	1.318257e+03	1.077293e-01,	1.031121e-06	
13	1.348963e+03	1.077293e-01,	1.055139e-06	
14	1.380384e+03	1.077293e-01,	1.079716e-06	
15	1.412538e+03	1.077293e-01,	1.104866e-06	
16	1.445440e+03	1.077293e-01,	1.130602e-06	
17	1.479108e+03	1.077293e-01,	1.156937e-06	
18	1.513561e+03	1.077293e-01,	1.183885e-06	
19	1.548817e+03	1.077293e-01,	1.211461e-06	
20	1.584893e+03	1.077293e-01,	1.239680e-06	
21	1.621810e+03	1.077293e-01,	1.268556e-06	
22	1.659587e+03	1.077293e-01,	1.298104e-06	
23	1.698244e+03	1.077293e-01,	1.328341e-06	
24	1.737801e+03	1.077293e-01,	1.359282e-06	
25	1.778279e+03	1.077293e-01,	1.390944e-06	
26	1.819701e+03	1.077293e-01,	1.423343e-06	
27	1.862087e+03	1.077293e-01,	1.456497e-06	
28	1.905461e+03	1.077293e-01,	1.490423e-06	
29	1.949845e+03	1.077293e-01,	1.525140e-06	
30	1.995262e+03	1.077293e-01,	1.560665e-06	
31	2.041738e+03	1.077293e-01,	1.597017e-06	
32	2.089296e+03	1.077293e-01,	1.634216e-06	
33	2.137962e+03	1.077293e-01,	1.672282e-06	
34	2.187762e+03	1.077293e-01,	1.711235e-06	
35	2.238721e+03	1.077293e-01,	1.751094e-06	
36	2.290868e+03	1.077293e-01,	1.791883e-06	
37	2.344229e+03	1.077293e-01,	1.833621e-06	
38	2.398833e+03	1.077293e-01,	1.876332e-06	
39	2.454709e+03	1.077293e-01,	1.920037e-06	
40	2.511886e+03	1.077293e-01,	1.964760e-06	
41	2.570396e+03	1.077293e-01,	2.010525e-06	
42	2.630268e+03	1.077293e-01,	2.057357e-06	
43	2.691535e+03	1.077293e-01,	2.105279e-06	
44	2.754229e+03	1.077293e-01,	2.154317e-06	
45	2.818383e+03	1.077293e-01,	2.204497e-06	
46	2.884032e+03	1.077293e-01,	2.255847e-06	
47	2.951209e+03	1.077293e-01,	2.308392e-06	
48	3.019952e+03	1.077293e-01,	2.362161e-06	
49	3.090295e+03	1.077293e-01,	2.417183e-06	
50	3.162278e+03	1.077293e-01,	2.473487e-06	
51	3.235937e+03	1.077293e-01,	2.531102e-06	
52	3.311311e+03	1.077293e-01,	2.590059e-06	
53	3.388442e+03	1.077293e-01,	2.650389e-06	
54	3.467369e+03	1.077293e-01,	2.712124e-06	

Index   frequency       vop                             
--------------------------------------------------------------------------------
55	3.548134e+03	1.077293e-01,	2.775298e-06	
56	3.630781e+03	1.077293e-01,	2.839943e-06	
57	3.715352e+03	1.077293e-01,	2.906093e-06	
58	3.801894e+03	1.077293e-01,	2.973785e-06	
59	3.890451e+03	1.077293e-01,	3.043053e-06	
60	3.981072e+03	1.077293e-01,	3.113935e-06	
61	4.073803e+03	1.077293e-01,	3.186468e-06	
62	4.168694e+03	1.077293e-01,	3.260691e-06	
63	4.265795e+03	1.077293e-01,	3.336642e-06	
64	4.365158e+03	1.077293e-01,	3.414362e-06	
65	4.466836e+03	1.077293e-01,	3.493893e-06	
66	4.570882e+03	1.077293e-01,	3.575276e-06	
67	4.677351e+03	1.077293e-01,	3.658555e-06	
68	4.786301e+03	1.077293e-01,	3.743774e-06	
69	4.897788e+03	1.077293e-01,	3.830977e-06	
70	5.011872e+03	1.077293e-01,	3.920212e-06	
71	5.128614e+03	1.077293e-01,	4.011526e-06	
72	5.248075e+03	1.077293e-01,	4.104966e-06	
73	5.370318e+03	1.077293e-01,	4.200583e-06	
74	5.495409e+03	1.077293e-01,	4.298427e-06	
75	5.623413e+03	1.077293e-01,	4.398550e-06	
76	5.754399e+03	1.077293e-01,	4.501006e-06	
77	5.888437e+03	1.077293e-01,	4.605848e-06	
78	6.025596e+03	1.077293e-01,	4.713132e-06	
79	6.165950e+03	1.077293e-01,	4.822915e-06	
80	6.309573e+03	1.077293e-01,	4.935255e-06	
81	6.456542e+03	1.077293e-01,	5.050212e-06	
82	6.606934e+03	1.077293e-01,	5.167846e-06	
83	6.760830e+03	1.077293e-01,	5.288221e-06	
84	6.918310e+03	1.077293e-01,	5.411399e-06	
85	7.079458e+03	1.077293e-01,	5.537447e-06	
86	7.244360e+03	1.077293e-01,	5.666431e-06	
87	7.413102e+03	1.077293e-01,	5.798419e-06	
88	7.585776e+03	1.077293e-01,	5.933481e-06	
89	7.762471e+03	1.077293e-01,	6.071690e-06	
90	7.943282e+03	1.077293e-01,	6.213118e-06	
91	8.128305e+03	1.077293e-01,	6.357840e-06	
92	8.317638e+03	1.077293e-01,	6.505933e-06	
93	8.511380e+03	1.077293e-01,	6.657476e-06	
94	8.709636e+03	1.077293e-01,	6.812548e-06	
95	8.912509e+03	1.077293e-01,	6.971233e-06	
96	9.120108e+03	1.077293e-01,	7.133614e-06	
97	9.332543e+03	1.077293e-01,	7.299777e-06	
98	9.549926e+03	1.077293e-01,	7.469810e-06	
99	9.772372e+03	1.077293e-01,	7.643805e-06	
100	1.000000e+04	1.077293e-01,	7.821852e-06	
101	1.023293e+04	1.077293e-01,	8.004046e-06	
102	1.047129e+04	1.077293e-01,	8.190484e-06	
103	1.071519e+04	1.077293e-01,	8.381265e-06	
104	1.096478e+04	1.077293e-01,	8.576490e-06	
105	1.122018e+04	1.077293e-01,	8.776262e-06	
106	1.148154e+04	1.077293e-01,	8.980687e-06	
107	1.174898e+04	1.077293e-01,	9.189875e-06	
108	1.202264e+04	1.077293e-01,	9.403934e-06	
109	1.230269e+04	1.077293e-01,	9.622980e-06	
110	1.258925e+04	1.077293e-01,	9.847128e-06	
111	1.288250e+04	1.077293e-01,	1.007650e-05	
112	1.318257e+04	1.077293e-01,	1.031121e-05	

Index   frequency       vop                             
--------------------------------------------------------------------------------
113	1.348963e+04	1.077293e-01,	1.055139e-05	
114	1.380384e+04	1.077293e-01,	1.079716e-05	
115	1.412538e+04	1.077293e-01,	1.104866e-05	
116	1.445440e+04	1.077293e-01,	1.130602e-05	
117	1.479108e+04	1.077293e-01,	1.156937e-05	
118	1.513561e+04	1.077293e-01,	1.183885e-05	
119	1.548817e+04	1.077293e-01,	1.211461e-05	
120	1.584893e+04	1.077293e-01,	1.239680e-05	
121	1.621810e+04	1.077293e-01,	1.268556e-05	
122	1.659587e+04	1.077293e-01,	1.298104e-05	
123	1.698244e+04	1.077293e-01,	1.328341e-05	
124	1.737801e+04	1.077293e-01,	1.359282e-05	
125	1.778279e+04	1.077293e-01,	1.390944e-05	
126	1.819701e+04	1.077293e-01,	1.423343e-05	
127	1.862087e+04	1.077293e-01,	1.456497e-05	
128	1.905461e+04	1.077293e-01,	1.490423e-05	
129	1.949845e+04	1.077293e-01,	1.525140e-05	
130	1.995262e+04	1.077293e-01,	1.560665e-05	
131	2.041738e+04	1.077293e-01,	1.597017e-05	
132	2.089296e+04	1.077293e-01,	1.634216e-05	
133	2.137962e+04	1.077293e-01,	1.672282e-05	
134	2.187762e+04	1.077293e-01,	1.711235e-05	
135	2.238721e+04	1.077293e-01,	1.751095e-05	
136	2.290868e+04	1.077293e-01,	1.791883e-05	
137	2.344229e+04	1.077293e-01,	1.833621e-05	
138	2.398833e+04	1.077293e-01,	1.876332e-05	
139	2.454709e+04	1.077293e-01,	1.920037e-05	
140	2.511886e+04	1.077293e-01,	1.964760e-05	
141	2.570396e+04	1.077293e-01,	2.010525e-05	
142	2.630268e+04	1.077293e-01,	2.057357e-05	
143	2.691535e+04	1.077293e-01,	2.105279e-05	
144	2.754229e+04	1.077293e-01,	2.154317e-05	
145	2.818383e+04	1.077293e-01,	2.204497e-05	
146	2.884032e+04	1.077293e-01,	2.255847e-05	
147	2.951209e+04	1.077293e-01,	2.308392e-05	
148	3.019952e+04	1.077293e-01,	2.362162e-05	
149	3.090295e+04	1.077293e-01,	2.417183e-05	
150	3.162278e+04	1.077293e-01,	2.473487e-05	
151	3.235937e+04	1.077293e-01,	2.531102e-05	
152	3.311311e+04	1.077293e-01,	2.590059e-05	
153	3.388442e+04	1.077293e-01,	2.650389e-05	
154	3.467369e+04	1.077293e-01,	2.712124e-05	
155	3.548134e+04	1.077293e-01,	2.775298e-05	
156	3.630781e+04	1.077293e-01,	2.839943e-05	
157	3.715352e+04	1.077293e-01,	2.906094e-05	
158	3.801894e+04	1.077293e-01,	2.973785e-05	
159	3.890451e+04	1.077293e-01,	3.043054e-05	
160	3.981072e+04	1.077293e-01,	3.113935e-05	
161	4.073803e+04	1.077293e-01,	3.186468e-05	
162	4.168694e+04	1.077293e-01,	3.260691e-05	
163	4.265795e+04	1.077293e-01,	3.336642e-05	
164	4.365158e+04	1.077293e-01,	3.414362e-05	
165	4.466836e+04	1.077293e-01,	3.493893e-05	
166	4.570882e+04	1.077293e-01,	3.575276e-05	
167	4.677351e+04	1.077293e-01,	3.658555e-05	
168	4.786301e+04	1.077293e-01,	3.743774e-05	
169	4.897788e+04	1.077293e-01,	3.830977e-05	
170	5.011872e+04	1.077293e-01,	3.920212e-05	

Index   frequency       vop                             
--------------------------------------------------------------------------------
171	5.128614e+04	1.077293e-01,	4.011526e-05	
172	5.248075e+04	1.077293e-01,	4.104966e-05	
173	5.370318e+04	1.077293e-01,	4.200583e-05	
174	5.495409e+04	1.077293e-01,	4.298427e-05	
175	5.623413e+04	1.077293e-01,	4.398551e-05	
176	5.754399e+04	1.077293e-01,	4.501006e-05	
177	5.888437e+04	1.077293e-01,	4.605848e-05	
178	6.025596e+04	1.077293e-01,	4.713132e-05	
179	6.165950e+04	1.077293e-01,	4.822915e-05	
180	6.309573e+04	1.077293e-01,	4.935255e-05	
181	6.456542e+04	1.077293e-01,	5.050212e-05	
182	6.606934e+04	1.077293e-01,	5.167847e-05	
183	6.760830e+04	1.077293e-01,	5.288221e-05	
184	6.918310e+04	1.077293e-01,	5.411400e-05	
185	7.079458e+04	1.077293e-01,	5.537447e-05	
186	7.244360e+04	1.077293e-01,	5.666431e-05	
187	7.413102e+04	1.077293e-01,	5.798419e-05	
188	7.585776e+04	1.077293e-01,	5.933482e-05	
189	7.762471e+04	1.077293e-01,	6.071690e-05	
190	7.943282e+04	1.077293e-01,	6.213118e-05	
191	8.128305e+04	1.077293e-01,	6.357840e-05	
192	8.317638e+04	1.077293e-01,	6.505934e-05	
193	8.511380e+04	1.077293e-01,	6.657476e-05	
194	8.709636e+04	1.077293e-01,	6.812549e-05	
195	8.912509e+04	1.077293e-01,	6.971233e-05	
196	9.120108e+04	1.077293e-01,	7.133614e-05	
197	9.332543e+04	1.077293e-01,	7.299778e-05	
198	9.549926e+04	1.077293e-01,	7.469811e-05	
199	9.772372e+04	1.077293e-01,	7.643806e-05	
200	1.000000e+05	1.077293e-01,	7.821853e-05	
201	1.023293e+05	1.077293e-01,	8.004047e-05	
202	1.047129e+05	1.077293e-01,	8.190485e-05	
203	1.071519e+05	1.077293e-01,	8.381266e-05	
204	1.096478e+05	1.077293e-01,	8.576491e-05	
205	1.122018e+05	1.077293e-01,	8.776263e-05	
206	1.148154e+05	1.077293e-01,	8.980689e-05	
207	1.174898e+05	1.077293e-01,	9.189876e-05	
208	1.202264e+05	1.077293e-01,	9.403936e-05	
209	1.230269e+05	1.077293e-01,	9.622982e-05	
210	1.258925e+05	1.077293e-01,	9.847130e-05	
211	1.288250e+05	1.077293e-01,	1.007650e-04	
212	1.318257e+05	1.077293e-01,	1.031121e-04	
213	1.348963e+05	1.077293e-01,	1.055139e-04	
214	1.380384e+05	1.077293e-01,	1.079716e-04	
215	1.412538e+05	1.077293e-01,	1.104866e-04	
216	1.445440e+05	1.077293e-01,	1.130602e-04	
217	1.479108e+05	1.077293e-01,	1.156937e-04	
218	1.513561e+05	1.077293e-01,	1.183886e-04	
219	1.548817e+05	1.077293e-01,	1.211462e-04	
220	1.584893e+05	1.077293e-01,	1.239680e-04	
221	1.621810e+05	1.077293e-01,	1.268556e-04	
222	1.659587e+05	1.077293e-01,	1.298105e-04	
223	1.698244e+05	1.077293e-01,	1.328342e-04	
224	1.737801e+05	1.077293e-01,	1.359283e-04	
225	1.778279e+05	1.077293e-01,	1.390944e-04	
226	1.819701e+05	1.077293e-01,	1.423344e-04	
227	1.862087e+05	1.077293e-01,	1.456498e-04	
228	1.905461e+05	1.077293e-01,	1.490424e-04	

Index   frequency       vop                             
--------------------------------------------------------------------------------
229	1.949845e+05	1.077293e-01,	1.525140e-04	
230	1.995262e+05	1.077293e-01,	1.560665e-04	
231	2.041738e+05	1.077293e-01,	1.597018e-04	
232	2.089296e+05	1.077293e-01,	1.634217e-04	
233	2.137962e+05	1.077293e-01,	1.672283e-04	
234	2.187762e+05	1.077293e-01,	1.711236e-04	
235	2.238721e+05	1.077293e-01,	1.751096e-04	
236	2.290868e+05	1.077293e-01,	1.791884e-04	
237	2.344229e+05	1.077293e-01,	1.833622e-04	
238	2.398833e+05	1.077293e-01,	1.876333e-04	
239	2.454709e+05	1.077293e-01,	1.920038e-04	
240	2.511886e+05	1.077293e-01,	1.964762e-04	
241	2.570396e+05	1.077293e-01,	2.010527e-04	
242	2.630268e+05	1.077293e-01,	2.057358e-04	
243	2.691535e+05	1.077293e-01,	2.105281e-04	
244	2.754229e+05	1.077293e-01,	2.154319e-04	
245	2.818383e+05	1.077293e-01,	2.204500e-04	
246	2.884032e+05	1.077293e-01,	2.255849e-04	
247	2.951209e+05	1.077293e-01,	2.308395e-04	
248	3.019952e+05	1.077293e-01,	2.362164e-04	
249	3.090295e+05	1.077293e-01,	2.417186e-04	
250	3.162278e+05	1.077293e-01,	2.473490e-04	
251	3.235937e+05	1.077293e-01,	2.531105e-04	
252	3.311311e+05	1.077293e-01,	2.590062e-04	
253	3.388442e+05	1.077293e-01,	2.650393e-04	
254	3.467369e+05	1.077293e-01,	2.712128e-04	
255	3.548134e+05	1.077293e-01,	2.775302e-04	
256	3.630781e+05	1.077293e-01,	2.839948e-04	
257	3.715352e+05	1.077293e-01,	2.906099e-04	
258	3.801894e+05	1.077293e-01,	2.973791e-04	
259	3.890451e+05	1.077293e-01,	3.043059e-04	
260	3.981072e+05	1.077294e-01,	3.113942e-04	
261	4.073803e+05	1.077294e-01,	3.186475e-04	
262	4.168694e+05	1.077294e-01,	3.260698e-04	
263	4.265795e+05	1.077294e-01,	3.336650e-04	
264	4.365158e+05	1.077294e-01,	3.414370e-04	
265	4.466836e+05	1.077294e-01,	3.493902e-04	
266	4.570882e+05	1.077294e-01,	3.575286e-04	
267	4.677351e+05	1.077294e-01,	3.658565e-04	
268	4.786301e+05	1.077294e-01,	3.743785e-04	
269	4.897788e+05	1.077294e-01,	3.830989e-04	
270	5.011872e+05	1.077294e-01,	3.920225e-04	
271	5.128614e+05	1.077294e-01,	4.011539e-04	
272	5.248075e+05	1.077294e-01,	4.104981e-04	
273	5.370318e+05	1.077294e-01,	4.200599e-04	
274	5.495409e+05	1.077294e-01,	4.298444e-04	
275	5.623413e+05	1.077294e-01,	4.398568e-04	
276	5.754399e+05	1.077294e-01,	4.501025e-04	
277	5.888437e+05	1.077294e-01,	4.605868e-04	
278	6.025596e+05	1.077294e-01,	4.713154e-04	
279	6.165950e+05	1.077295e-01,	4.822938e-04	
280	6.309573e+05	1.077295e-01,	4.935280e-04	
281	6.456542e+05	1.077295e-01,	5.050238e-04	
282	6.606934e+05	1.077295e-01,	5.167875e-04	
283	6.760830e+05	1.077295e-01,	5.288251e-04	
284	6.918310e+05	1.077295e-01,	5.411432e-04	
285	7.079458e+05	1.077295e-01,	5.537482e-04	
286	7.244360e+05	1.077295e-01,	5.666468e-04	

Index   frequency       vop                             
--------------------------------------------------------------------------------
287	7.413102e+05	1.077295e-01,	5.798459e-04	
288	7.585776e+05	1.077296e-01,	5.933524e-04	
289	7.762471e+05	1.077296e-01,	6.071736e-04	
290	7.943282e+05	1.077296e-01,	6.213167e-04	
291	8.128305e+05	1.077296e-01,	6.357893e-04	
292	8.317638e+05	1.077296e-01,	6.505989e-04	
293	8.511380e+05	1.077296e-01,	6.657536e-04	
294	8.709636e+05	1.077296e-01,	6.812613e-04	
295	8.912509e+05	1.077297e-01,	6.971302e-04	
296	9.120108e+05	1.077297e-01,	7.133687e-04	
297	9.332543e+05	1.077297e-01,	7.299856e-04	
298	9.549926e+05	1.077297e-01,	7.469895e-04	
299	9.772372e+05	1.077297e-01,	7.643895e-04	
300	1.000000e+06	1.077298e-01,	7.821948e-04	
301	1.023293e+06	1.077298e-01,	8.004149e-04	
302	1.047129e+06	1.077298e-01,	8.190595e-04	
303	1.071519e+06	1.077298e-01,	8.381383e-04	
304	1.096478e+06	1.077299e-01,	8.576616e-04	
305	1.122018e+06	1.077299e-01,	8.776397e-04	
306	1.148154e+06	1.077299e-01,	8.980831e-04	
307	1.174898e+06	1.077299e-01,	9.190028e-04	
308	1.202264e+06	1.077300e-01,	9.404098e-04	
309	1.230269e+06	1.077300e-01,	9.623155e-04	
310	1.258925e+06	1.077300e-01,	9.847315e-04	
311	1.288250e+06	1.077301e-01,	1.007670e-03	
312	1.318257e+06	1.077301e-01,	1.031142e-03	
313	1.348963e+06	1.077302e-01,	1.055161e-03	
314	1.380384e+06	1.077302e-01,	1.079740e-03	
315	1.412538e+06	1.077302e-01,	1.104892e-03	
316	1.445440e+06	1.077303e-01,	1.130629e-03	
317	1.479108e+06	1.077303e-01,	1.156966e-03	
318	1.513561e+06	1.077304e-01,	1.183916e-03	
319	1.548817e+06	1.077304e-01,	1.211495e-03	
320	1.584893e+06	1.077305e-01,	1.239715e-03	
321	1.621810e+06	1.077306e-01,	1.268594e-03	
322	1.659587e+06	1.077306e-01,	1.298144e-03	
323	1.698244e+06	1.077307e-01,	1.328384e-03	
324	1.737801e+06	1.077307e-01,	1.359327e-03	
325	1.778279e+06	1.077308e-01,	1.390992e-03	
326	1.819701e+06	1.077309e-01,	1.423394e-03	
327	1.862087e+06	1.077310e-01,	1.456551e-03	
328	1.905461e+06	1.077310e-01,	1.490481e-03	
329	1.949845e+06	1.077311e-01,	1.525201e-03	
330	1.995262e+06	1.077312e-01,	1.560730e-03	
331	2.041738e+06	1.077313e-01,	1.597086e-03	
332	2.089296e+06	1.077314e-01,	1.634289e-03	
333	2.137962e+06	1.077315e-01,	1.672359e-03	
334	2.187762e+06	1.077316e-01,	1.711316e-03	
335	2.238721e+06	1.077317e-01,	1.751180e-03	
336	2.290868e+06	1.077319e-01,	1.791973e-03	
337	2.344229e+06	1.077320e-01,	1.833717e-03	
338	2.398833e+06	1.077321e-01,	1.876432e-03	
339	2.454709e+06	1.077323e-01,	1.920143e-03	
340	2.511886e+06	1.077324e-01,	1.964872e-03	
341	2.570396e+06	1.077326e-01,	2.010642e-03	
342	2.630268e+06	1.077327e-01,	2.057479e-03	
343	2.691535e+06	1.077329e-01,	2.105407e-03	
344	2.754229e+06	1.077331e-01,	2.154451e-03	

Index   frequency       vop                             
--------------------------------------------------------------------------------
345	2.818383e+06	1.077332e-01,	2.204637e-03	
346	2.884032e+06	1.077334e-01,	2.255992e-03	
347	2.951209e+06	1.077336e-01,	2.308543e-03	
348	3.019952e+06	1.077338e-01,	2.362318e-03	
349	3.090295e+06	1.077341e-01,	2.417346e-03	
350	3.162278e+06	1.077343e-01,	2.473654e-03	
351	3.235937e+06	1.077345e-01,	2.531274e-03	
352	3.311311e+06	1.077348e-01,	2.590235e-03	
353	3.388442e+06	1.077351e-01,	2.650569e-03	
354	3.467369e+06	1.077354e-01,	2.712308e-03	
355	3.548134e+06	1.077357e-01,	2.775484e-03	
356	3.630781e+06	1.077360e-01,	2.840131e-03	
357	3.715352e+06	1.077363e-01,	2.906283e-03	
358	3.801894e+06	1.077366e-01,	2.973974e-03	
359	3.890451e+06	1.077370e-01,	3.043241e-03	
360	3.981072e+06	1.077374e-01,	3.114120e-03	
361	4.073803e+06	1.077378e-01,	3.186648e-03	
362	4.168694e+06	1.077382e-01,	3.260864e-03	
363	4.265795e+06	1.077386e-01,	3.336807e-03	
364	4.365158e+06	1.077391e-01,	3.414517e-03	
365	4.466836e+06	1.077395e-01,	3.494035e-03	
366	4.570882e+06	1.077400e-01,	3.575403e-03	
367	4.677351e+06	1.077405e-01,	3.658664e-03	
368	4.786301e+06	1.077411e-01,	3.743862e-03	
369	4.897788e+06	1.077417e-01,	3.831041e-03	
370	5.011872e+06	1.077422e-01,	3.920249e-03	
371	5.128614e+06	1.077429e-01,	4.011532e-03	
372	5.248075e+06	1.077435e-01,	4.104938e-03	
373	5.370318e+06	1.077442e-01,	4.200518e-03	
374	5.495409e+06	1.077449e-01,	4.298320e-03	
375	5.623413e+06	1.077456e-01,	4.398398e-03	
376	5.754399e+06	1.077464e-01,	4.500804e-03	
377	5.888437e+06	1.077472e-01,	4.605593e-03	
378	6.025596e+06	1.077480e-01,	4.712820e-03	
379	6.165950e+06	1.077489e-01,	4.822541e-03	
380	6.309573e+06	1.077498e-01,	4.934816e-03	
381	6.456542e+06	1.077507e-01,	5.049703e-03	
382	6.606934e+06	1.077517e-01,	5.167264e-03	
383	6.760830e+06	1.077528e-01,	5.287562e-03	
384	6.918310e+06	1.077538e-01,	5.410659e-03	
385	7.079458e+06	1.077550e-01,	5.536621e-03	
386	7.244360e+06	1.077561e-01,	5.665516e-03	
387	7.413102e+06	1.077574e-01,	5.797412e-03	
388	7.585776e+06	1.077586e-01,	5.932378e-03	
389	7.762471e+06	1.077600e-01,	6.070487e-03	
390	7.943282e+06	1.077614e-01,	6.211811e-03	
391	8.128305e+06	1.077628e-01,	6.356426e-03	
392	8.317638e+06	1.077643e-01,	6.504409e-03	
393	8.511380e+06	1.077659e-01,	6.655838e-03	
394	8.709636e+06	1.077676e-01,	6.810794e-03	
395	8.912509e+06	1.077693e-01,	6.969359e-03	
396	9.120108e+06	1.077711e-01,	7.131616e-03	
397	9.332543e+06	1.077730e-01,	7.297653e-03	
398	9.549926e+06	1.077750e-01,	7.467557e-03	
399	9.772372e+06	1.077770e-01,	7.641418e-03	
400	1.000000e+07	1.077792e-01,	7.819328e-03	
401	1.023293e+07	1.077815e-01,	8.001383e-03	
402	1.047129e+07	1.077838e-01,	8.187677e-03	

Index   frequency       vop                             
--------------------------------------------------------------------------------
403	1.071519e+07	1.077863e-01,	8.378311e-03	
404	1.096478e+07	1.077889e-01,	8.573385e-03	
405	1.122018e+07	1.077916e-01,	8.773002e-03	
406	1.148154e+07	1.077944e-01,	8.977269e-03	
407	1.174898e+07	1.077974e-01,	9.186293e-03	
408	1.202264e+07	1.078005e-01,	9.400186e-03	
409	1.230269e+07	1.078037e-01,	9.619060e-03	
410	1.258925e+07	1.078071e-01,	9.843031e-03	
411	1.288250e+07	1.078107e-01,	1.007222e-02	
412	1.318257e+07	1.078144e-01,	1.030674e-02	
413	1.348963e+07	1.078183e-01,	1.054673e-02	
414	1.380384e+07	1.078224e-01,	1.079231e-02	
415	1.412538e+07	1.078266e-01,	1.104360e-02	
416	1.445440e+07	1.078311e-01,	1.130074e-02	
