** sch_path: /home/andylithia/openmpw/project-reisen-chip1/xschem/ota_wideband.sch
AC Analysis  Sun Oct 30 17:11:03  2022
--------------------------------------------------------------------------------
Index   frequency       vop                             
--------------------------------------------------------------------------------
0	1.000000e+03	3.391933e+00,	-1.45913e-06	
1	1.023293e+03	3.391933e+00,	-1.49312e-06	
2	1.047129e+03	3.391933e+00,	-1.52790e-06	
3	1.071519e+03	3.391933e+00,	-1.56349e-06	
4	1.096478e+03	3.391933e+00,	-1.59991e-06	
5	1.122018e+03	3.391933e+00,	-1.63717e-06	
6	1.148154e+03	3.391933e+00,	-1.67531e-06	
7	1.174898e+03	3.391933e+00,	-1.71433e-06	
8	1.202264e+03	3.391933e+00,	-1.75426e-06	
9	1.230269e+03	3.391933e+00,	-1.79513e-06	
10	1.258925e+03	3.391933e+00,	-1.83694e-06	
11	1.288250e+03	3.391933e+00,	-1.87973e-06	
12	1.318257e+03	3.391933e+00,	-1.92351e-06	
13	1.348963e+03	3.391933e+00,	-1.96832e-06	
14	1.380384e+03	3.391933e+00,	-2.01416e-06	
15	1.412538e+03	3.391933e+00,	-2.06108e-06	
16	1.445440e+03	3.391933e+00,	-2.10909e-06	
17	1.479108e+03	3.391933e+00,	-2.15822e-06	
18	1.513561e+03	3.391933e+00,	-2.20849e-06	
19	1.548817e+03	3.391933e+00,	-2.25993e-06	
20	1.584893e+03	3.391933e+00,	-2.31257e-06	
21	1.621810e+03	3.391933e+00,	-2.36644e-06	
22	1.659587e+03	3.391933e+00,	-2.42156e-06	
23	1.698244e+03	3.391933e+00,	-2.47796e-06	
24	1.737801e+03	3.391933e+00,	-2.53568e-06	
25	1.778279e+03	3.391933e+00,	-2.59475e-06	
26	1.819701e+03	3.391933e+00,	-2.65519e-06	
27	1.862087e+03	3.391933e+00,	-2.71703e-06	
28	1.905461e+03	3.391933e+00,	-2.78032e-06	
29	1.949845e+03	3.391933e+00,	-2.84508e-06	
30	1.995262e+03	3.391933e+00,	-2.91135e-06	
31	2.041738e+03	3.391933e+00,	-2.97917e-06	
32	2.089296e+03	3.391933e+00,	-3.04856e-06	
33	2.137962e+03	3.391933e+00,	-3.11957e-06	
34	2.187762e+03	3.391933e+00,	-3.19223e-06	
35	2.238721e+03	3.391933e+00,	-3.26659e-06	
36	2.290868e+03	3.391933e+00,	-3.34268e-06	
37	2.344229e+03	3.391933e+00,	-3.42054e-06	
38	2.398833e+03	3.391933e+00,	-3.50022e-06	
39	2.454709e+03	3.391933e+00,	-3.58175e-06	
40	2.511886e+03	3.391933e+00,	-3.66518e-06	
41	2.570396e+03	3.391933e+00,	-3.75055e-06	
42	2.630268e+03	3.391933e+00,	-3.83791e-06	
43	2.691535e+03	3.391933e+00,	-3.92731e-06	
44	2.754229e+03	3.391933e+00,	-4.01879e-06	
45	2.818383e+03	3.391933e+00,	-4.11240e-06	
46	2.884032e+03	3.391933e+00,	-4.20819e-06	
47	2.951209e+03	3.391933e+00,	-4.30621e-06	
48	3.019952e+03	3.391933e+00,	-4.40651e-06	
49	3.090295e+03	3.391933e+00,	-4.50915e-06	
50	3.162278e+03	3.391933e+00,	-4.61418e-06	
51	3.235937e+03	3.391933e+00,	-4.72166e-06	
52	3.311311e+03	3.391933e+00,	-4.83164e-06	
53	3.388442e+03	3.391933e+00,	-4.94419e-06	
54	3.467369e+03	3.391933e+00,	-5.05935e-06	

Index   frequency       vop                             
--------------------------------------------------------------------------------
55	3.548134e+03	3.391933e+00,	-5.17720e-06	
56	3.630781e+03	3.391933e+00,	-5.29779e-06	
57	3.715352e+03	3.391933e+00,	-5.42119e-06	
58	3.801894e+03	3.391933e+00,	-5.54747e-06	
59	3.890451e+03	3.391933e+00,	-5.67669e-06	
60	3.981072e+03	3.391933e+00,	-5.80891e-06	
61	4.073803e+03	3.391933e+00,	-5.94422e-06	
62	4.168694e+03	3.391933e+00,	-6.08268e-06	
63	4.265795e+03	3.391933e+00,	-6.22436e-06	
64	4.365158e+03	3.391933e+00,	-6.36935e-06	
65	4.466836e+03	3.391933e+00,	-6.51771e-06	
66	4.570882e+03	3.391933e+00,	-6.66952e-06	
67	4.677351e+03	3.391933e+00,	-6.82488e-06	
68	4.786301e+03	3.391933e+00,	-6.98385e-06	
69	4.897788e+03	3.391933e+00,	-7.14652e-06	
70	5.011872e+03	3.391933e+00,	-7.31299e-06	
71	5.128614e+03	3.391933e+00,	-7.48333e-06	
72	5.248075e+03	3.391933e+00,	-7.65764e-06	
73	5.370318e+03	3.391933e+00,	-7.83601e-06	
74	5.495409e+03	3.391933e+00,	-8.01853e-06	
75	5.623413e+03	3.391933e+00,	-8.20531e-06	
76	5.754399e+03	3.391933e+00,	-8.39643e-06	
77	5.888437e+03	3.391933e+00,	-8.59201e-06	
78	6.025596e+03	3.391933e+00,	-8.79215e-06	
79	6.165950e+03	3.391933e+00,	-8.99694e-06	
80	6.309573e+03	3.391933e+00,	-9.20651e-06	
81	6.456542e+03	3.391933e+00,	-9.42095e-06	
82	6.606934e+03	3.391933e+00,	-9.64040e-06	
83	6.760830e+03	3.391933e+00,	-9.86495e-06	
84	6.918310e+03	3.391933e+00,	-1.00947e-05	
85	7.079458e+03	3.391933e+00,	-1.03299e-05	
86	7.244360e+03	3.391933e+00,	-1.05705e-05	
87	7.413102e+03	3.391933e+00,	-1.08167e-05	
88	7.585776e+03	3.391933e+00,	-1.10687e-05	
89	7.762471e+03	3.391933e+00,	-1.13265e-05	
90	7.943282e+03	3.391933e+00,	-1.15903e-05	
91	8.128305e+03	3.391933e+00,	-1.18603e-05	
92	8.317638e+03	3.391933e+00,	-1.21365e-05	
93	8.511380e+03	3.391933e+00,	-1.24192e-05	
94	8.709636e+03	3.391933e+00,	-1.27085e-05	
95	8.912509e+03	3.391933e+00,	-1.30045e-05	
96	9.120108e+03	3.391933e+00,	-1.33075e-05	
97	9.332543e+03	3.391933e+00,	-1.36174e-05	
98	9.549926e+03	3.391933e+00,	-1.39346e-05	
99	9.772372e+03	3.391933e+00,	-1.42592e-05	
100	1.000000e+04	3.391933e+00,	-1.45913e-05	
101	1.023293e+04	3.391933e+00,	-1.49312e-05	
102	1.047129e+04	3.391933e+00,	-1.52790e-05	
103	1.071519e+04	3.391933e+00,	-1.56349e-05	
104	1.096478e+04	3.391933e+00,	-1.59991e-05	
105	1.122018e+04	3.391933e+00,	-1.63717e-05	
106	1.148154e+04	3.391933e+00,	-1.67531e-05	
107	1.174898e+04	3.391933e+00,	-1.71433e-05	
108	1.202264e+04	3.391933e+00,	-1.75426e-05	
109	1.230269e+04	3.391933e+00,	-1.79513e-05	
110	1.258925e+04	3.391933e+00,	-1.83694e-05	
111	1.288250e+04	3.391933e+00,	-1.87973e-05	
112	1.318257e+04	3.391933e+00,	-1.92351e-05	

Index   frequency       vop                             
--------------------------------------------------------------------------------
113	1.348963e+04	3.391933e+00,	-1.96832e-05	
114	1.380384e+04	3.391933e+00,	-2.01416e-05	
115	1.412538e+04	3.391933e+00,	-2.06108e-05	
116	1.445440e+04	3.391933e+00,	-2.10909e-05	
117	1.479108e+04	3.391933e+00,	-2.15822e-05	
118	1.513561e+04	3.391933e+00,	-2.20849e-05	
119	1.548817e+04	3.391933e+00,	-2.25993e-05	
120	1.584893e+04	3.391933e+00,	-2.31257e-05	
121	1.621810e+04	3.391933e+00,	-2.36644e-05	
122	1.659587e+04	3.391933e+00,	-2.42156e-05	
123	1.698244e+04	3.391933e+00,	-2.47796e-05	
124	1.737801e+04	3.391933e+00,	-2.53568e-05	
125	1.778279e+04	3.391933e+00,	-2.59475e-05	
126	1.819701e+04	3.391933e+00,	-2.65519e-05	
127	1.862087e+04	3.391933e+00,	-2.71703e-05	
128	1.905461e+04	3.391933e+00,	-2.78032e-05	
129	1.949845e+04	3.391933e+00,	-2.84508e-05	
130	1.995262e+04	3.391933e+00,	-2.91135e-05	
131	2.041738e+04	3.391933e+00,	-2.97917e-05	
132	2.089296e+04	3.391933e+00,	-3.04856e-05	
133	2.137962e+04	3.391933e+00,	-3.11957e-05	
134	2.187762e+04	3.391933e+00,	-3.19223e-05	
135	2.238721e+04	3.391933e+00,	-3.26659e-05	
136	2.290868e+04	3.391933e+00,	-3.34268e-05	
137	2.344229e+04	3.391933e+00,	-3.42054e-05	
138	2.398833e+04	3.391933e+00,	-3.50022e-05	
139	2.454709e+04	3.391933e+00,	-3.58175e-05	
140	2.511886e+04	3.391933e+00,	-3.66518e-05	
141	2.570396e+04	3.391933e+00,	-3.75055e-05	
142	2.630268e+04	3.391933e+00,	-3.83791e-05	
143	2.691535e+04	3.391933e+00,	-3.92731e-05	
144	2.754229e+04	3.391933e+00,	-4.01879e-05	
145	2.818383e+04	3.391933e+00,	-4.11240e-05	
146	2.884032e+04	3.391933e+00,	-4.20819e-05	
147	2.951209e+04	3.391933e+00,	-4.30621e-05	
148	3.019952e+04	3.391933e+00,	-4.40651e-05	
149	3.090295e+04	3.391933e+00,	-4.50915e-05	
150	3.162278e+04	3.391933e+00,	-4.61418e-05	
151	3.235937e+04	3.391933e+00,	-4.72166e-05	
152	3.311311e+04	3.391933e+00,	-4.83164e-05	
153	3.388442e+04	3.391933e+00,	-4.94419e-05	
154	3.467369e+04	3.391933e+00,	-5.05935e-05	
155	3.548134e+04	3.391933e+00,	-5.17720e-05	
156	3.630781e+04	3.391933e+00,	-5.29779e-05	
157	3.715352e+04	3.391933e+00,	-5.42119e-05	
158	3.801894e+04	3.391933e+00,	-5.54747e-05	
159	3.890451e+04	3.391933e+00,	-5.67669e-05	
160	3.981072e+04	3.391933e+00,	-5.80891e-05	
161	4.073803e+04	3.391933e+00,	-5.94422e-05	
162	4.168694e+04	3.391933e+00,	-6.08268e-05	
163	4.265795e+04	3.391933e+00,	-6.22436e-05	
164	4.365158e+04	3.391933e+00,	-6.36935e-05	
165	4.466836e+04	3.391933e+00,	-6.51771e-05	
166	4.570882e+04	3.391933e+00,	-6.66952e-05	
167	4.677351e+04	3.391933e+00,	-6.82488e-05	
168	4.786301e+04	3.391933e+00,	-6.98385e-05	
169	4.897788e+04	3.391933e+00,	-7.14652e-05	
170	5.011872e+04	3.391933e+00,	-7.31299e-05	

Index   frequency       vop                             
--------------------------------------------------------------------------------
171	5.128614e+04	3.391933e+00,	-7.48333e-05	
172	5.248075e+04	3.391933e+00,	-7.65764e-05	
173	5.370318e+04	3.391933e+00,	-7.83601e-05	
174	5.495409e+04	3.391933e+00,	-8.01853e-05	
175	5.623413e+04	3.391933e+00,	-8.20531e-05	
176	5.754399e+04	3.391933e+00,	-8.39643e-05	
177	5.888437e+04	3.391933e+00,	-8.59201e-05	
178	6.025596e+04	3.391933e+00,	-8.79215e-05	
179	6.165950e+04	3.391933e+00,	-8.99694e-05	
180	6.309573e+04	3.391933e+00,	-9.20651e-05	
181	6.456542e+04	3.391933e+00,	-9.42095e-05	
182	6.606934e+04	3.391933e+00,	-9.64040e-05	
183	6.760830e+04	3.391933e+00,	-9.86495e-05	
184	6.918310e+04	3.391933e+00,	-1.00947e-04	
185	7.079458e+04	3.391933e+00,	-1.03299e-04	
186	7.244360e+04	3.391933e+00,	-1.05705e-04	
187	7.413102e+04	3.391933e+00,	-1.08167e-04	
188	7.585776e+04	3.391933e+00,	-1.10687e-04	
189	7.762471e+04	3.391933e+00,	-1.13265e-04	
190	7.943282e+04	3.391933e+00,	-1.15903e-04	
191	8.128305e+04	3.391933e+00,	-1.18603e-04	
192	8.317638e+04	3.391933e+00,	-1.21365e-04	
193	8.511380e+04	3.391933e+00,	-1.24192e-04	
194	8.709636e+04	3.391933e+00,	-1.27085e-04	
195	8.912509e+04	3.391933e+00,	-1.30045e-04	
196	9.120108e+04	3.391933e+00,	-1.33074e-04	
197	9.332543e+04	3.391933e+00,	-1.36174e-04	
198	9.549926e+04	3.391933e+00,	-1.39346e-04	
199	9.772372e+04	3.391933e+00,	-1.42592e-04	
200	1.000000e+05	3.391933e+00,	-1.45913e-04	
201	1.023293e+05	3.391933e+00,	-1.49312e-04	
202	1.047129e+05	3.391933e+00,	-1.52790e-04	
203	1.071519e+05	3.391933e+00,	-1.56349e-04	
204	1.096478e+05	3.391933e+00,	-1.59991e-04	
205	1.122018e+05	3.391933e+00,	-1.63717e-04	
206	1.148154e+05	3.391933e+00,	-1.67531e-04	
207	1.174898e+05	3.391933e+00,	-1.71433e-04	
208	1.202264e+05	3.391933e+00,	-1.75426e-04	
209	1.230269e+05	3.391933e+00,	-1.79513e-04	
210	1.258925e+05	3.391933e+00,	-1.83694e-04	
211	1.288250e+05	3.391933e+00,	-1.87973e-04	
212	1.318257e+05	3.391933e+00,	-1.92351e-04	
213	1.348963e+05	3.391933e+00,	-1.96832e-04	
214	1.380384e+05	3.391933e+00,	-2.01416e-04	
215	1.412538e+05	3.391933e+00,	-2.06108e-04	
216	1.445440e+05	3.391933e+00,	-2.10909e-04	
217	1.479108e+05	3.391933e+00,	-2.15822e-04	
218	1.513561e+05	3.391933e+00,	-2.20849e-04	
219	1.548817e+05	3.391933e+00,	-2.25993e-04	
220	1.584893e+05	3.391933e+00,	-2.31257e-04	
221	1.621810e+05	3.391933e+00,	-2.36644e-04	
222	1.659587e+05	3.391933e+00,	-2.42156e-04	
223	1.698244e+05	3.391933e+00,	-2.47796e-04	
224	1.737801e+05	3.391933e+00,	-2.53568e-04	
225	1.778279e+05	3.391933e+00,	-2.59475e-04	
226	1.819701e+05	3.391933e+00,	-2.65519e-04	
227	1.862087e+05	3.391933e+00,	-2.71703e-04	
228	1.905461e+05	3.391933e+00,	-2.78032e-04	

Index   frequency       vop                             
--------------------------------------------------------------------------------
229	1.949845e+05	3.391933e+00,	-2.84508e-04	
230	1.995262e+05	3.391933e+00,	-2.91135e-04	
231	2.041738e+05	3.391933e+00,	-2.97917e-04	
232	2.089296e+05	3.391933e+00,	-3.04856e-04	
233	2.137962e+05	3.391933e+00,	-3.11957e-04	
234	2.187762e+05	3.391933e+00,	-3.19223e-04	
235	2.238721e+05	3.391933e+00,	-3.26659e-04	
236	2.290868e+05	3.391933e+00,	-3.34268e-04	
237	2.344229e+05	3.391933e+00,	-3.42054e-04	
238	2.398833e+05	3.391933e+00,	-3.50022e-04	
239	2.454709e+05	3.391933e+00,	-3.58175e-04	
240	2.511886e+05	3.391933e+00,	-3.66518e-04	
241	2.570396e+05	3.391933e+00,	-3.75055e-04	
242	2.630268e+05	3.391933e+00,	-3.83791e-04	
243	2.691535e+05	3.391933e+00,	-3.92731e-04	
244	2.754229e+05	3.391933e+00,	-4.01878e-04	
245	2.818383e+05	3.391933e+00,	-4.11239e-04	
246	2.884032e+05	3.391933e+00,	-4.20818e-04	
247	2.951209e+05	3.391933e+00,	-4.30621e-04	
248	3.019952e+05	3.391933e+00,	-4.40651e-04	
249	3.090295e+05	3.391933e+00,	-4.50915e-04	
250	3.162278e+05	3.391933e+00,	-4.61418e-04	
251	3.235937e+05	3.391933e+00,	-4.72166e-04	
252	3.311311e+05	3.391933e+00,	-4.83164e-04	
253	3.388442e+05	3.391933e+00,	-4.94418e-04	
254	3.467369e+05	3.391933e+00,	-5.05935e-04	
255	3.548134e+05	3.391933e+00,	-5.17720e-04	
256	3.630781e+05	3.391933e+00,	-5.29779e-04	
257	3.715352e+05	3.391933e+00,	-5.42119e-04	
258	3.801894e+05	3.391933e+00,	-5.54747e-04	
259	3.890451e+05	3.391933e+00,	-5.67668e-04	
260	3.981072e+05	3.391933e+00,	-5.80891e-04	
261	4.073803e+05	3.391933e+00,	-5.94422e-04	
262	4.168694e+05	3.391933e+00,	-6.08268e-04	
263	4.265795e+05	3.391933e+00,	-6.22436e-04	
264	4.365158e+05	3.391933e+00,	-6.36934e-04	
265	4.466836e+05	3.391933e+00,	-6.51770e-04	
266	4.570882e+05	3.391933e+00,	-6.66952e-04	
267	4.677351e+05	3.391933e+00,	-6.82487e-04	
268	4.786301e+05	3.391933e+00,	-6.98384e-04	
269	4.897788e+05	3.391933e+00,	-7.14652e-04	
270	5.011872e+05	3.391933e+00,	-7.31298e-04	
271	5.128614e+05	3.391933e+00,	-7.48332e-04	
272	5.248075e+05	3.391933e+00,	-7.65763e-04	
273	5.370318e+05	3.391933e+00,	-7.83600e-04	
274	5.495409e+05	3.391933e+00,	-8.01852e-04	
275	5.623413e+05	3.391933e+00,	-8.20530e-04	
276	5.754399e+05	3.391933e+00,	-8.39642e-04	
277	5.888437e+05	3.391933e+00,	-8.59200e-04	
278	6.025596e+05	3.391933e+00,	-8.79214e-04	
279	6.165950e+05	3.391933e+00,	-8.99693e-04	
280	6.309573e+05	3.391933e+00,	-9.20649e-04	
281	6.456542e+05	3.391933e+00,	-9.42094e-04	
282	6.606934e+05	3.391933e+00,	-9.64038e-04	
283	6.760830e+05	3.391933e+00,	-9.86493e-04	
284	6.918310e+05	3.391933e+00,	-1.00947e-03	
285	7.079458e+05	3.391933e+00,	-1.03299e-03	
286	7.244360e+05	3.391933e+00,	-1.05705e-03	

Index   frequency       vop                             
--------------------------------------------------------------------------------
287	7.413102e+05	3.391933e+00,	-1.08167e-03	
288	7.585776e+05	3.391933e+00,	-1.10686e-03	
289	7.762471e+05	3.391933e+00,	-1.13265e-03	
290	7.943282e+05	3.391933e+00,	-1.15903e-03	
291	8.128305e+05	3.391933e+00,	-1.18603e-03	
292	8.317638e+05	3.391933e+00,	-1.21365e-03	
293	8.511380e+05	3.391933e+00,	-1.24192e-03	
294	8.709636e+05	3.391933e+00,	-1.27085e-03	
295	8.912509e+05	3.391933e+00,	-1.30045e-03	
296	9.120108e+05	3.391933e+00,	-1.33074e-03	
297	9.332543e+05	3.391933e+00,	-1.36174e-03	
298	9.549926e+05	3.391933e+00,	-1.39346e-03	
299	9.772372e+05	3.391933e+00,	-1.42591e-03	
300	1.000000e+06	3.391933e+00,	-1.45913e-03	
301	1.023293e+06	3.391933e+00,	-1.49312e-03	
302	1.047129e+06	3.391933e+00,	-1.52789e-03	
303	1.071519e+06	3.391933e+00,	-1.56348e-03	
304	1.096478e+06	3.391933e+00,	-1.59990e-03	
305	1.122018e+06	3.391933e+00,	-1.63717e-03	
306	1.148154e+06	3.391933e+00,	-1.67530e-03	
307	1.174898e+06	3.391933e+00,	-1.71432e-03	
308	1.202264e+06	3.391933e+00,	-1.75426e-03	
309	1.230269e+06	3.391933e+00,	-1.79512e-03	
310	1.258925e+06	3.391933e+00,	-1.83693e-03	
311	1.288250e+06	3.391933e+00,	-1.87972e-03	
312	1.318257e+06	3.391933e+00,	-1.92350e-03	
313	1.348963e+06	3.391933e+00,	-1.96830e-03	
314	1.380384e+06	3.391933e+00,	-2.01415e-03	
315	1.412538e+06	3.391933e+00,	-2.06107e-03	
316	1.445440e+06	3.391933e+00,	-2.10907e-03	
317	1.479108e+06	3.391933e+00,	-2.15820e-03	
318	1.513561e+06	3.391933e+00,	-2.20847e-03	
319	1.548817e+06	3.391933e+00,	-2.25991e-03	
320	1.584893e+06	3.391933e+00,	-2.31255e-03	
321	1.621810e+06	3.391933e+00,	-2.36642e-03	
322	1.659587e+06	3.391933e+00,	-2.42154e-03	
323	1.698244e+06	3.391933e+00,	-2.47794e-03	
324	1.737801e+06	3.391933e+00,	-2.53566e-03	
325	1.778279e+06	3.391933e+00,	-2.59472e-03	
326	1.819701e+06	3.391933e+00,	-2.65516e-03	
327	1.862087e+06	3.391933e+00,	-2.71700e-03	
328	1.905461e+06	3.391933e+00,	-2.78029e-03	
329	1.949845e+06	3.391933e+00,	-2.84505e-03	
330	1.995262e+06	3.391933e+00,	-2.91132e-03	
331	2.041738e+06	3.391933e+00,	-2.97913e-03	
332	2.089296e+06	3.391933e+00,	-3.04852e-03	
333	2.137962e+06	3.391933e+00,	-3.11953e-03	
334	2.187762e+06	3.391933e+00,	-3.19219e-03	
335	2.238721e+06	3.391933e+00,	-3.26654e-03	
336	2.290868e+06	3.391933e+00,	-3.34263e-03	
337	2.344229e+06	3.391933e+00,	-3.42048e-03	
338	2.398833e+06	3.391933e+00,	-3.50015e-03	
339	2.454709e+06	3.391933e+00,	-3.58168e-03	
340	2.511886e+06	3.391933e+00,	-3.66510e-03	
341	2.570396e+06	3.391933e+00,	-3.75047e-03	
342	2.630268e+06	3.391933e+00,	-3.83783e-03	
343	2.691535e+06	3.391933e+00,	-3.92722e-03	
344	2.754229e+06	3.391933e+00,	-4.01869e-03	

Index   frequency       vop                             
--------------------------------------------------------------------------------
345	2.818383e+06	3.391933e+00,	-4.11229e-03	
346	2.884032e+06	3.391933e+00,	-4.20808e-03	
347	2.951209e+06	3.391933e+00,	-4.30609e-03	
348	3.019952e+06	3.391933e+00,	-4.40639e-03	
349	3.090295e+06	3.391933e+00,	-4.50902e-03	
350	3.162278e+06	3.391933e+00,	-4.61404e-03	
351	3.235937e+06	3.391933e+00,	-4.72151e-03	
352	3.311311e+06	3.391933e+00,	-4.83148e-03	
353	3.388442e+06	3.391933e+00,	-4.94401e-03	
354	3.467369e+06	3.391932e+00,	-5.05916e-03	
355	3.548134e+06	3.391932e+00,	-5.17700e-03	
356	3.630781e+06	3.391932e+00,	-5.29757e-03	
357	3.715352e+06	3.391932e+00,	-5.42096e-03	
358	3.801894e+06	3.391932e+00,	-5.54722e-03	
359	3.890451e+06	3.391932e+00,	-5.67642e-03	
360	3.981072e+06	3.391932e+00,	-5.80863e-03	
361	4.073803e+06	3.391932e+00,	-5.94391e-03	
362	4.168694e+06	3.391932e+00,	-6.08235e-03	
363	4.265795e+06	3.391932e+00,	-6.22401e-03	
364	4.365158e+06	3.391932e+00,	-6.36897e-03	
365	4.466836e+06	3.391932e+00,	-6.51730e-03	
366	4.570882e+06	3.391932e+00,	-6.66909e-03	
367	4.677351e+06	3.391932e+00,	-6.82441e-03	
368	4.786301e+06	3.391932e+00,	-6.98335e-03	
369	4.897788e+06	3.391932e+00,	-7.14599e-03	
370	5.011872e+06	3.391932e+00,	-7.31242e-03	
371	5.128614e+06	3.391932e+00,	-7.48272e-03	
372	5.248075e+06	3.391931e+00,	-7.65698e-03	
373	5.370318e+06	3.391931e+00,	-7.83530e-03	
374	5.495409e+06	3.391931e+00,	-8.01778e-03	
375	5.623413e+06	3.391931e+00,	-8.20450e-03	
376	5.754399e+06	3.391931e+00,	-8.39557e-03	
377	5.888437e+06	3.391931e+00,	-8.59109e-03	
378	6.025596e+06	3.391931e+00,	-8.79115e-03	
379	6.165950e+06	3.391931e+00,	-8.99588e-03	
380	6.309573e+06	3.391931e+00,	-9.20537e-03	
381	6.456542e+06	3.391931e+00,	-9.41974e-03	
382	6.606934e+06	3.391930e+00,	-9.63909e-03	
383	6.760830e+06	3.391930e+00,	-9.86355e-03	
384	6.918310e+06	3.391930e+00,	-1.00932e-02	
385	7.079458e+06	3.391930e+00,	-1.03283e-02	
386	7.244360e+06	3.391930e+00,	-1.05688e-02	
387	7.413102e+06	3.391930e+00,	-1.08149e-02	
388	7.585776e+06	3.391930e+00,	-1.10667e-02	
389	7.762471e+06	3.391929e+00,	-1.13244e-02	
390	7.943282e+06	3.391929e+00,	-1.15881e-02	
391	8.128305e+06	3.391929e+00,	-1.18579e-02	
392	8.317638e+06	3.391929e+00,	-1.21340e-02	
393	8.511380e+06	3.391929e+00,	-1.24165e-02	
394	8.709636e+06	3.391928e+00,	-1.27056e-02	
395	8.912509e+06	3.391928e+00,	-1.30014e-02	
396	9.120108e+06	3.391928e+00,	-1.33041e-02	
397	9.332543e+06	3.391928e+00,	-1.36138e-02	
398	9.549926e+06	3.391928e+00,	-1.39307e-02	
399	9.772372e+06	3.391927e+00,	-1.42550e-02	
400	1.000000e+07	3.391927e+00,	-1.45869e-02	
401	1.023293e+07	3.391927e+00,	-1.49265e-02	
402	1.047129e+07	3.391927e+00,	-1.52739e-02	

Index   frequency       vop                             
--------------------------------------------------------------------------------
403	1.071519e+07	3.391926e+00,	-1.56295e-02	
404	1.096478e+07	3.391926e+00,	-1.59933e-02	
405	1.122018e+07	3.391926e+00,	-1.63655e-02	
406	1.148154e+07	3.391926e+00,	-1.67464e-02	
407	1.174898e+07	3.391925e+00,	-1.71362e-02	
408	1.202264e+07	3.391925e+00,	-1.75350e-02	
409	1.230269e+07	3.391925e+00,	-1.79431e-02	
410	1.258925e+07	3.391924e+00,	-1.83607e-02	
411	1.288250e+07	3.391924e+00,	-1.87880e-02	
412	1.318257e+07	3.391924e+00,	-1.92252e-02	
413	1.348963e+07	3.391924e+00,	-1.96726e-02	
414	1.380384e+07	3.391923e+00,	-2.01303e-02	
415	1.412538e+07	3.391923e+00,	-2.05987e-02	
416	1.445440e+07	3.391923e+00,	-2.10780e-02	
