** sch_path: /home/andylithia/openmpw/project-reisen-chip1/xschem/ota_wideband.sch
AC Analysis  Sun Oct 30 17:11:03  2022
--------------------------------------------------------------------------------
Index   frequency       vop                             
--------------------------------------------------------------------------------
0	1.000000e+03	1.919601e+00,	1.230988e-05	
1	1.023293e+03	1.919601e+00,	1.259661e-05	
2	1.047129e+03	1.919601e+00,	1.289002e-05	
3	1.071519e+03	1.919601e+00,	1.319027e-05	
4	1.096478e+03	1.919601e+00,	1.349751e-05	
5	1.122018e+03	1.919601e+00,	1.381191e-05	
6	1.148154e+03	1.919601e+00,	1.413363e-05	
7	1.174898e+03	1.919601e+00,	1.446284e-05	
8	1.202264e+03	1.919601e+00,	1.479973e-05	
9	1.230269e+03	1.919601e+00,	1.514446e-05	
10	1.258925e+03	1.919601e+00,	1.549722e-05	
11	1.288250e+03	1.919601e+00,	1.585819e-05	
12	1.318257e+03	1.919601e+00,	1.622758e-05	
13	1.348963e+03	1.919601e+00,	1.660557e-05	
14	1.380384e+03	1.919601e+00,	1.699236e-05	
15	1.412538e+03	1.919601e+00,	1.738816e-05	
16	1.445440e+03	1.919601e+00,	1.779319e-05	
17	1.479108e+03	1.919601e+00,	1.820764e-05	
18	1.513561e+03	1.919601e+00,	1.863175e-05	
19	1.548817e+03	1.919601e+00,	1.906574e-05	
20	1.584893e+03	1.919601e+00,	1.950984e-05	
21	1.621810e+03	1.919601e+00,	1.996428e-05	
22	1.659587e+03	1.919601e+00,	2.042931e-05	
23	1.698244e+03	1.919601e+00,	2.090517e-05	
24	1.737801e+03	1.919601e+00,	2.139212e-05	
25	1.778279e+03	1.919601e+00,	2.189040e-05	
26	1.819701e+03	1.919601e+00,	2.240029e-05	
27	1.862087e+03	1.919601e+00,	2.292206e-05	
28	1.905461e+03	1.919601e+00,	2.345599e-05	
29	1.949845e+03	1.919601e+00,	2.400235e-05	
30	1.995262e+03	1.919601e+00,	2.456143e-05	
31	2.041738e+03	1.919601e+00,	2.513354e-05	
32	2.089296e+03	1.919601e+00,	2.571898e-05	
33	2.137962e+03	1.919601e+00,	2.631805e-05	
34	2.187762e+03	1.919601e+00,	2.693108e-05	
35	2.238721e+03	1.919601e+00,	2.755838e-05	
36	2.290868e+03	1.919601e+00,	2.820030e-05	
37	2.344229e+03	1.919601e+00,	2.885717e-05	
38	2.398833e+03	1.919601e+00,	2.952934e-05	
39	2.454709e+03	1.919601e+00,	3.021717e-05	
40	2.511886e+03	1.919601e+00,	3.092101e-05	
41	2.570396e+03	1.919601e+00,	3.164126e-05	
42	2.630268e+03	1.919601e+00,	3.237828e-05	
43	2.691535e+03	1.919601e+00,	3.313246e-05	
44	2.754229e+03	1.919601e+00,	3.390422e-05	
45	2.818383e+03	1.919601e+00,	3.469395e-05	
46	2.884032e+03	1.919601e+00,	3.550207e-05	
47	2.951209e+03	1.919601e+00,	3.632902e-05	
48	3.019952e+03	1.919601e+00,	3.717524e-05	
49	3.090295e+03	1.919601e+00,	3.804116e-05	
50	3.162278e+03	1.919601e+00,	3.892725e-05	
51	3.235937e+03	1.919601e+00,	3.983398e-05	
52	3.311311e+03	1.919601e+00,	4.076184e-05	
53	3.388442e+03	1.919601e+00,	4.171130e-05	
54	3.467369e+03	1.919601e+00,	4.268288e-05	

Index   frequency       vop                             
--------------------------------------------------------------------------------
55	3.548134e+03	1.919601e+00,	4.367709e-05	
56	3.630781e+03	1.919601e+00,	4.469446e-05	
57	3.715352e+03	1.919601e+00,	4.573553e-05	
58	3.801894e+03	1.919601e+00,	4.680085e-05	
59	3.890451e+03	1.919601e+00,	4.789098e-05	
60	3.981072e+03	1.919601e+00,	4.900651e-05	
61	4.073803e+03	1.919601e+00,	5.014801e-05	
62	4.168694e+03	1.919601e+00,	5.131611e-05	
63	4.265795e+03	1.919601e+00,	5.251142e-05	
64	4.365158e+03	1.919601e+00,	5.373456e-05	
65	4.466836e+03	1.919601e+00,	5.498620e-05	
66	4.570882e+03	1.919601e+00,	5.626700e-05	
67	4.677351e+03	1.919601e+00,	5.757762e-05	
68	4.786301e+03	1.919601e+00,	5.891878e-05	
69	4.897788e+03	1.919601e+00,	6.029117e-05	
70	5.011872e+03	1.919601e+00,	6.169553e-05	
71	5.128614e+03	1.919601e+00,	6.313261e-05	
72	5.248075e+03	1.919601e+00,	6.460316e-05	
73	5.370318e+03	1.919601e+00,	6.610796e-05	
74	5.495409e+03	1.919601e+00,	6.764781e-05	
75	5.623413e+03	1.919601e+00,	6.922353e-05	
76	5.754399e+03	1.919601e+00,	7.083595e-05	
77	5.888437e+03	1.919601e+00,	7.248593e-05	
78	6.025596e+03	1.919601e+00,	7.417435e-05	
79	6.165950e+03	1.919601e+00,	7.590209e-05	
80	6.309573e+03	1.919601e+00,	7.767008e-05	
81	6.456542e+03	1.919601e+00,	7.947924e-05	
82	6.606934e+03	1.919601e+00,	8.133055e-05	
83	6.760830e+03	1.919601e+00,	8.322499e-05	
84	6.918310e+03	1.919601e+00,	8.516354e-05	
85	7.079458e+03	1.919601e+00,	8.714726e-05	
86	7.244360e+03	1.919601e+00,	8.917718e-05	
87	7.413102e+03	1.919601e+00,	9.125438e-05	
88	7.585776e+03	1.919601e+00,	9.337997e-05	
89	7.762471e+03	1.919601e+00,	9.555507e-05	
90	7.943282e+03	1.919601e+00,	9.778083e-05	
91	8.128305e+03	1.919601e+00,	1.000584e-04	
92	8.317638e+03	1.919601e+00,	1.023891e-04	
93	8.511380e+03	1.919601e+00,	1.047740e-04	
94	8.709636e+03	1.919601e+00,	1.072146e-04	
95	8.912509e+03	1.919601e+00,	1.097119e-04	
96	9.120108e+03	1.919601e+00,	1.122674e-04	
97	9.332543e+03	1.919601e+00,	1.148825e-04	
98	9.549926e+03	1.919601e+00,	1.175584e-04	
99	9.772372e+03	1.919601e+00,	1.202967e-04	
100	1.000000e+04	1.919601e+00,	1.230988e-04	
101	1.023293e+04	1.919601e+00,	1.259661e-04	
102	1.047129e+04	1.919601e+00,	1.289002e-04	
103	1.071519e+04	1.919601e+00,	1.319027e-04	
104	1.096478e+04	1.919601e+00,	1.349751e-04	
105	1.122018e+04	1.919601e+00,	1.381191e-04	
106	1.148154e+04	1.919601e+00,	1.413363e-04	
107	1.174898e+04	1.919601e+00,	1.446284e-04	
108	1.202264e+04	1.919601e+00,	1.479973e-04	
109	1.230269e+04	1.919601e+00,	1.514446e-04	
110	1.258925e+04	1.919601e+00,	1.549722e-04	
111	1.288250e+04	1.919601e+00,	1.585819e-04	
112	1.318257e+04	1.919601e+00,	1.622758e-04	

Index   frequency       vop                             
--------------------------------------------------------------------------------
113	1.348963e+04	1.919601e+00,	1.660557e-04	
114	1.380384e+04	1.919601e+00,	1.699236e-04	
115	1.412538e+04	1.919601e+00,	1.738816e-04	
116	1.445440e+04	1.919601e+00,	1.779319e-04	
117	1.479108e+04	1.919601e+00,	1.820764e-04	
118	1.513561e+04	1.919601e+00,	1.863175e-04	
119	1.548817e+04	1.919601e+00,	1.906574e-04	
120	1.584893e+04	1.919601e+00,	1.950984e-04	
121	1.621810e+04	1.919601e+00,	1.996428e-04	
122	1.659587e+04	1.919601e+00,	2.042931e-04	
123	1.698244e+04	1.919601e+00,	2.090517e-04	
124	1.737801e+04	1.919601e+00,	2.139211e-04	
125	1.778279e+04	1.919601e+00,	2.189040e-04	
126	1.819701e+04	1.919601e+00,	2.240029e-04	
127	1.862087e+04	1.919601e+00,	2.292206e-04	
128	1.905461e+04	1.919601e+00,	2.345599e-04	
129	1.949845e+04	1.919601e+00,	2.400235e-04	
130	1.995262e+04	1.919601e+00,	2.456143e-04	
131	2.041738e+04	1.919601e+00,	2.513354e-04	
132	2.089296e+04	1.919601e+00,	2.571898e-04	
133	2.137962e+04	1.919601e+00,	2.631805e-04	
134	2.187762e+04	1.919601e+00,	2.693108e-04	
135	2.238721e+04	1.919601e+00,	2.755838e-04	
136	2.290868e+04	1.919601e+00,	2.820030e-04	
137	2.344229e+04	1.919601e+00,	2.885717e-04	
138	2.398833e+04	1.919601e+00,	2.952934e-04	
139	2.454709e+04	1.919601e+00,	3.021716e-04	
140	2.511886e+04	1.919601e+00,	3.092101e-04	
141	2.570396e+04	1.919601e+00,	3.164126e-04	
142	2.630268e+04	1.919601e+00,	3.237828e-04	
143	2.691535e+04	1.919601e+00,	3.313246e-04	
144	2.754229e+04	1.919601e+00,	3.390422e-04	
145	2.818383e+04	1.919601e+00,	3.469395e-04	
146	2.884032e+04	1.919601e+00,	3.550207e-04	
147	2.951209e+04	1.919601e+00,	3.632902e-04	
148	3.019952e+04	1.919601e+00,	3.717523e-04	
149	3.090295e+04	1.919601e+00,	3.804116e-04	
150	3.162278e+04	1.919601e+00,	3.892725e-04	
151	3.235937e+04	1.919601e+00,	3.983398e-04	
152	3.311311e+04	1.919601e+00,	4.076183e-04	
153	3.388442e+04	1.919601e+00,	4.171130e-04	
154	3.467369e+04	1.919601e+00,	4.268288e-04	
155	3.548134e+04	1.919601e+00,	4.367709e-04	
156	3.630781e+04	1.919601e+00,	4.469446e-04	
157	3.715352e+04	1.919601e+00,	4.573553e-04	
158	3.801894e+04	1.919601e+00,	4.680084e-04	
159	3.890451e+04	1.919601e+00,	4.789098e-04	
160	3.981072e+04	1.919601e+00,	4.900650e-04	
161	4.073803e+04	1.919601e+00,	5.014801e-04	
162	4.168694e+04	1.919601e+00,	5.131611e-04	
163	4.265795e+04	1.919601e+00,	5.251141e-04	
164	4.365158e+04	1.919601e+00,	5.373456e-04	
165	4.466836e+04	1.919601e+00,	5.498620e-04	
166	4.570882e+04	1.919601e+00,	5.626699e-04	
167	4.677351e+04	1.919601e+00,	5.757762e-04	
168	4.786301e+04	1.919601e+00,	5.891877e-04	
169	4.897788e+04	1.919601e+00,	6.029116e-04	
170	5.011872e+04	1.919601e+00,	6.169553e-04	

Index   frequency       vop                             
--------------------------------------------------------------------------------
171	5.128614e+04	1.919601e+00,	6.313260e-04	
172	5.248075e+04	1.919601e+00,	6.460314e-04	
173	5.370318e+04	1.919601e+00,	6.610794e-04	
174	5.495409e+04	1.919601e+00,	6.764780e-04	
175	5.623413e+04	1.919601e+00,	6.922352e-04	
176	5.754399e+04	1.919601e+00,	7.083594e-04	
177	5.888437e+04	1.919601e+00,	7.248592e-04	
178	6.025596e+04	1.919601e+00,	7.417433e-04	
179	6.165950e+04	1.919601e+00,	7.590207e-04	
180	6.309573e+04	1.919601e+00,	7.767006e-04	
181	6.456542e+04	1.919601e+00,	7.947922e-04	
182	6.606934e+04	1.919601e+00,	8.133053e-04	
183	6.760830e+04	1.919601e+00,	8.322496e-04	
184	6.918310e+04	1.919601e+00,	8.516352e-04	
185	7.079458e+04	1.919601e+00,	8.714723e-04	
186	7.244360e+04	1.919601e+00,	8.917715e-04	
187	7.413102e+04	1.919601e+00,	9.125435e-04	
188	7.585776e+04	1.919601e+00,	9.337994e-04	
189	7.762471e+04	1.919601e+00,	9.555503e-04	
190	7.943282e+04	1.919601e+00,	9.778080e-04	
191	8.128305e+04	1.919601e+00,	1.000584e-03	
192	8.317638e+04	1.919601e+00,	1.023891e-03	
193	8.511380e+04	1.919601e+00,	1.047740e-03	
194	8.709636e+04	1.919601e+00,	1.072145e-03	
195	8.912509e+04	1.919601e+00,	1.097118e-03	
196	9.120108e+04	1.919601e+00,	1.122674e-03	
197	9.332543e+04	1.919601e+00,	1.148824e-03	
198	9.549926e+04	1.919601e+00,	1.175584e-03	
199	9.772372e+04	1.919602e+00,	1.202966e-03	
200	1.000000e+05	1.919602e+00,	1.230987e-03	
201	1.023293e+05	1.919602e+00,	1.259660e-03	
202	1.047129e+05	1.919602e+00,	1.289002e-03	
203	1.071519e+05	1.919602e+00,	1.319026e-03	
204	1.096478e+05	1.919602e+00,	1.349750e-03	
205	1.122018e+05	1.919602e+00,	1.381190e-03	
206	1.148154e+05	1.919602e+00,	1.413362e-03	
207	1.174898e+05	1.919602e+00,	1.446283e-03	
208	1.202264e+05	1.919602e+00,	1.479971e-03	
209	1.230269e+05	1.919602e+00,	1.514444e-03	
210	1.258925e+05	1.919602e+00,	1.549720e-03	
211	1.288250e+05	1.919602e+00,	1.585818e-03	
212	1.318257e+05	1.919602e+00,	1.622756e-03	
213	1.348963e+05	1.919602e+00,	1.660555e-03	
214	1.380384e+05	1.919603e+00,	1.699234e-03	
215	1.412538e+05	1.919603e+00,	1.738814e-03	
216	1.445440e+05	1.919603e+00,	1.779316e-03	
217	1.479108e+05	1.919603e+00,	1.820762e-03	
218	1.513561e+05	1.919603e+00,	1.863173e-03	
219	1.548817e+05	1.919603e+00,	1.906572e-03	
220	1.584893e+05	1.919603e+00,	1.950981e-03	
221	1.621810e+05	1.919603e+00,	1.996425e-03	
222	1.659587e+05	1.919603e+00,	2.042928e-03	
223	1.698244e+05	1.919604e+00,	2.090513e-03	
224	1.737801e+05	1.919604e+00,	2.139208e-03	
225	1.778279e+05	1.919604e+00,	2.189036e-03	
226	1.819701e+05	1.919604e+00,	2.240025e-03	
227	1.862087e+05	1.919604e+00,	2.292202e-03	
228	1.905461e+05	1.919604e+00,	2.345594e-03	

Index   frequency       vop                             
--------------------------------------------------------------------------------
229	1.949845e+05	1.919605e+00,	2.400229e-03	
230	1.995262e+05	1.919605e+00,	2.456138e-03	
231	2.041738e+05	1.919605e+00,	2.513348e-03	
232	2.089296e+05	1.919605e+00,	2.571891e-03	
233	2.137962e+05	1.919605e+00,	2.631798e-03	
234	2.187762e+05	1.919606e+00,	2.693100e-03	
235	2.238721e+05	1.919606e+00,	2.755830e-03	
236	2.290868e+05	1.919606e+00,	2.820021e-03	
237	2.344229e+05	1.919606e+00,	2.885707e-03	
238	2.398833e+05	1.919607e+00,	2.952924e-03	
239	2.454709e+05	1.919607e+00,	3.021706e-03	
240	2.511886e+05	1.919607e+00,	3.092090e-03	
241	2.570396e+05	1.919607e+00,	3.164113e-03	
242	2.630268e+05	1.919608e+00,	3.237814e-03	
243	2.691535e+05	1.919608e+00,	3.313232e-03	
244	2.754229e+05	1.919608e+00,	3.390406e-03	
245	2.818383e+05	1.919609e+00,	3.469378e-03	
246	2.884032e+05	1.919609e+00,	3.550190e-03	
247	2.951209e+05	1.919610e+00,	3.632883e-03	
248	3.019952e+05	1.919610e+00,	3.717503e-03	
249	3.090295e+05	1.919611e+00,	3.804094e-03	
250	3.162278e+05	1.919611e+00,	3.892701e-03	
251	3.235937e+05	1.919611e+00,	3.983373e-03	
252	3.311311e+05	1.919612e+00,	4.076156e-03	
253	3.388442e+05	1.919613e+00,	4.171101e-03	
254	3.467369e+05	1.919613e+00,	4.268257e-03	
255	3.548134e+05	1.919614e+00,	4.367676e-03	
256	3.630781e+05	1.919614e+00,	4.469411e-03	
257	3.715352e+05	1.919615e+00,	4.573515e-03	
258	3.801894e+05	1.919616e+00,	4.680044e-03	
259	3.890451e+05	1.919616e+00,	4.789054e-03	
260	3.981072e+05	1.919617e+00,	4.900603e-03	
261	4.073803e+05	1.919618e+00,	5.014751e-03	
262	4.168694e+05	1.919619e+00,	5.131557e-03	
263	4.265795e+05	1.919620e+00,	5.251084e-03	
264	4.365158e+05	1.919620e+00,	5.373394e-03	
265	4.466836e+05	1.919621e+00,	5.498554e-03	
266	4.570882e+05	1.919622e+00,	5.626628e-03	
267	4.677351e+05	1.919623e+00,	5.757686e-03	
268	4.786301e+05	1.919625e+00,	5.891796e-03	
269	4.897788e+05	1.919626e+00,	6.029030e-03	
270	5.011872e+05	1.919627e+00,	6.169460e-03	
271	5.128614e+05	1.919628e+00,	6.313160e-03	
272	5.248075e+05	1.919629e+00,	6.460208e-03	
273	5.370318e+05	1.919631e+00,	6.610680e-03	
274	5.495409e+05	1.919632e+00,	6.764657e-03	
275	5.623413e+05	1.919634e+00,	6.922220e-03	
276	5.754399e+05	1.919635e+00,	7.083453e-03	
277	5.888437e+05	1.919637e+00,	7.248441e-03	
278	6.025596e+05	1.919639e+00,	7.417272e-03	
279	6.165950e+05	1.919640e+00,	7.590034e-03	
280	6.309573e+05	1.919642e+00,	7.766820e-03	
281	6.456542e+05	1.919644e+00,	7.947724e-03	
282	6.606934e+05	1.919646e+00,	8.132840e-03	
283	6.760830e+05	1.919648e+00,	8.322268e-03	
284	6.918310e+05	1.919651e+00,	8.516108e-03	
285	7.079458e+05	1.919653e+00,	8.714461e-03	
286	7.244360e+05	1.919655e+00,	8.917434e-03	

Index   frequency       vop                             
--------------------------------------------------------------------------------
287	7.413102e+05	1.919658e+00,	9.125135e-03	
288	7.585776e+05	1.919661e+00,	9.337672e-03	
289	7.762471e+05	1.919664e+00,	9.555158e-03	
290	7.943282e+05	1.919667e+00,	9.777710e-03	
291	8.128305e+05	1.919670e+00,	1.000544e-02	
292	8.317638e+05	1.919673e+00,	1.023848e-02	
293	8.511380e+05	1.919676e+00,	1.047695e-02	
294	8.709636e+05	1.919680e+00,	1.072096e-02	
295	8.912509e+05	1.919684e+00,	1.097066e-02	
296	9.120108e+05	1.919688e+00,	1.122618e-02	
297	9.332543e+05	1.919692e+00,	1.148764e-02	
298	9.549926e+05	1.919696e+00,	1.175519e-02	
299	9.772372e+05	1.919700e+00,	1.202897e-02	
300	1.000000e+06	1.919705e+00,	1.230913e-02	
301	1.023293e+06	1.919710e+00,	1.259581e-02	
302	1.047129e+06	1.919715e+00,	1.288917e-02	
303	1.071519e+06	1.919721e+00,	1.318935e-02	
304	1.096478e+06	1.919726e+00,	1.349653e-02	
305	1.122018e+06	1.919732e+00,	1.381086e-02	
306	1.148154e+06	1.919738e+00,	1.413250e-02	
307	1.174898e+06	1.919745e+00,	1.446164e-02	
308	1.202264e+06	1.919752e+00,	1.479843e-02	
309	1.230269e+06	1.919759e+00,	1.514307e-02	
310	1.258925e+06	1.919766e+00,	1.549573e-02	
311	1.288250e+06	1.919774e+00,	1.585660e-02	
312	1.318257e+06	1.919782e+00,	1.622587e-02	
313	1.348963e+06	1.919791e+00,	1.660374e-02	
314	1.380384e+06	1.919800e+00,	1.699040e-02	
315	1.412538e+06	1.919809e+00,	1.738606e-02	
316	1.445440e+06	1.919819e+00,	1.779093e-02	
317	1.479108e+06	1.919829e+00,	1.820523e-02	
318	1.513561e+06	1.919840e+00,	1.862917e-02	
319	1.548817e+06	1.919852e+00,	1.906297e-02	
320	1.584893e+06	1.919863e+00,	1.950687e-02	
321	1.621810e+06	1.919876e+00,	1.996110e-02	
322	1.659587e+06	1.919889e+00,	2.042590e-02	
323	1.698244e+06	1.919902e+00,	2.090152e-02	
324	1.737801e+06	1.919917e+00,	2.138820e-02	
325	1.778279e+06	1.919931e+00,	2.188621e-02	
326	1.819701e+06	1.919947e+00,	2.239580e-02	
327	1.862087e+06	1.919963e+00,	2.291725e-02	
328	1.905461e+06	1.919980e+00,	2.345083e-02	
329	1.949845e+06	1.919998e+00,	2.399682e-02	
330	1.995262e+06	1.920017e+00,	2.455551e-02	
331	2.041738e+06	1.920037e+00,	2.512720e-02	
332	2.089296e+06	1.920057e+00,	2.571218e-02	
333	2.137962e+06	1.920079e+00,	2.631077e-02	
334	2.187762e+06	1.920101e+00,	2.692327e-02	
335	2.238721e+06	1.920125e+00,	2.755002e-02	
336	2.290868e+06	1.920150e+00,	2.819134e-02	
337	2.344229e+06	1.920175e+00,	2.884757e-02	
338	2.398833e+06	1.920203e+00,	2.951905e-02	
339	2.454709e+06	1.920231e+00,	3.020614e-02	
340	2.511886e+06	1.920261e+00,	3.090920e-02	
341	2.570396e+06	1.920292e+00,	3.162860e-02	
342	2.630268e+06	1.920324e+00,	3.236471e-02	
343	2.691535e+06	1.920358e+00,	3.311793e-02	
344	2.754229e+06	1.920394e+00,	3.388864e-02	

Index   frequency       vop                             
--------------------------------------------------------------------------------
345	2.818383e+06	1.920431e+00,	3.467726e-02	
346	2.884032e+06	1.920471e+00,	3.548419e-02	
347	2.951209e+06	1.920512e+00,	3.630986e-02	
348	3.019952e+06	1.920554e+00,	3.715471e-02	
349	3.090295e+06	1.920599e+00,	3.801916e-02	
350	3.162278e+06	1.920646e+00,	3.890368e-02	
351	3.235937e+06	1.920696e+00,	3.980873e-02	
352	3.311311e+06	1.920747e+00,	4.073477e-02	
353	3.388442e+06	1.920801e+00,	4.168230e-02	
354	3.467369e+06	1.920858e+00,	4.265181e-02	
355	3.548134e+06	1.920917e+00,	4.364380e-02	
356	3.630781e+06	1.920979e+00,	4.465879e-02	
357	3.715352e+06	1.921044e+00,	4.569731e-02	
358	3.801894e+06	1.921112e+00,	4.675989e-02	
359	3.890451e+06	1.921183e+00,	4.784710e-02	
360	3.981072e+06	1.921258e+00,	4.895949e-02	
361	4.073803e+06	1.921336e+00,	5.009763e-02	
362	4.168694e+06	1.921418e+00,	5.126213e-02	
363	4.265795e+06	1.921503e+00,	5.245357e-02	
364	4.365158e+06	1.921593e+00,	5.367259e-02	
365	4.466836e+06	1.921686e+00,	5.491980e-02	
366	4.570882e+06	1.921785e+00,	5.619584e-02	
367	4.677351e+06	1.921887e+00,	5.750138e-02	
368	4.786301e+06	1.921995e+00,	5.883709e-02	
369	4.897788e+06	1.922108e+00,	6.020365e-02	
370	5.011872e+06	1.922226e+00,	6.160175e-02	
371	5.128614e+06	1.922349e+00,	6.303212e-02	
372	5.248075e+06	1.922479e+00,	6.449549e-02	
373	5.370318e+06	1.922614e+00,	6.599260e-02	
374	5.495409e+06	1.922756e+00,	6.752420e-02	
375	5.623413e+06	1.922905e+00,	6.909109e-02	
376	5.754399e+06	1.923060e+00,	7.069405e-02	
377	5.888437e+06	1.923223e+00,	7.233389e-02	
378	6.025596e+06	1.923393e+00,	7.401145e-02	
379	6.165950e+06	1.923572e+00,	7.572755e-02	
380	6.309573e+06	1.923759e+00,	7.748307e-02	
381	6.456542e+06	1.923954e+00,	7.927887e-02	
382	6.606934e+06	1.924159e+00,	8.111587e-02	
383	6.760830e+06	1.924373e+00,	8.299497e-02	
384	6.918310e+06	1.924598e+00,	8.491710e-02	
385	7.079458e+06	1.924833e+00,	8.688321e-02	
386	7.244360e+06	1.925079e+00,	8.889427e-02	
387	7.413102e+06	1.925336e+00,	9.095127e-02	
388	7.585776e+06	1.925606e+00,	9.305521e-02	
389	7.762471e+06	1.925888e+00,	9.520712e-02	
390	7.943282e+06	1.926183e+00,	9.740805e-02	
391	8.128305e+06	1.926492e+00,	9.965904e-02	
392	8.317638e+06	1.926816e+00,	1.019612e-01	
393	8.511380e+06	1.927155e+00,	1.043156e-01	
394	8.709636e+06	1.927510e+00,	1.067234e-01	
395	8.912509e+06	1.927881e+00,	1.091857e-01	
396	9.120108e+06	1.928270e+00,	1.117036e-01	
397	9.332543e+06	1.928677e+00,	1.142785e-01	
398	9.549926e+06	1.929103e+00,	1.169113e-01	
399	9.772372e+06	1.929548e+00,	1.196034e-01	
400	1.000000e+07	1.930015e+00,	1.223561e-01	
401	1.023293e+07	1.930503e+00,	1.251704e-01	
402	1.047129e+07	1.931014e+00,	1.280478e-01	

Index   frequency       vop                             
--------------------------------------------------------------------------------
403	1.071519e+07	1.931549e+00,	1.309895e-01	
404	1.096478e+07	1.932109e+00,	1.339968e-01	
405	1.122018e+07	1.932695e+00,	1.370711e-01	
406	1.148154e+07	1.933309e+00,	1.402136e-01	
407	1.174898e+07	1.933950e+00,	1.434258e-01	
408	1.202264e+07	1.934622e+00,	1.467089e-01	
409	1.230269e+07	1.935325e+00,	1.500644e-01	
410	1.258925e+07	1.936060e+00,	1.534938e-01	
411	1.288250e+07	1.936830e+00,	1.569983e-01	
412	1.318257e+07	1.937635e+00,	1.605794e-01	
413	1.348963e+07	1.938478e+00,	1.642385e-01	
414	1.380384e+07	1.939359e+00,	1.679772e-01	
415	1.412538e+07	1.940281e+00,	1.717968e-01	
416	1.445440e+07	1.941246e+00,	1.756987e-01	
