** sch_path: /home/andylithia/openmpw/project-reisen-chip1/xschem/ota_wideband.sch
AC Analysis  Sun Oct 30 17:11:03  2022
--------------------------------------------------------------------------------
Index   frequency       vop                             
--------------------------------------------------------------------------------
0	1.000000e+03	2.854536e+00,	1.646305e-06	
1	1.023293e+03	2.854536e+00,	1.684653e-06	
2	1.047129e+03	2.854536e+00,	1.723893e-06	
3	1.071519e+03	2.854536e+00,	1.764048e-06	
4	1.096478e+03	2.854536e+00,	1.805138e-06	
5	1.122018e+03	2.854536e+00,	1.847185e-06	
6	1.148154e+03	2.854536e+00,	1.890211e-06	
7	1.174898e+03	2.854536e+00,	1.934240e-06	
8	1.202264e+03	2.854536e+00,	1.979294e-06	
9	1.230269e+03	2.854536e+00,	2.025398e-06	
10	1.258925e+03	2.854536e+00,	2.072576e-06	
11	1.288250e+03	2.854536e+00,	2.120852e-06	
12	1.318257e+03	2.854536e+00,	2.170253e-06	
13	1.348963e+03	2.854536e+00,	2.220805e-06	
14	1.380384e+03	2.854536e+00,	2.272534e-06	
15	1.412538e+03	2.854536e+00,	2.325468e-06	
16	1.445440e+03	2.854536e+00,	2.379635e-06	
17	1.479108e+03	2.854536e+00,	2.435064e-06	
18	1.513561e+03	2.854536e+00,	2.491784e-06	
19	1.548817e+03	2.854536e+00,	2.549825e-06	
20	1.584893e+03	2.854536e+00,	2.609218e-06	
21	1.621810e+03	2.854536e+00,	2.669995e-06	
22	1.659587e+03	2.854536e+00,	2.732187e-06	
23	1.698244e+03	2.854536e+00,	2.795828e-06	
24	1.737801e+03	2.854536e+00,	2.860951e-06	
25	1.778279e+03	2.854536e+00,	2.927591e-06	
26	1.819701e+03	2.854536e+00,	2.995783e-06	
27	1.862087e+03	2.854536e+00,	3.065564e-06	
28	1.905461e+03	2.854536e+00,	3.136970e-06	
29	1.949845e+03	2.854536e+00,	3.210039e-06	
30	1.995262e+03	2.854536e+00,	3.284811e-06	
31	2.041738e+03	2.854536e+00,	3.361324e-06	
32	2.089296e+03	2.854536e+00,	3.439619e-06	
33	2.137962e+03	2.854536e+00,	3.519738e-06	
34	2.187762e+03	2.854536e+00,	3.601724e-06	
35	2.238721e+03	2.854536e+00,	3.685618e-06	
36	2.290868e+03	2.854536e+00,	3.771468e-06	
37	2.344229e+03	2.854536e+00,	3.859316e-06	
38	2.398833e+03	2.854536e+00,	3.949211e-06	
39	2.454709e+03	2.854536e+00,	4.041200e-06	
40	2.511886e+03	2.854536e+00,	4.135332e-06	
41	2.570396e+03	2.854536e+00,	4.231656e-06	
42	2.630268e+03	2.854536e+00,	4.330224e-06	
43	2.691535e+03	2.854536e+00,	4.431088e-06	
44	2.754229e+03	2.854536e+00,	4.534301e-06	
45	2.818383e+03	2.854536e+00,	4.639919e-06	
46	2.884032e+03	2.854536e+00,	4.747996e-06	
47	2.951209e+03	2.854536e+00,	4.858591e-06	
48	3.019952e+03	2.854536e+00,	4.971762e-06	
49	3.090295e+03	2.854536e+00,	5.087570e-06	
50	3.162278e+03	2.854536e+00,	5.206074e-06	
51	3.235937e+03	2.854536e+00,	5.327339e-06	
52	3.311311e+03	2.854536e+00,	5.451429e-06	
53	3.388442e+03	2.854536e+00,	5.578409e-06	
54	3.467369e+03	2.854536e+00,	5.708347e-06	

Index   frequency       vop                             
--------------------------------------------------------------------------------
55	3.548134e+03	2.854536e+00,	5.841312e-06	
56	3.630781e+03	2.854536e+00,	5.977373e-06	
57	3.715352e+03	2.854536e+00,	6.116604e-06	
58	3.801894e+03	2.854536e+00,	6.259078e-06	
59	3.890451e+03	2.854536e+00,	6.404871e-06	
60	3.981072e+03	2.854536e+00,	6.554059e-06	
61	4.073803e+03	2.854536e+00,	6.706723e-06	
62	4.168694e+03	2.854536e+00,	6.862943e-06	
63	4.265795e+03	2.854536e+00,	7.022801e-06	
64	4.365158e+03	2.854536e+00,	7.186383e-06	
65	4.466836e+03	2.854536e+00,	7.353776e-06	
66	4.570882e+03	2.854536e+00,	7.525067e-06	
67	4.677351e+03	2.854536e+00,	7.700348e-06	
68	4.786301e+03	2.854536e+00,	7.879713e-06	
69	4.897788e+03	2.854536e+00,	8.063255e-06	
70	5.011872e+03	2.854536e+00,	8.251072e-06	
71	5.128614e+03	2.854536e+00,	8.443264e-06	
72	5.248075e+03	2.854536e+00,	8.639933e-06	
73	5.370318e+03	2.854536e+00,	8.841183e-06	
74	5.495409e+03	2.854536e+00,	9.047120e-06	
75	5.623413e+03	2.854536e+00,	9.257855e-06	
76	5.754399e+03	2.854536e+00,	9.473498e-06	
77	5.888437e+03	2.854536e+00,	9.694164e-06	
78	6.025596e+03	2.854536e+00,	9.919970e-06	
79	6.165950e+03	2.854536e+00,	1.015104e-05	
80	6.309573e+03	2.854536e+00,	1.038748e-05	
81	6.456542e+03	2.854536e+00,	1.062944e-05	
82	6.606934e+03	2.854536e+00,	1.087703e-05	
83	6.760830e+03	2.854536e+00,	1.113039e-05	
84	6.918310e+03	2.854536e+00,	1.138965e-05	
85	7.079458e+03	2.854536e+00,	1.165495e-05	
86	7.244360e+03	2.854536e+00,	1.192643e-05	
87	7.413102e+03	2.854536e+00,	1.220423e-05	
88	7.585776e+03	2.854536e+00,	1.248850e-05	
89	7.762471e+03	2.854536e+00,	1.277940e-05	
90	7.943282e+03	2.854536e+00,	1.307707e-05	
91	8.128305e+03	2.854536e+00,	1.338167e-05	
92	8.317638e+03	2.854536e+00,	1.369337e-05	
93	8.511380e+03	2.854536e+00,	1.401233e-05	
94	8.709636e+03	2.854536e+00,	1.433872e-05	
95	8.912509e+03	2.854536e+00,	1.467271e-05	
96	9.120108e+03	2.854536e+00,	1.501448e-05	
97	9.332543e+03	2.854536e+00,	1.536421e-05	
98	9.549926e+03	2.854536e+00,	1.572209e-05	
99	9.772372e+03	2.854536e+00,	1.608831e-05	
100	1.000000e+04	2.854536e+00,	1.646305e-05	
101	1.023293e+04	2.854536e+00,	1.684653e-05	
102	1.047129e+04	2.854536e+00,	1.723893e-05	
103	1.071519e+04	2.854536e+00,	1.764048e-05	
104	1.096478e+04	2.854536e+00,	1.805138e-05	
105	1.122018e+04	2.854536e+00,	1.847185e-05	
106	1.148154e+04	2.854536e+00,	1.890211e-05	
107	1.174898e+04	2.854536e+00,	1.934240e-05	
108	1.202264e+04	2.854536e+00,	1.979294e-05	
109	1.230269e+04	2.854536e+00,	2.025398e-05	
110	1.258925e+04	2.854536e+00,	2.072576e-05	
111	1.288250e+04	2.854536e+00,	2.120852e-05	
112	1.318257e+04	2.854536e+00,	2.170253e-05	

Index   frequency       vop                             
--------------------------------------------------------------------------------
113	1.348963e+04	2.854536e+00,	2.220805e-05	
114	1.380384e+04	2.854536e+00,	2.272534e-05	
115	1.412538e+04	2.854536e+00,	2.325468e-05	
116	1.445440e+04	2.854536e+00,	2.379635e-05	
117	1.479108e+04	2.854536e+00,	2.435064e-05	
118	1.513561e+04	2.854536e+00,	2.491784e-05	
119	1.548817e+04	2.854536e+00,	2.549825e-05	
120	1.584893e+04	2.854536e+00,	2.609218e-05	
121	1.621810e+04	2.854536e+00,	2.669995e-05	
122	1.659587e+04	2.854536e+00,	2.732187e-05	
123	1.698244e+04	2.854536e+00,	2.795827e-05	
124	1.737801e+04	2.854536e+00,	2.860951e-05	
125	1.778279e+04	2.854536e+00,	2.927591e-05	
126	1.819701e+04	2.854536e+00,	2.995783e-05	
127	1.862087e+04	2.854536e+00,	3.065564e-05	
128	1.905461e+04	2.854536e+00,	3.136970e-05	
129	1.949845e+04	2.854536e+00,	3.210039e-05	
130	1.995262e+04	2.854536e+00,	3.284811e-05	
131	2.041738e+04	2.854536e+00,	3.361324e-05	
132	2.089296e+04	2.854536e+00,	3.439619e-05	
133	2.137962e+04	2.854536e+00,	3.519738e-05	
134	2.187762e+04	2.854536e+00,	3.601723e-05	
135	2.238721e+04	2.854536e+00,	3.685618e-05	
136	2.290868e+04	2.854536e+00,	3.771467e-05	
137	2.344229e+04	2.854536e+00,	3.859316e-05	
138	2.398833e+04	2.854536e+00,	3.949211e-05	
139	2.454709e+04	2.854536e+00,	4.041200e-05	
140	2.511886e+04	2.854536e+00,	4.135332e-05	
141	2.570396e+04	2.854536e+00,	4.231656e-05	
142	2.630268e+04	2.854536e+00,	4.330224e-05	
143	2.691535e+04	2.854536e+00,	4.431088e-05	
144	2.754229e+04	2.854536e+00,	4.534301e-05	
145	2.818383e+04	2.854536e+00,	4.639919e-05	
146	2.884032e+04	2.854536e+00,	4.747996e-05	
147	2.951209e+04	2.854536e+00,	4.858591e-05	
148	3.019952e+04	2.854536e+00,	4.971762e-05	
149	3.090295e+04	2.854536e+00,	5.087570e-05	
150	3.162278e+04	2.854536e+00,	5.206074e-05	
151	3.235937e+04	2.854536e+00,	5.327339e-05	
152	3.311311e+04	2.854536e+00,	5.451429e-05	
153	3.388442e+04	2.854536e+00,	5.578409e-05	
154	3.467369e+04	2.854536e+00,	5.708347e-05	
155	3.548134e+04	2.854536e+00,	5.841311e-05	
156	3.630781e+04	2.854536e+00,	5.977373e-05	
157	3.715352e+04	2.854536e+00,	6.116604e-05	
158	3.801894e+04	2.854536e+00,	6.259078e-05	
159	3.890451e+04	2.854536e+00,	6.404871e-05	
160	3.981072e+04	2.854536e+00,	6.554059e-05	
161	4.073803e+04	2.854536e+00,	6.706723e-05	
162	4.168694e+04	2.854536e+00,	6.862942e-05	
163	4.265795e+04	2.854536e+00,	7.022801e-05	
164	4.365158e+04	2.854536e+00,	7.186383e-05	
165	4.466836e+04	2.854536e+00,	7.353775e-05	
166	4.570882e+04	2.854536e+00,	7.525067e-05	
167	4.677351e+04	2.854536e+00,	7.700348e-05	
168	4.786301e+04	2.854536e+00,	7.879712e-05	
169	4.897788e+04	2.854536e+00,	8.063254e-05	
170	5.011872e+04	2.854536e+00,	8.251071e-05	

Index   frequency       vop                             
--------------------------------------------------------------------------------
171	5.128614e+04	2.854536e+00,	8.443264e-05	
172	5.248075e+04	2.854536e+00,	8.639932e-05	
173	5.370318e+04	2.854536e+00,	8.841182e-05	
174	5.495409e+04	2.854536e+00,	9.047120e-05	
175	5.623413e+04	2.854536e+00,	9.257854e-05	
176	5.754399e+04	2.854536e+00,	9.473497e-05	
177	5.888437e+04	2.854536e+00,	9.694163e-05	
178	6.025596e+04	2.854536e+00,	9.919969e-05	
179	6.165950e+04	2.854536e+00,	1.015104e-04	
180	6.309573e+04	2.854536e+00,	1.038748e-04	
181	6.456542e+04	2.854536e+00,	1.062944e-04	
182	6.606934e+04	2.854536e+00,	1.087703e-04	
183	6.760830e+04	2.854536e+00,	1.113039e-04	
184	6.918310e+04	2.854536e+00,	1.138965e-04	
185	7.079458e+04	2.854536e+00,	1.165495e-04	
186	7.244360e+04	2.854536e+00,	1.192643e-04	
187	7.413102e+04	2.854536e+00,	1.220423e-04	
188	7.585776e+04	2.854536e+00,	1.248850e-04	
189	7.762471e+04	2.854536e+00,	1.277940e-04	
190	7.943282e+04	2.854536e+00,	1.307707e-04	
191	8.128305e+04	2.854536e+00,	1.338167e-04	
192	8.317638e+04	2.854536e+00,	1.369337e-04	
193	8.511380e+04	2.854536e+00,	1.401233e-04	
194	8.709636e+04	2.854536e+00,	1.433872e-04	
195	8.912509e+04	2.854536e+00,	1.467271e-04	
196	9.120108e+04	2.854536e+00,	1.501448e-04	
197	9.332543e+04	2.854536e+00,	1.536421e-04	
198	9.549926e+04	2.854536e+00,	1.572209e-04	
199	9.772372e+04	2.854536e+00,	1.608830e-04	
200	1.000000e+05	2.854536e+00,	1.646305e-04	
201	1.023293e+05	2.854536e+00,	1.684652e-04	
202	1.047129e+05	2.854536e+00,	1.723893e-04	
203	1.071519e+05	2.854537e+00,	1.764047e-04	
204	1.096478e+05	2.854537e+00,	1.805137e-04	
205	1.122018e+05	2.854537e+00,	1.847184e-04	
206	1.148154e+05	2.854537e+00,	1.890211e-04	
207	1.174898e+05	2.854537e+00,	1.934239e-04	
208	1.202264e+05	2.854537e+00,	1.979294e-04	
209	1.230269e+05	2.854537e+00,	2.025397e-04	
210	1.258925e+05	2.854537e+00,	2.072575e-04	
211	1.288250e+05	2.854537e+00,	2.120851e-04	
212	1.318257e+05	2.854537e+00,	2.170252e-04	
213	1.348963e+05	2.854537e+00,	2.220804e-04	
214	1.380384e+05	2.854537e+00,	2.272533e-04	
215	1.412538e+05	2.854537e+00,	2.325467e-04	
216	1.445440e+05	2.854537e+00,	2.379634e-04	
217	1.479108e+05	2.854537e+00,	2.435063e-04	
218	1.513561e+05	2.854537e+00,	2.491783e-04	
219	1.548817e+05	2.854537e+00,	2.549824e-04	
220	1.584893e+05	2.854537e+00,	2.609216e-04	
221	1.621810e+05	2.854537e+00,	2.669993e-04	
222	1.659587e+05	2.854537e+00,	2.732185e-04	
223	1.698244e+05	2.854537e+00,	2.795826e-04	
224	1.737801e+05	2.854537e+00,	2.860949e-04	
225	1.778279e+05	2.854537e+00,	2.927589e-04	
226	1.819701e+05	2.854537e+00,	2.995781e-04	
227	1.862087e+05	2.854537e+00,	3.065561e-04	
228	1.905461e+05	2.854537e+00,	3.136967e-04	

Index   frequency       vop                             
--------------------------------------------------------------------------------
229	1.949845e+05	2.854537e+00,	3.210037e-04	
230	1.995262e+05	2.854537e+00,	3.284808e-04	
231	2.041738e+05	2.854537e+00,	3.361321e-04	
232	2.089296e+05	2.854537e+00,	3.439616e-04	
233	2.137962e+05	2.854537e+00,	3.519734e-04	
234	2.187762e+05	2.854537e+00,	3.601719e-04	
235	2.238721e+05	2.854537e+00,	3.685614e-04	
236	2.290868e+05	2.854537e+00,	3.771463e-04	
237	2.344229e+05	2.854537e+00,	3.859311e-04	
238	2.398833e+05	2.854537e+00,	3.949206e-04	
239	2.454709e+05	2.854537e+00,	4.041195e-04	
240	2.511886e+05	2.854537e+00,	4.135326e-04	
241	2.570396e+05	2.854537e+00,	4.231650e-04	
242	2.630268e+05	2.854537e+00,	4.330217e-04	
243	2.691535e+05	2.854537e+00,	4.431080e-04	
244	2.754229e+05	2.854537e+00,	4.534293e-04	
245	2.818383e+05	2.854537e+00,	4.639910e-04	
246	2.884032e+05	2.854537e+00,	4.747987e-04	
247	2.951209e+05	2.854537e+00,	4.858581e-04	
248	3.019952e+05	2.854538e+00,	4.971752e-04	
249	3.090295e+05	2.854538e+00,	5.087558e-04	
250	3.162278e+05	2.854538e+00,	5.206062e-04	
251	3.235937e+05	2.854538e+00,	5.327326e-04	
252	3.311311e+05	2.854538e+00,	5.451415e-04	
253	3.388442e+05	2.854538e+00,	5.578394e-04	
254	3.467369e+05	2.854538e+00,	5.708331e-04	
255	3.548134e+05	2.854538e+00,	5.841294e-04	
256	3.630781e+05	2.854538e+00,	5.977355e-04	
257	3.715352e+05	2.854538e+00,	6.116584e-04	
258	3.801894e+05	2.854538e+00,	6.259057e-04	
259	3.890451e+05	2.854538e+00,	6.404848e-04	
260	3.981072e+05	2.854538e+00,	6.554035e-04	
261	4.073803e+05	2.854539e+00,	6.706697e-04	
262	4.168694e+05	2.854539e+00,	6.862915e-04	
263	4.265795e+05	2.854539e+00,	7.022771e-04	
264	4.365158e+05	2.854539e+00,	7.186351e-04	
265	4.466836e+05	2.854539e+00,	7.353741e-04	
266	4.570882e+05	2.854539e+00,	7.525030e-04	
267	4.677351e+05	2.854539e+00,	7.700309e-04	
268	4.786301e+05	2.854539e+00,	7.879670e-04	
269	4.897788e+05	2.854539e+00,	8.063209e-04	
270	5.011872e+05	2.854540e+00,	8.251023e-04	
271	5.128614e+05	2.854540e+00,	8.443212e-04	
272	5.248075e+05	2.854540e+00,	8.639877e-04	
273	5.370318e+05	2.854540e+00,	8.841123e-04	
274	5.495409e+05	2.854540e+00,	9.047056e-04	
275	5.623413e+05	2.854540e+00,	9.257786e-04	
276	5.754399e+05	2.854541e+00,	9.473424e-04	
277	5.888437e+05	2.854541e+00,	9.694085e-04	
278	6.025596e+05	2.854541e+00,	9.919885e-04	
279	6.165950e+05	2.854541e+00,	1.015095e-03	
280	6.309573e+05	2.854542e+00,	1.038739e-03	
281	6.456542e+05	2.854542e+00,	1.062934e-03	
282	6.606934e+05	2.854542e+00,	1.087692e-03	
283	6.760830e+05	2.854542e+00,	1.113027e-03	
284	6.918310e+05	2.854543e+00,	1.138952e-03	
285	7.079458e+05	2.854543e+00,	1.165481e-03	
286	7.244360e+05	2.854543e+00,	1.192628e-03	

Index   frequency       vop                             
--------------------------------------------------------------------------------
287	7.413102e+05	2.854543e+00,	1.220407e-03	
288	7.585776e+05	2.854544e+00,	1.248833e-03	
289	7.762471e+05	2.854544e+00,	1.277922e-03	
290	7.943282e+05	2.854545e+00,	1.307687e-03	
291	8.128305e+05	2.854545e+00,	1.338146e-03	
292	8.317638e+05	2.854545e+00,	1.369315e-03	
293	8.511380e+05	2.854546e+00,	1.401209e-03	
294	8.709636e+05	2.854546e+00,	1.433846e-03	
295	8.912509e+05	2.854547e+00,	1.467244e-03	
296	9.120108e+05	2.854547e+00,	1.501419e-03	
297	9.332543e+05	2.854548e+00,	1.536390e-03	
298	9.549926e+05	2.854548e+00,	1.572176e-03	
299	9.772372e+05	2.854549e+00,	1.608795e-03	
300	1.000000e+06	2.854549e+00,	1.646266e-03	
301	1.023293e+06	2.854550e+00,	1.684611e-03	
302	1.047129e+06	2.854551e+00,	1.723849e-03	
303	1.071519e+06	2.854551e+00,	1.764000e-03	
304	1.096478e+06	2.854552e+00,	1.805087e-03	
305	1.122018e+06	2.854553e+00,	1.847130e-03	
306	1.148154e+06	2.854553e+00,	1.890153e-03	
307	1.174898e+06	2.854554e+00,	1.934177e-03	
308	1.202264e+06	2.854555e+00,	1.979227e-03	
309	1.230269e+06	2.854556e+00,	2.025326e-03	
310	1.258925e+06	2.854557e+00,	2.072498e-03	
311	1.288250e+06	2.854558e+00,	2.120769e-03	
312	1.318257e+06	2.854559e+00,	2.170164e-03	
313	1.348963e+06	2.854560e+00,	2.220709e-03	
314	1.380384e+06	2.854561e+00,	2.272432e-03	
315	1.412538e+06	2.854562e+00,	2.325359e-03	
316	1.445440e+06	2.854564e+00,	2.379518e-03	
317	1.479108e+06	2.854565e+00,	2.434938e-03	
318	1.513561e+06	2.854566e+00,	2.491649e-03	
319	1.548817e+06	2.854568e+00,	2.549681e-03	
320	1.584893e+06	2.854569e+00,	2.609063e-03	
321	1.621810e+06	2.854571e+00,	2.669829e-03	
322	1.659587e+06	2.854572e+00,	2.732009e-03	
323	1.698244e+06	2.854574e+00,	2.795637e-03	
324	1.737801e+06	2.854576e+00,	2.860747e-03	
325	1.778279e+06	2.854577e+00,	2.927372e-03	
326	1.819701e+06	2.854579e+00,	2.995549e-03	
327	1.862087e+06	2.854581e+00,	3.065313e-03	
328	1.905461e+06	2.854584e+00,	3.136701e-03	
329	1.949845e+06	2.854586e+00,	3.209751e-03	
330	1.995262e+06	2.854588e+00,	3.284502e-03	
331	2.041738e+06	2.854591e+00,	3.360993e-03	
332	2.089296e+06	2.854593e+00,	3.439265e-03	
333	2.137962e+06	2.854596e+00,	3.519358e-03	
334	2.187762e+06	2.854599e+00,	3.601317e-03	
335	2.238721e+06	2.854601e+00,	3.685182e-03	
336	2.290868e+06	2.854605e+00,	3.771000e-03	
337	2.344229e+06	2.854608e+00,	3.858816e-03	
338	2.398833e+06	2.854611e+00,	3.948675e-03	
339	2.454709e+06	2.854615e+00,	4.040625e-03	
340	2.511886e+06	2.854618e+00,	4.134716e-03	
341	2.570396e+06	2.854622e+00,	4.230996e-03	
342	2.630268e+06	2.854626e+00,	4.329517e-03	
343	2.691535e+06	2.854630e+00,	4.430330e-03	
344	2.754229e+06	2.854635e+00,	4.533489e-03	

Index   frequency       vop                             
--------------------------------------------------------------------------------
345	2.818383e+06	2.854640e+00,	4.639048e-03	
346	2.884032e+06	2.854644e+00,	4.747064e-03	
347	2.951209e+06	2.854650e+00,	4.857592e-03	
348	3.019952e+06	2.854655e+00,	4.970692e-03	
349	3.090295e+06	2.854660e+00,	5.086422e-03	
350	3.162278e+06	2.854666e+00,	5.204845e-03	
351	3.235937e+06	2.854672e+00,	5.326022e-03	
352	3.311311e+06	2.854679e+00,	5.450017e-03	
353	3.388442e+06	2.854686e+00,	5.576896e-03	
354	3.467369e+06	2.854693e+00,	5.706726e-03	
355	3.548134e+06	2.854700e+00,	5.839574e-03	
356	3.630781e+06	2.854708e+00,	5.975512e-03	
357	3.715352e+06	2.854716e+00,	6.114609e-03	
358	3.801894e+06	2.854724e+00,	6.256941e-03	
359	3.890451e+06	2.854733e+00,	6.402580e-03	
360	3.981072e+06	2.854742e+00,	6.551605e-03	
361	4.073803e+06	2.854752e+00,	6.704093e-03	
362	4.168694e+06	2.854762e+00,	6.860124e-03	
363	4.265795e+06	2.854773e+00,	7.019781e-03	
364	4.365158e+06	2.854784e+00,	7.183146e-03	
365	4.466836e+06	2.854796e+00,	7.350307e-03	
366	4.570882e+06	2.854808e+00,	7.521350e-03	
367	4.677351e+06	2.854821e+00,	7.696365e-03	
368	4.786301e+06	2.854834e+00,	7.875444e-03	
369	4.897788e+06	2.854848e+00,	8.058681e-03	
370	5.011872e+06	2.854863e+00,	8.246170e-03	
371	5.128614e+06	2.854878e+00,	8.438011e-03	
372	5.248075e+06	2.854894e+00,	8.634304e-03	
373	5.370318e+06	2.854911e+00,	8.835151e-03	
374	5.495409e+06	2.854929e+00,	9.040656e-03	
375	5.623413e+06	2.854947e+00,	9.250927e-03	
376	5.754399e+06	2.854967e+00,	9.466074e-03	
377	5.888437e+06	2.854987e+00,	9.686208e-03	
378	6.025596e+06	2.855008e+00,	9.911444e-03	
379	6.165950e+06	2.855030e+00,	1.014190e-02	
380	6.309573e+06	2.855054e+00,	1.037769e-02	
381	6.456542e+06	2.855078e+00,	1.061895e-02	
382	6.606934e+06	2.855104e+00,	1.086578e-02	
383	6.760830e+06	2.855130e+00,	1.111834e-02	
384	6.918310e+06	2.855158e+00,	1.137673e-02	
385	7.079458e+06	2.855188e+00,	1.164110e-02	
386	7.244360e+06	2.855218e+00,	1.191159e-02	
387	7.413102e+06	2.855251e+00,	1.218833e-02	
388	7.585776e+06	2.855284e+00,	1.247146e-02	
389	7.762471e+06	2.855320e+00,	1.276113e-02	
390	7.943282e+06	2.855356e+00,	1.305749e-02	
391	8.128305e+06	2.855395e+00,	1.336069e-02	
392	8.317638e+06	2.855436e+00,	1.367088e-02	
393	8.511380e+06	2.855478e+00,	1.398823e-02	
394	8.709636e+06	2.855522e+00,	1.431288e-02	
395	8.912509e+06	2.855569e+00,	1.464502e-02	
396	9.120108e+06	2.855618e+00,	1.498480e-02	
397	9.332543e+06	2.855669e+00,	1.533240e-02	
398	9.549926e+06	2.855722e+00,	1.568799e-02	
399	9.772372e+06	2.855778e+00,	1.605176e-02	
400	1.000000e+07	2.855836e+00,	1.642387e-02	
401	1.023293e+07	2.855898e+00,	1.680453e-02	
402	1.047129e+07	2.855962e+00,	1.719391e-02	

Index   frequency       vop                             
--------------------------------------------------------------------------------
403	1.071519e+07	2.856029e+00,	1.759222e-02	
404	1.096478e+07	2.856099e+00,	1.799964e-02	
405	1.122018e+07	2.856173e+00,	1.841639e-02	
406	1.148154e+07	2.856250e+00,	1.884266e-02	
407	1.174898e+07	2.856331e+00,	1.927866e-02	
408	1.202264e+07	2.856416e+00,	1.972461e-02	
409	1.230269e+07	2.856504e+00,	2.018071e-02	
410	1.258925e+07	2.856597e+00,	2.064721e-02	
411	1.288250e+07	2.856694e+00,	2.112430e-02	
412	1.318257e+07	2.856796e+00,	2.161223e-02	
413	1.348963e+07	2.856903e+00,	2.211123e-02	
414	1.380384e+07	2.857014e+00,	2.262153e-02	
415	1.412538e+07	2.857131e+00,	2.314337e-02	
416	1.445440e+07	2.857253e+00,	2.367699e-02	
