** sch_path: /home/andylithia/openmpw/project-reisen-chip1/xschem/ota_wideband.sch
AC Analysis  Sun Oct 30 17:11:03  2022
--------------------------------------------------------------------------------
Index   frequency       vop                             
--------------------------------------------------------------------------------
0	1.000000e+03	1.875174e+00,	1.297985e-05	
1	1.023293e+03	1.875174e+00,	1.328219e-05	
2	1.047129e+03	1.875174e+00,	1.359157e-05	
3	1.071519e+03	1.875174e+00,	1.390816e-05	
4	1.096478e+03	1.875174e+00,	1.423213e-05	
5	1.122018e+03	1.875174e+00,	1.456363e-05	
6	1.148154e+03	1.875174e+00,	1.490286e-05	
7	1.174898e+03	1.875174e+00,	1.525000e-05	
8	1.202264e+03	1.875174e+00,	1.560521e-05	
9	1.230269e+03	1.875174e+00,	1.596871e-05	
10	1.258925e+03	1.875174e+00,	1.634067e-05	
11	1.288250e+03	1.875174e+00,	1.672129e-05	
12	1.318257e+03	1.875174e+00,	1.711078e-05	
13	1.348963e+03	1.875174e+00,	1.750934e-05	
14	1.380384e+03	1.875174e+00,	1.791718e-05	
15	1.412538e+03	1.875174e+00,	1.833453e-05	
16	1.445440e+03	1.875174e+00,	1.876159e-05	
17	1.479108e+03	1.875174e+00,	1.919861e-05	
18	1.513561e+03	1.875174e+00,	1.964580e-05	
19	1.548817e+03	1.875174e+00,	2.010341e-05	
20	1.584893e+03	1.875174e+00,	2.057168e-05	
21	1.621810e+03	1.875174e+00,	2.105086e-05	
22	1.659587e+03	1.875174e+00,	2.154119e-05	
23	1.698244e+03	1.875174e+00,	2.204295e-05	
24	1.737801e+03	1.875174e+00,	2.255640e-05	
25	1.778279e+03	1.875174e+00,	2.308180e-05	
26	1.819701e+03	1.875174e+00,	2.361945e-05	
27	1.862087e+03	1.875174e+00,	2.416962e-05	
28	1.905461e+03	1.875174e+00,	2.473260e-05	
29	1.949845e+03	1.875174e+00,	2.530870e-05	
30	1.995262e+03	1.875174e+00,	2.589821e-05	
31	2.041738e+03	1.875174e+00,	2.650146e-05	
32	2.089296e+03	1.875174e+00,	2.711876e-05	
33	2.137962e+03	1.875174e+00,	2.775043e-05	
34	2.187762e+03	1.875174e+00,	2.839682e-05	
35	2.238721e+03	1.875174e+00,	2.905827e-05	
36	2.290868e+03	1.875174e+00,	2.973512e-05	
37	2.344229e+03	1.875174e+00,	3.042774e-05	
38	2.398833e+03	1.875174e+00,	3.113650e-05	
39	2.454709e+03	1.875174e+00,	3.186176e-05	
40	2.511886e+03	1.875174e+00,	3.260392e-05	
41	2.570396e+03	1.875174e+00,	3.336336e-05	
42	2.630268e+03	1.875174e+00,	3.414049e-05	
43	2.691535e+03	1.875174e+00,	3.493572e-05	
44	2.754229e+03	1.875174e+00,	3.574948e-05	
45	2.818383e+03	1.875174e+00,	3.658219e-05	
46	2.884032e+03	1.875174e+00,	3.743430e-05	
47	2.951209e+03	1.875174e+00,	3.830626e-05	
48	3.019952e+03	1.875174e+00,	3.919853e-05	
49	3.090295e+03	1.875174e+00,	4.011158e-05	
50	3.162278e+03	1.875174e+00,	4.104590e-05	
51	3.235937e+03	1.875174e+00,	4.200198e-05	
52	3.311311e+03	1.875174e+00,	4.298033e-05	
53	3.388442e+03	1.875174e+00,	4.398147e-05	
54	3.467369e+03	1.875174e+00,	4.500593e-05	

Index   frequency       vop                             
--------------------------------------------------------------------------------
55	3.548134e+03	1.875174e+00,	4.605425e-05	
56	3.630781e+03	1.875174e+00,	4.712700e-05	
57	3.715352e+03	1.875174e+00,	4.822472e-05	
58	3.801894e+03	1.875174e+00,	4.934802e-05	
59	3.890451e+03	1.875174e+00,	5.049749e-05	
60	3.981072e+03	1.875174e+00,	5.167372e-05	
61	4.073803e+03	1.875174e+00,	5.287736e-05	
62	4.168694e+03	1.875174e+00,	5.410903e-05	
63	4.265795e+03	1.875174e+00,	5.536939e-05	
64	4.365158e+03	1.875174e+00,	5.665911e-05	
65	4.466836e+03	1.875174e+00,	5.797887e-05	
66	4.570882e+03	1.875174e+00,	5.932937e-05	
67	4.677351e+03	1.875174e+00,	6.071133e-05	
68	4.786301e+03	1.875174e+00,	6.212548e-05	
69	4.897788e+03	1.875174e+00,	6.357257e-05	
70	5.011872e+03	1.875174e+00,	6.505336e-05	
71	5.128614e+03	1.875174e+00,	6.656865e-05	
72	5.248075e+03	1.875174e+00,	6.811923e-05	
73	5.370318e+03	1.875174e+00,	6.970593e-05	
74	5.495409e+03	1.875174e+00,	7.132959e-05	
75	5.623413e+03	1.875174e+00,	7.299107e-05	
76	5.754399e+03	1.875174e+00,	7.469125e-05	
77	5.888437e+03	1.875174e+00,	7.643104e-05	
78	6.025596e+03	1.875174e+00,	7.821135e-05	
79	6.165950e+03	1.875174e+00,	8.003312e-05	
80	6.309573e+03	1.875174e+00,	8.189733e-05	
81	6.456542e+03	1.875174e+00,	8.380497e-05	
82	6.606934e+03	1.875174e+00,	8.575703e-05	
83	6.760830e+03	1.875174e+00,	8.775457e-05	
84	6.918310e+03	1.875174e+00,	8.979864e-05	
85	7.079458e+03	1.875174e+00,	9.189032e-05	
86	7.244360e+03	1.875174e+00,	9.403072e-05	
87	7.413102e+03	1.875174e+00,	9.622098e-05	
88	7.585776e+03	1.875174e+00,	9.846225e-05	
89	7.762471e+03	1.875174e+00,	1.007557e-04	
90	7.943282e+03	1.875174e+00,	1.031026e-04	
91	8.128305e+03	1.875174e+00,	1.055042e-04	
92	8.317638e+03	1.875174e+00,	1.079617e-04	
93	8.511380e+03	1.875174e+00,	1.104765e-04	
94	8.709636e+03	1.875174e+00,	1.130498e-04	
95	8.912509e+03	1.875174e+00,	1.156831e-04	
96	9.120108e+03	1.875174e+00,	1.183777e-04	
97	9.332543e+03	1.875174e+00,	1.211350e-04	
98	9.549926e+03	1.875174e+00,	1.239566e-04	
99	9.772372e+03	1.875174e+00,	1.268439e-04	
100	1.000000e+04	1.875174e+00,	1.297985e-04	
101	1.023293e+04	1.875174e+00,	1.328219e-04	
102	1.047129e+04	1.875174e+00,	1.359157e-04	
103	1.071519e+04	1.875174e+00,	1.390816e-04	
104	1.096478e+04	1.875174e+00,	1.423213e-04	
105	1.122018e+04	1.875174e+00,	1.456363e-04	
106	1.148154e+04	1.875174e+00,	1.490286e-04	
107	1.174898e+04	1.875174e+00,	1.525000e-04	
108	1.202264e+04	1.875174e+00,	1.560521e-04	
109	1.230269e+04	1.875174e+00,	1.596871e-04	
110	1.258925e+04	1.875174e+00,	1.634067e-04	
111	1.288250e+04	1.875174e+00,	1.672129e-04	
112	1.318257e+04	1.875174e+00,	1.711078e-04	

Index   frequency       vop                             
--------------------------------------------------------------------------------
113	1.348963e+04	1.875174e+00,	1.750934e-04	
114	1.380384e+04	1.875174e+00,	1.791718e-04	
115	1.412538e+04	1.875174e+00,	1.833453e-04	
116	1.445440e+04	1.875174e+00,	1.876159e-04	
117	1.479108e+04	1.875174e+00,	1.919861e-04	
118	1.513561e+04	1.875174e+00,	1.964580e-04	
119	1.548817e+04	1.875174e+00,	2.010341e-04	
120	1.584893e+04	1.875174e+00,	2.057168e-04	
121	1.621810e+04	1.875174e+00,	2.105086e-04	
122	1.659587e+04	1.875174e+00,	2.154119e-04	
123	1.698244e+04	1.875174e+00,	2.204295e-04	
124	1.737801e+04	1.875174e+00,	2.255640e-04	
125	1.778279e+04	1.875174e+00,	2.308180e-04	
126	1.819701e+04	1.875174e+00,	2.361945e-04	
127	1.862087e+04	1.875174e+00,	2.416962e-04	
128	1.905461e+04	1.875174e+00,	2.473260e-04	
129	1.949845e+04	1.875174e+00,	2.530869e-04	
130	1.995262e+04	1.875174e+00,	2.589821e-04	
131	2.041738e+04	1.875174e+00,	2.650146e-04	
132	2.089296e+04	1.875174e+00,	2.711875e-04	
133	2.137962e+04	1.875174e+00,	2.775043e-04	
134	2.187762e+04	1.875174e+00,	2.839682e-04	
135	2.238721e+04	1.875174e+00,	2.905827e-04	
136	2.290868e+04	1.875174e+00,	2.973512e-04	
137	2.344229e+04	1.875174e+00,	3.042774e-04	
138	2.398833e+04	1.875174e+00,	3.113650e-04	
139	2.454709e+04	1.875174e+00,	3.186176e-04	
140	2.511886e+04	1.875174e+00,	3.260391e-04	
141	2.570396e+04	1.875174e+00,	3.336336e-04	
142	2.630268e+04	1.875174e+00,	3.414049e-04	
143	2.691535e+04	1.875174e+00,	3.493572e-04	
144	2.754229e+04	1.875174e+00,	3.574948e-04	
145	2.818383e+04	1.875174e+00,	3.658219e-04	
146	2.884032e+04	1.875174e+00,	3.743430e-04	
147	2.951209e+04	1.875174e+00,	3.830626e-04	
148	3.019952e+04	1.875174e+00,	3.919853e-04	
149	3.090295e+04	1.875174e+00,	4.011158e-04	
150	3.162278e+04	1.875174e+00,	4.104589e-04	
151	3.235937e+04	1.875174e+00,	4.200198e-04	
152	3.311311e+04	1.875174e+00,	4.298033e-04	
153	3.388442e+04	1.875174e+00,	4.398147e-04	
154	3.467369e+04	1.875174e+00,	4.500593e-04	
155	3.548134e+04	1.875174e+00,	4.605425e-04	
156	3.630781e+04	1.875174e+00,	4.712699e-04	
157	3.715352e+04	1.875174e+00,	4.822472e-04	
158	3.801894e+04	1.875174e+00,	4.934802e-04	
159	3.890451e+04	1.875174e+00,	5.049748e-04	
160	3.981072e+04	1.875174e+00,	5.167372e-04	
161	4.073803e+04	1.875174e+00,	5.287735e-04	
162	4.168694e+04	1.875174e+00,	5.410903e-04	
163	4.265795e+04	1.875174e+00,	5.536939e-04	
164	4.365158e+04	1.875174e+00,	5.665910e-04	
165	4.466836e+04	1.875174e+00,	5.797886e-04	
166	4.570882e+04	1.875174e+00,	5.932936e-04	
167	4.677351e+04	1.875174e+00,	6.071132e-04	
168	4.786301e+04	1.875174e+00,	6.212547e-04	
169	4.897788e+04	1.875174e+00,	6.357256e-04	
170	5.011872e+04	1.875174e+00,	6.505335e-04	

Index   frequency       vop                             
--------------------------------------------------------------------------------
171	5.128614e+04	1.875174e+00,	6.656864e-04	
172	5.248075e+04	1.875174e+00,	6.811922e-04	
173	5.370318e+04	1.875174e+00,	6.970592e-04	
174	5.495409e+04	1.875174e+00,	7.132958e-04	
175	5.623413e+04	1.875174e+00,	7.299106e-04	
176	5.754399e+04	1.875174e+00,	7.469124e-04	
177	5.888437e+04	1.875174e+00,	7.643102e-04	
178	6.025596e+04	1.875174e+00,	7.821133e-04	
179	6.165950e+04	1.875174e+00,	8.003310e-04	
180	6.309573e+04	1.875174e+00,	8.189731e-04	
181	6.456542e+04	1.875174e+00,	8.380494e-04	
182	6.606934e+04	1.875174e+00,	8.575701e-04	
183	6.760830e+04	1.875174e+00,	8.775455e-04	
184	6.918310e+04	1.875174e+00,	8.979861e-04	
185	7.079458e+04	1.875174e+00,	9.189029e-04	
186	7.244360e+04	1.875174e+00,	9.403069e-04	
187	7.413102e+04	1.875174e+00,	9.622094e-04	
188	7.585776e+04	1.875174e+00,	9.846221e-04	
189	7.762471e+04	1.875174e+00,	1.007557e-03	
190	7.943282e+04	1.875174e+00,	1.031026e-03	
191	8.128305e+04	1.875174e+00,	1.055042e-03	
192	8.317638e+04	1.875174e+00,	1.079617e-03	
193	8.511380e+04	1.875174e+00,	1.104764e-03	
194	8.709636e+04	1.875174e+00,	1.130497e-03	
195	8.912509e+04	1.875174e+00,	1.156830e-03	
196	9.120108e+04	1.875175e+00,	1.183776e-03	
197	9.332543e+04	1.875175e+00,	1.211350e-03	
198	9.549926e+04	1.875175e+00,	1.239566e-03	
199	9.772372e+04	1.875175e+00,	1.268439e-03	
200	1.000000e+05	1.875175e+00,	1.297984e-03	
201	1.023293e+05	1.875175e+00,	1.328218e-03	
202	1.047129e+05	1.875175e+00,	1.359156e-03	
203	1.071519e+05	1.875175e+00,	1.390815e-03	
204	1.096478e+05	1.875175e+00,	1.423211e-03	
205	1.122018e+05	1.875175e+00,	1.456362e-03	
206	1.148154e+05	1.875175e+00,	1.490285e-03	
207	1.174898e+05	1.875175e+00,	1.524998e-03	
208	1.202264e+05	1.875175e+00,	1.560520e-03	
209	1.230269e+05	1.875175e+00,	1.596869e-03	
210	1.258925e+05	1.875175e+00,	1.634065e-03	
211	1.288250e+05	1.875175e+00,	1.672127e-03	
212	1.318257e+05	1.875176e+00,	1.711076e-03	
213	1.348963e+05	1.875176e+00,	1.750932e-03	
214	1.380384e+05	1.875176e+00,	1.791716e-03	
215	1.412538e+05	1.875176e+00,	1.833451e-03	
216	1.445440e+05	1.875176e+00,	1.876157e-03	
217	1.479108e+05	1.875176e+00,	1.919858e-03	
218	1.513561e+05	1.875176e+00,	1.964577e-03	
219	1.548817e+05	1.875176e+00,	2.010338e-03	
220	1.584893e+05	1.875176e+00,	2.057165e-03	
221	1.621810e+05	1.875177e+00,	2.105082e-03	
222	1.659587e+05	1.875177e+00,	2.154116e-03	
223	1.698244e+05	1.875177e+00,	2.204291e-03	
224	1.737801e+05	1.875177e+00,	2.255636e-03	
225	1.778279e+05	1.875177e+00,	2.308176e-03	
226	1.819701e+05	1.875177e+00,	2.361940e-03	
227	1.862087e+05	1.875177e+00,	2.416956e-03	
228	1.905461e+05	1.875178e+00,	2.473254e-03	

Index   frequency       vop                             
--------------------------------------------------------------------------------
229	1.949845e+05	1.875178e+00,	2.530863e-03	
230	1.995262e+05	1.875178e+00,	2.589815e-03	
231	2.041738e+05	1.875178e+00,	2.650139e-03	
232	2.089296e+05	1.875178e+00,	2.711868e-03	
233	2.137962e+05	1.875179e+00,	2.775035e-03	
234	2.187762e+05	1.875179e+00,	2.839674e-03	
235	2.238721e+05	1.875179e+00,	2.905818e-03	
236	2.290868e+05	1.875179e+00,	2.973503e-03	
237	2.344229e+05	1.875180e+00,	3.042764e-03	
238	2.398833e+05	1.875180e+00,	3.113638e-03	
239	2.454709e+05	1.875180e+00,	3.186164e-03	
240	2.511886e+05	1.875181e+00,	3.260379e-03	
241	2.570396e+05	1.875181e+00,	3.336322e-03	
242	2.630268e+05	1.875181e+00,	3.414034e-03	
243	2.691535e+05	1.875182e+00,	3.493557e-03	
244	2.754229e+05	1.875182e+00,	3.574931e-03	
245	2.818383e+05	1.875182e+00,	3.658201e-03	
246	2.884032e+05	1.875183e+00,	3.743411e-03	
247	2.951209e+05	1.875183e+00,	3.830605e-03	
248	3.019952e+05	1.875184e+00,	3.919830e-03	
249	3.090295e+05	1.875184e+00,	4.011134e-03	
250	3.162278e+05	1.875185e+00,	4.104564e-03	
251	3.235937e+05	1.875185e+00,	4.200170e-03	
252	3.311311e+05	1.875186e+00,	4.298003e-03	
253	3.388442e+05	1.875186e+00,	4.398115e-03	
254	3.467369e+05	1.875187e+00,	4.500559e-03	
255	3.548134e+05	1.875188e+00,	4.605389e-03	
256	3.630781e+05	1.875188e+00,	4.712660e-03	
257	3.715352e+05	1.875189e+00,	4.822430e-03	
258	3.801894e+05	1.875190e+00,	4.934757e-03	
259	3.890451e+05	1.875191e+00,	5.049700e-03	
260	3.981072e+05	1.875191e+00,	5.167321e-03	
261	4.073803e+05	1.875192e+00,	5.287681e-03	
262	4.168694e+05	1.875193e+00,	5.410844e-03	
263	4.265795e+05	1.875194e+00,	5.536876e-03	
264	4.365158e+05	1.875195e+00,	5.665843e-03	
265	4.466836e+05	1.875196e+00,	5.797814e-03	
266	4.570882e+05	1.875197e+00,	5.932859e-03	
267	4.677351e+05	1.875198e+00,	6.071049e-03	
268	4.786301e+05	1.875199e+00,	6.212458e-03	
269	4.897788e+05	1.875200e+00,	6.357161e-03	
270	5.011872e+05	1.875202e+00,	6.505233e-03	
271	5.128614e+05	1.875203e+00,	6.656755e-03	
272	5.248075e+05	1.875204e+00,	6.811805e-03	
273	5.370318e+05	1.875206e+00,	6.970467e-03	
274	5.495409e+05	1.875207e+00,	7.132824e-03	
275	5.623413e+05	1.875209e+00,	7.298962e-03	
276	5.754399e+05	1.875211e+00,	7.468970e-03	
277	5.888437e+05	1.875212e+00,	7.642937e-03	
278	6.025596e+05	1.875214e+00,	7.820955e-03	
279	6.165950e+05	1.875216e+00,	8.003120e-03	
280	6.309573e+05	1.875218e+00,	8.189528e-03	
281	6.456542e+05	1.875220e+00,	8.380276e-03	
282	6.606934e+05	1.875222e+00,	8.575467e-03	
283	6.760830e+05	1.875225e+00,	8.775204e-03	
284	6.918310e+05	1.875227e+00,	8.979593e-03	
285	7.079458e+05	1.875230e+00,	9.188741e-03	
286	7.244360e+05	1.875232e+00,	9.402761e-03	

Index   frequency       vop                             
--------------------------------------------------------------------------------
287	7.413102e+05	1.875235e+00,	9.621764e-03	
288	7.585776e+05	1.875238e+00,	9.845868e-03	
289	7.762471e+05	1.875241e+00,	1.007519e-02	
290	7.943282e+05	1.875244e+00,	1.030985e-02	
291	8.128305e+05	1.875248e+00,	1.054998e-02	
292	8.317638e+05	1.875251e+00,	1.079570e-02	
293	8.511380e+05	1.875255e+00,	1.104714e-02	
294	8.709636e+05	1.875259e+00,	1.130444e-02	
295	8.912509e+05	1.875263e+00,	1.156773e-02	
296	9.120108e+05	1.875267e+00,	1.183715e-02	
297	9.332543e+05	1.875271e+00,	1.211284e-02	
298	9.549926e+05	1.875276e+00,	1.239495e-02	
299	9.772372e+05	1.875281e+00,	1.268363e-02	
300	1.000000e+06	1.875286e+00,	1.297903e-02	
301	1.023293e+06	1.875291e+00,	1.328132e-02	
302	1.047129e+06	1.875296e+00,	1.359063e-02	
303	1.071519e+06	1.875302e+00,	1.390716e-02	
304	1.096478e+06	1.875308e+00,	1.423105e-02	
305	1.122018e+06	1.875315e+00,	1.456248e-02	
306	1.148154e+06	1.875321e+00,	1.490163e-02	
307	1.174898e+06	1.875328e+00,	1.524867e-02	
308	1.202264e+06	1.875336e+00,	1.560379e-02	
309	1.230269e+06	1.875343e+00,	1.596718e-02	
310	1.258925e+06	1.875351e+00,	1.633903e-02	
311	1.288250e+06	1.875360e+00,	1.671954e-02	
312	1.318257e+06	1.875368e+00,	1.710890e-02	
313	1.348963e+06	1.875378e+00,	1.750733e-02	
314	1.380384e+06	1.875387e+00,	1.791503e-02	
315	1.412538e+06	1.875397e+00,	1.833222e-02	
316	1.445440e+06	1.875408e+00,	1.875912e-02	
317	1.479108e+06	1.875419e+00,	1.919596e-02	
318	1.513561e+06	1.875430e+00,	1.964296e-02	
319	1.548817e+06	1.875442e+00,	2.010037e-02	
320	1.584893e+06	1.875455e+00,	2.056842e-02	
321	1.621810e+06	1.875468e+00,	2.104737e-02	
322	1.659587e+06	1.875482e+00,	2.153745e-02	
323	1.698244e+06	1.875497e+00,	2.203894e-02	
324	1.737801e+06	1.875512e+00,	2.255210e-02	
325	1.778279e+06	1.875528e+00,	2.307720e-02	
326	1.819701e+06	1.875545e+00,	2.361452e-02	
327	1.862087e+06	1.875562e+00,	2.416433e-02	
328	1.905461e+06	1.875580e+00,	2.472694e-02	
329	1.949845e+06	1.875600e+00,	2.530263e-02	
330	1.995262e+06	1.875620e+00,	2.589171e-02	
331	2.041738e+06	1.875641e+00,	2.649449e-02	
332	2.089296e+06	1.875663e+00,	2.711129e-02	
333	2.137962e+06	1.875686e+00,	2.774244e-02	
334	2.187762e+06	1.875710e+00,	2.838826e-02	
335	2.238721e+06	1.875735e+00,	2.904909e-02	
336	2.290868e+06	1.875762e+00,	2.972529e-02	
337	2.344229e+06	1.875789e+00,	3.041720e-02	
338	2.398833e+06	1.875818e+00,	3.112520e-02	
339	2.454709e+06	1.875849e+00,	3.184966e-02	
340	2.511886e+06	1.875881e+00,	3.259095e-02	
341	2.570396e+06	1.875914e+00,	3.334946e-02	
342	2.630268e+06	1.875949e+00,	3.412560e-02	
343	2.691535e+06	1.875985e+00,	3.491977e-02	
344	2.754229e+06	1.876024e+00,	3.573239e-02	

Index   frequency       vop                             
--------------------------------------------------------------------------------
345	2.818383e+06	1.876064e+00,	3.656388e-02	
346	2.884032e+06	1.876105e+00,	3.741468e-02	
347	2.951209e+06	1.876149e+00,	3.828523e-02	
348	3.019952e+06	1.876195e+00,	3.917600e-02	
349	3.090295e+06	1.876243e+00,	4.008744e-02	
350	3.162278e+06	1.876294e+00,	4.102003e-02	
351	3.235937e+06	1.876347e+00,	4.197426e-02	
352	3.311311e+06	1.876402e+00,	4.295063e-02	
353	3.388442e+06	1.876460e+00,	4.394965e-02	
354	3.467369e+06	1.876520e+00,	4.497183e-02	
355	3.548134e+06	1.876584e+00,	4.601772e-02	
356	3.630781e+06	1.876650e+00,	4.708785e-02	
357	3.715352e+06	1.876720e+00,	4.818278e-02	
358	3.801894e+06	1.876793e+00,	4.930308e-02	
359	3.890451e+06	1.876869e+00,	5.044933e-02	
360	3.981072e+06	1.876949e+00,	5.162212e-02	
361	4.073803e+06	1.877032e+00,	5.282207e-02	
362	4.168694e+06	1.877120e+00,	5.404979e-02	
363	4.265795e+06	1.877211e+00,	5.530592e-02	
364	4.365158e+06	1.877307e+00,	5.659110e-02	
365	4.466836e+06	1.877408e+00,	5.790600e-02	
366	4.570882e+06	1.877513e+00,	5.925129e-02	
367	4.677351e+06	1.877623e+00,	6.062767e-02	
368	4.786301e+06	1.877738e+00,	6.203584e-02	
369	4.897788e+06	1.877859e+00,	6.347652e-02	
370	5.011872e+06	1.877986e+00,	6.495045e-02	
371	5.128614e+06	1.878118e+00,	6.645838e-02	
372	5.248075e+06	1.878256e+00,	6.800108e-02	
373	5.370318e+06	1.878402e+00,	6.957934e-02	
374	5.495409e+06	1.878553e+00,	7.119396e-02	
375	5.623413e+06	1.878712e+00,	7.284574e-02	
376	5.754399e+06	1.878879e+00,	7.453554e-02	
377	5.888437e+06	1.879053e+00,	7.626420e-02	
378	6.025596e+06	1.879236e+00,	7.803259e-02	
379	6.165950e+06	1.879427e+00,	7.984159e-02	
380	6.309573e+06	1.879627e+00,	8.169212e-02	
381	6.456542e+06	1.879836e+00,	8.358509e-02	
382	6.606934e+06	1.880056e+00,	8.552146e-02	
383	6.760830e+06	1.880285e+00,	8.750217e-02	
384	6.918310e+06	1.880526e+00,	8.952821e-02	
385	7.079458e+06	1.880777e+00,	9.160058e-02	
386	7.244360e+06	1.881041e+00,	9.372029e-02	
387	7.413102e+06	1.881316e+00,	9.588838e-02	
388	7.585776e+06	1.881605e+00,	9.810590e-02	
389	7.762471e+06	1.881907e+00,	1.003739e-01	
390	7.943282e+06	1.882223e+00,	1.026936e-01	
391	8.128305e+06	1.882555e+00,	1.050660e-01	
392	8.317638e+06	1.882901e+00,	1.074922e-01	
393	8.511380e+06	1.883264e+00,	1.099734e-01	
394	8.709636e+06	1.883644e+00,	1.125109e-01	
395	8.912509e+06	1.884041e+00,	1.151057e-01	
396	9.120108e+06	1.884458e+00,	1.177591e-01	
397	9.332543e+06	1.884893e+00,	1.204723e-01	
398	9.549926e+06	1.885349e+00,	1.232467e-01	
399	9.772372e+06	1.885826e+00,	1.260833e-01	
400	1.000000e+07	1.886326e+00,	1.289837e-01	
401	1.023293e+07	1.886849e+00,	1.319490e-01	
402	1.047129e+07	1.887396e+00,	1.349806e-01	

Index   frequency       vop                             
--------------------------------------------------------------------------------
403	1.071519e+07	1.887969e+00,	1.380798e-01	
404	1.096478e+07	1.888568e+00,	1.412480e-01	
405	1.122018e+07	1.889195e+00,	1.444866e-01	
406	1.148154e+07	1.889852e+00,	1.477970e-01	
407	1.174898e+07	1.890539e+00,	1.511806e-01	
408	1.202264e+07	1.891258e+00,	1.546388e-01	
409	1.230269e+07	1.892010e+00,	1.581731e-01	
410	1.258925e+07	1.892797e+00,	1.617849e-01	
411	1.288250e+07	1.893620e+00,	1.654757e-01	
412	1.318257e+07	1.894482e+00,	1.692470e-01	
413	1.348963e+07	1.895384e+00,	1.731003e-01	
414	1.380384e+07	1.896327e+00,	1.770370e-01	
415	1.412538e+07	1.897314e+00,	1.810586e-01	
416	1.445440e+07	1.898347e+00,	1.851668e-01	
