** sch_path: /home/andylithia/openmpw/project-reisen-chip1/xschem/ota_wideband.sch
AC Analysis  Sun Oct 30 17:11:03  2022
--------------------------------------------------------------------------------
Index   frequency       vop                             
--------------------------------------------------------------------------------
0	1.000000e+03	2.379760e+00,	6.228577e-06	
1	1.023293e+03	2.379760e+00,	6.373660e-06	
2	1.047129e+03	2.379760e+00,	6.522121e-06	
3	1.071519e+03	2.379760e+00,	6.674041e-06	
4	1.096478e+03	2.379760e+00,	6.829499e-06	
5	1.122018e+03	2.379760e+00,	6.988579e-06	
6	1.148154e+03	2.379760e+00,	7.151364e-06	
7	1.174898e+03	2.379760e+00,	7.317940e-06	
8	1.202264e+03	2.379760e+00,	7.488397e-06	
9	1.230269e+03	2.379760e+00,	7.662824e-06	
10	1.258925e+03	2.379760e+00,	7.841314e-06	
11	1.288250e+03	2.379760e+00,	8.023962e-06	
12	1.318257e+03	2.379760e+00,	8.210864e-06	
13	1.348963e+03	2.379760e+00,	8.402120e-06	
14	1.380384e+03	2.379760e+00,	8.597830e-06	
15	1.412538e+03	2.379760e+00,	8.798100e-06	
16	1.445440e+03	2.379760e+00,	9.003034e-06	
17	1.479108e+03	2.379760e+00,	9.212741e-06	
18	1.513561e+03	2.379760e+00,	9.427334e-06	
19	1.548817e+03	2.379760e+00,	9.646924e-06	
20	1.584893e+03	2.379760e+00,	9.871630e-06	
21	1.621810e+03	2.379760e+00,	1.010157e-05	
22	1.659587e+03	2.379760e+00,	1.033687e-05	
23	1.698244e+03	2.379760e+00,	1.057764e-05	
24	1.737801e+03	2.379760e+00,	1.082403e-05	
25	1.778279e+03	2.379760e+00,	1.107615e-05	
26	1.819701e+03	2.379760e+00,	1.133415e-05	
27	1.862087e+03	2.379760e+00,	1.159815e-05	
28	1.905461e+03	2.379760e+00,	1.186831e-05	
29	1.949845e+03	2.379760e+00,	1.214476e-05	
30	1.995262e+03	2.379760e+00,	1.242765e-05	
31	2.041738e+03	2.379760e+00,	1.271712e-05	
32	2.089296e+03	2.379760e+00,	1.301334e-05	
33	2.137962e+03	2.379760e+00,	1.331646e-05	
34	2.187762e+03	2.379760e+00,	1.362664e-05	
35	2.238721e+03	2.379760e+00,	1.394405e-05	
36	2.290868e+03	2.379760e+00,	1.426885e-05	
37	2.344229e+03	2.379760e+00,	1.460121e-05	
38	2.398833e+03	2.379760e+00,	1.494132e-05	
39	2.454709e+03	2.379760e+00,	1.528934e-05	
40	2.511886e+03	2.379760e+00,	1.564548e-05	
41	2.570396e+03	2.379760e+00,	1.600991e-05	
42	2.630268e+03	2.379760e+00,	1.638283e-05	
43	2.691535e+03	2.379760e+00,	1.676443e-05	
44	2.754229e+03	2.379760e+00,	1.715493e-05	
45	2.818383e+03	2.379760e+00,	1.755452e-05	
46	2.884032e+03	2.379760e+00,	1.796341e-05	
47	2.951209e+03	2.379760e+00,	1.838184e-05	
48	3.019952e+03	2.379760e+00,	1.881000e-05	
49	3.090295e+03	2.379760e+00,	1.924814e-05	
50	3.162278e+03	2.379760e+00,	1.969649e-05	
51	3.235937e+03	2.379760e+00,	2.015528e-05	
52	3.311311e+03	2.379760e+00,	2.062476e-05	
53	3.388442e+03	2.379760e+00,	2.110517e-05	
54	3.467369e+03	2.379760e+00,	2.159677e-05	

Index   frequency       vop                             
--------------------------------------------------------------------------------
55	3.548134e+03	2.379760e+00,	2.209983e-05	
56	3.630781e+03	2.379760e+00,	2.261460e-05	
57	3.715352e+03	2.379760e+00,	2.314136e-05	
58	3.801894e+03	2.379760e+00,	2.368039e-05	
59	3.890451e+03	2.379760e+00,	2.423198e-05	
60	3.981072e+03	2.379760e+00,	2.479641e-05	
61	4.073803e+03	2.379760e+00,	2.537400e-05	
62	4.168694e+03	2.379760e+00,	2.596503e-05	
63	4.265795e+03	2.379760e+00,	2.656984e-05	
64	4.365158e+03	2.379760e+00,	2.718873e-05	
65	4.466836e+03	2.379760e+00,	2.782203e-05	
66	4.570882e+03	2.379760e+00,	2.847009e-05	
67	4.677351e+03	2.379760e+00,	2.913325e-05	
68	4.786301e+03	2.379760e+00,	2.981185e-05	
69	4.897788e+03	2.379760e+00,	3.050625e-05	
70	5.011872e+03	2.379760e+00,	3.121684e-05	
71	5.128614e+03	2.379760e+00,	3.194397e-05	
72	5.248075e+03	2.379760e+00,	3.268804e-05	
73	5.370318e+03	2.379760e+00,	3.344944e-05	
74	5.495409e+03	2.379760e+00,	3.422858e-05	
75	5.623413e+03	2.379760e+00,	3.502587e-05	
76	5.754399e+03	2.379760e+00,	3.584172e-05	
77	5.888437e+03	2.379760e+00,	3.667658e-05	
78	6.025596e+03	2.379760e+00,	3.753089e-05	
79	6.165950e+03	2.379760e+00,	3.840510e-05	
80	6.309573e+03	2.379760e+00,	3.929967e-05	
81	6.456542e+03	2.379760e+00,	4.021507e-05	
82	6.606934e+03	2.379760e+00,	4.115180e-05	
83	6.760830e+03	2.379760e+00,	4.211035e-05	
84	6.918310e+03	2.379760e+00,	4.309123e-05	
85	7.079458e+03	2.379760e+00,	4.409495e-05	
86	7.244360e+03	2.379760e+00,	4.512206e-05	
87	7.413102e+03	2.379760e+00,	4.617308e-05	
88	7.585776e+03	2.379760e+00,	4.724859e-05	
89	7.762471e+03	2.379760e+00,	4.834915e-05	
90	7.943282e+03	2.379760e+00,	4.947535e-05	
91	8.128305e+03	2.379760e+00,	5.062778e-05	
92	8.317638e+03	2.379760e+00,	5.180705e-05	
93	8.511380e+03	2.379760e+00,	5.301379e-05	
94	8.709636e+03	2.379760e+00,	5.424864e-05	
95	8.912509e+03	2.379760e+00,	5.551226e-05	
96	9.120108e+03	2.379760e+00,	5.680530e-05	
97	9.332543e+03	2.379760e+00,	5.812847e-05	
98	9.549926e+03	2.379760e+00,	5.948245e-05	
99	9.772372e+03	2.379760e+00,	6.086798e-05	
100	1.000000e+04	2.379760e+00,	6.228577e-05	
101	1.023293e+04	2.379760e+00,	6.373660e-05	
102	1.047129e+04	2.379760e+00,	6.522121e-05	
103	1.071519e+04	2.379760e+00,	6.674041e-05	
104	1.096478e+04	2.379760e+00,	6.829499e-05	
105	1.122018e+04	2.379760e+00,	6.988579e-05	
106	1.148154e+04	2.379760e+00,	7.151364e-05	
107	1.174898e+04	2.379760e+00,	7.317940e-05	
108	1.202264e+04	2.379760e+00,	7.488397e-05	
109	1.230269e+04	2.379760e+00,	7.662824e-05	
110	1.258925e+04	2.379760e+00,	7.841314e-05	
111	1.288250e+04	2.379760e+00,	8.023962e-05	
112	1.318257e+04	2.379760e+00,	8.210864e-05	

Index   frequency       vop                             
--------------------------------------------------------------------------------
113	1.348963e+04	2.379760e+00,	8.402120e-05	
114	1.380384e+04	2.379760e+00,	8.597830e-05	
115	1.412538e+04	2.379760e+00,	8.798099e-05	
116	1.445440e+04	2.379760e+00,	9.003034e-05	
117	1.479108e+04	2.379760e+00,	9.212741e-05	
118	1.513561e+04	2.379760e+00,	9.427333e-05	
119	1.548817e+04	2.379760e+00,	9.646924e-05	
120	1.584893e+04	2.379760e+00,	9.871630e-05	
121	1.621810e+04	2.379760e+00,	1.010157e-04	
122	1.659587e+04	2.379760e+00,	1.033687e-04	
123	1.698244e+04	2.379760e+00,	1.057764e-04	
124	1.737801e+04	2.379760e+00,	1.082403e-04	
125	1.778279e+04	2.379760e+00,	1.107615e-04	
126	1.819701e+04	2.379760e+00,	1.133415e-04	
127	1.862087e+04	2.379760e+00,	1.159815e-04	
128	1.905461e+04	2.379760e+00,	1.186831e-04	
129	1.949845e+04	2.379760e+00,	1.214476e-04	
130	1.995262e+04	2.379760e+00,	1.242765e-04	
131	2.041738e+04	2.379760e+00,	1.271712e-04	
132	2.089296e+04	2.379760e+00,	1.301334e-04	
133	2.137962e+04	2.379760e+00,	1.331646e-04	
134	2.187762e+04	2.379760e+00,	1.362664e-04	
135	2.238721e+04	2.379760e+00,	1.394405e-04	
136	2.290868e+04	2.379760e+00,	1.426885e-04	
137	2.344229e+04	2.379760e+00,	1.460121e-04	
138	2.398833e+04	2.379760e+00,	1.494132e-04	
139	2.454709e+04	2.379760e+00,	1.528934e-04	
140	2.511886e+04	2.379760e+00,	1.564548e-04	
141	2.570396e+04	2.379760e+00,	1.600991e-04	
142	2.630268e+04	2.379760e+00,	1.638283e-04	
143	2.691535e+04	2.379760e+00,	1.676443e-04	
144	2.754229e+04	2.379760e+00,	1.715493e-04	
145	2.818383e+04	2.379760e+00,	1.755452e-04	
146	2.884032e+04	2.379760e+00,	1.796341e-04	
147	2.951209e+04	2.379760e+00,	1.838183e-04	
148	3.019952e+04	2.379760e+00,	1.881000e-04	
149	3.090295e+04	2.379760e+00,	1.924814e-04	
150	3.162278e+04	2.379760e+00,	1.969649e-04	
151	3.235937e+04	2.379760e+00,	2.015528e-04	
152	3.311311e+04	2.379760e+00,	2.062476e-04	
153	3.388442e+04	2.379760e+00,	2.110517e-04	
154	3.467369e+04	2.379760e+00,	2.159677e-04	
155	3.548134e+04	2.379760e+00,	2.209983e-04	
156	3.630781e+04	2.379760e+00,	2.261460e-04	
157	3.715352e+04	2.379760e+00,	2.314136e-04	
158	3.801894e+04	2.379760e+00,	2.368039e-04	
159	3.890451e+04	2.379760e+00,	2.423198e-04	
160	3.981072e+04	2.379760e+00,	2.479641e-04	
161	4.073803e+04	2.379760e+00,	2.537399e-04	
162	4.168694e+04	2.379760e+00,	2.596503e-04	
163	4.265795e+04	2.379760e+00,	2.656983e-04	
164	4.365158e+04	2.379760e+00,	2.718872e-04	
165	4.466836e+04	2.379760e+00,	2.782203e-04	
166	4.570882e+04	2.379760e+00,	2.847009e-04	
167	4.677351e+04	2.379760e+00,	2.913324e-04	
168	4.786301e+04	2.379760e+00,	2.981184e-04	
169	4.897788e+04	2.379760e+00,	3.050625e-04	
170	5.011872e+04	2.379760e+00,	3.121683e-04	

Index   frequency       vop                             
--------------------------------------------------------------------------------
171	5.128614e+04	2.379760e+00,	3.194397e-04	
172	5.248075e+04	2.379760e+00,	3.268804e-04	
173	5.370318e+04	2.379760e+00,	3.344944e-04	
174	5.495409e+04	2.379760e+00,	3.422858e-04	
175	5.623413e+04	2.379760e+00,	3.502586e-04	
176	5.754399e+04	2.379760e+00,	3.584172e-04	
177	5.888437e+04	2.379760e+00,	3.667658e-04	
178	6.025596e+04	2.379760e+00,	3.753089e-04	
179	6.165950e+04	2.379760e+00,	3.840509e-04	
180	6.309573e+04	2.379760e+00,	3.929966e-04	
181	6.456542e+04	2.379760e+00,	4.021507e-04	
182	6.606934e+04	2.379760e+00,	4.115180e-04	
183	6.760830e+04	2.379760e+00,	4.211034e-04	
184	6.918310e+04	2.379760e+00,	4.309122e-04	
185	7.079458e+04	2.379760e+00,	4.409494e-04	
186	7.244360e+04	2.379760e+00,	4.512205e-04	
187	7.413102e+04	2.379760e+00,	4.617307e-04	
188	7.585776e+04	2.379760e+00,	4.724858e-04	
189	7.762471e+04	2.379760e+00,	4.834914e-04	
190	7.943282e+04	2.379760e+00,	4.947534e-04	
191	8.128305e+04	2.379760e+00,	5.062777e-04	
192	8.317638e+04	2.379760e+00,	5.180704e-04	
193	8.511380e+04	2.379760e+00,	5.301378e-04	
194	8.709636e+04	2.379760e+00,	5.424863e-04	
195	8.912509e+04	2.379760e+00,	5.551224e-04	
196	9.120108e+04	2.379760e+00,	5.680528e-04	
197	9.332543e+04	2.379760e+00,	5.812845e-04	
198	9.549926e+04	2.379760e+00,	5.948243e-04	
199	9.772372e+04	2.379760e+00,	6.086796e-04	
200	1.000000e+05	2.379760e+00,	6.228575e-04	
201	1.023293e+05	2.379760e+00,	6.373657e-04	
202	1.047129e+05	2.379760e+00,	6.522119e-04	
203	1.071519e+05	2.379760e+00,	6.674038e-04	
204	1.096478e+05	2.379760e+00,	6.829496e-04	
205	1.122018e+05	2.379760e+00,	6.988576e-04	
206	1.148154e+05	2.379760e+00,	7.151360e-04	
207	1.174898e+05	2.379760e+00,	7.317937e-04	
208	1.202264e+05	2.379760e+00,	7.488393e-04	
209	1.230269e+05	2.379760e+00,	7.662820e-04	
210	1.258925e+05	2.379760e+00,	7.841310e-04	
211	1.288250e+05	2.379761e+00,	8.023957e-04	
212	1.318257e+05	2.379761e+00,	8.210859e-04	
213	1.348963e+05	2.379761e+00,	8.402114e-04	
214	1.380384e+05	2.379761e+00,	8.597824e-04	
215	1.412538e+05	2.379761e+00,	8.798093e-04	
216	1.445440e+05	2.379761e+00,	9.003026e-04	
217	1.479108e+05	2.379761e+00,	9.212734e-04	
218	1.513561e+05	2.379761e+00,	9.427325e-04	
219	1.548817e+05	2.379761e+00,	9.646916e-04	
220	1.584893e+05	2.379761e+00,	9.871621e-04	
221	1.621810e+05	2.379761e+00,	1.010156e-03	
222	1.659587e+05	2.379761e+00,	1.033685e-03	
223	1.698244e+05	2.379761e+00,	1.057763e-03	
224	1.737801e+05	2.379761e+00,	1.082401e-03	
225	1.778279e+05	2.379761e+00,	1.107614e-03	
226	1.819701e+05	2.379761e+00,	1.133413e-03	
227	1.862087e+05	2.379761e+00,	1.159814e-03	
228	1.905461e+05	2.379761e+00,	1.186829e-03	

Index   frequency       vop                             
--------------------------------------------------------------------------------
229	1.949845e+05	2.379761e+00,	1.214474e-03	
230	1.995262e+05	2.379762e+00,	1.242763e-03	
231	2.041738e+05	2.379762e+00,	1.271710e-03	
232	2.089296e+05	2.379762e+00,	1.301332e-03	
233	2.137962e+05	2.379762e+00,	1.331644e-03	
234	2.187762e+05	2.379762e+00,	1.362662e-03	
235	2.238721e+05	2.379762e+00,	1.394402e-03	
236	2.290868e+05	2.379762e+00,	1.426882e-03	
237	2.344229e+05	2.379762e+00,	1.460118e-03	
238	2.398833e+05	2.379762e+00,	1.494128e-03	
239	2.454709e+05	2.379762e+00,	1.528931e-03	
240	2.511886e+05	2.379763e+00,	1.564544e-03	
241	2.570396e+05	2.379763e+00,	1.600987e-03	
242	2.630268e+05	2.379763e+00,	1.638278e-03	
243	2.691535e+05	2.379763e+00,	1.676439e-03	
244	2.754229e+05	2.379763e+00,	1.715488e-03	
245	2.818383e+05	2.379763e+00,	1.755446e-03	
246	2.884032e+05	2.379764e+00,	1.796336e-03	
247	2.951209e+05	2.379764e+00,	1.838177e-03	
248	3.019952e+05	2.379764e+00,	1.880994e-03	
249	3.090295e+05	2.379764e+00,	1.924807e-03	
250	3.162278e+05	2.379764e+00,	1.969642e-03	
251	3.235937e+05	2.379765e+00,	2.015520e-03	
252	3.311311e+05	2.379765e+00,	2.062467e-03	
253	3.388442e+05	2.379765e+00,	2.110508e-03	
254	3.467369e+05	2.379765e+00,	2.159667e-03	
255	3.548134e+05	2.379765e+00,	2.209972e-03	
256	3.630781e+05	2.379766e+00,	2.261448e-03	
257	3.715352e+05	2.379766e+00,	2.314124e-03	
258	3.801894e+05	2.379766e+00,	2.368026e-03	
259	3.890451e+05	2.379767e+00,	2.423184e-03	
260	3.981072e+05	2.379767e+00,	2.479626e-03	
261	4.073803e+05	2.379767e+00,	2.537384e-03	
262	4.168694e+05	2.379768e+00,	2.596486e-03	
263	4.265795e+05	2.379768e+00,	2.656965e-03	
264	4.365158e+05	2.379768e+00,	2.718853e-03	
265	4.466836e+05	2.379769e+00,	2.782182e-03	
266	4.570882e+05	2.379769e+00,	2.846987e-03	
267	4.677351e+05	2.379770e+00,	2.913300e-03	
268	4.786301e+05	2.379770e+00,	2.981159e-03	
269	4.897788e+05	2.379771e+00,	3.050597e-03	
270	5.011872e+05	2.379771e+00,	3.121654e-03	
271	5.128614e+05	2.379772e+00,	3.194365e-03	
272	5.248075e+05	2.379772e+00,	3.268770e-03	
273	5.370318e+05	2.379773e+00,	3.344907e-03	
274	5.495409e+05	2.379773e+00,	3.422818e-03	
275	5.623413e+05	2.379774e+00,	3.502544e-03	
276	5.754399e+05	2.379775e+00,	3.584127e-03	
277	5.888437e+05	2.379775e+00,	3.667610e-03	
278	6.025596e+05	2.379776e+00,	3.753037e-03	
279	6.165950e+05	2.379777e+00,	3.840454e-03	
280	6.309573e+05	2.379778e+00,	3.929907e-03	
281	6.456542e+05	2.379779e+00,	4.021443e-03	
282	6.606934e+05	2.379780e+00,	4.115112e-03	
283	6.760830e+05	2.379780e+00,	4.210962e-03	
284	6.918310e+05	2.379781e+00,	4.309044e-03	
285	7.079458e+05	2.379782e+00,	4.409411e-03	
286	7.244360e+05	2.379784e+00,	4.512115e-03	

Index   frequency       vop                             
--------------------------------------------------------------------------------
287	7.413102e+05	2.379785e+00,	4.617212e-03	
288	7.585776e+05	2.379786e+00,	4.724756e-03	
289	7.762471e+05	2.379787e+00,	4.834804e-03	
290	7.943282e+05	2.379788e+00,	4.947416e-03	
291	8.128305e+05	2.379790e+00,	5.062650e-03	
292	8.317638e+05	2.379791e+00,	5.180568e-03	
293	8.511380e+05	2.379793e+00,	5.301233e-03	
294	8.709636e+05	2.379794e+00,	5.424707e-03	
295	8.912509e+05	2.379796e+00,	5.551057e-03	
296	9.120108e+05	2.379798e+00,	5.680350e-03	
297	9.332543e+05	2.379799e+00,	5.812654e-03	
298	9.549926e+05	2.379801e+00,	5.948038e-03	
299	9.772372e+05	2.379803e+00,	6.086576e-03	
300	1.000000e+06	2.379805e+00,	6.228340e-03	
301	1.023293e+06	2.379807e+00,	6.373405e-03	
302	1.047129e+06	2.379810e+00,	6.521849e-03	
303	1.071519e+06	2.379812e+00,	6.673749e-03	
304	1.096478e+06	2.379814e+00,	6.829186e-03	
305	1.122018e+06	2.379817e+00,	6.988243e-03	
306	1.148154e+06	2.379820e+00,	7.151004e-03	
307	1.174898e+06	2.379822e+00,	7.317555e-03	
308	1.202264e+06	2.379825e+00,	7.487984e-03	
309	1.230269e+06	2.379828e+00,	7.662382e-03	
310	1.258925e+06	2.379832e+00,	7.840840e-03	
311	1.288250e+06	2.379835e+00,	8.023454e-03	
312	1.318257e+06	2.379839e+00,	8.210320e-03	
313	1.348963e+06	2.379842e+00,	8.401537e-03	
314	1.380384e+06	2.379846e+00,	8.597206e-03	
315	1.412538e+06	2.379850e+00,	8.797430e-03	
316	1.445440e+06	2.379855e+00,	9.002316e-03	
317	1.479108e+06	2.379859e+00,	9.211972e-03	
318	1.513561e+06	2.379864e+00,	9.426510e-03	
319	1.548817e+06	2.379869e+00,	9.646042e-03	
320	1.584893e+06	2.379874e+00,	9.870684e-03	
321	1.621810e+06	2.379879e+00,	1.010056e-02	
322	1.659587e+06	2.379885e+00,	1.033578e-02	
323	1.698244e+06	2.379891e+00,	1.057648e-02	
324	1.737801e+06	2.379897e+00,	1.082278e-02	
325	1.778279e+06	2.379903e+00,	1.107482e-02	
326	1.819701e+06	2.379910e+00,	1.133272e-02	
327	1.862087e+06	2.379917e+00,	1.159662e-02	
328	1.905461e+06	2.379925e+00,	1.186667e-02	
329	1.949845e+06	2.379932e+00,	1.214300e-02	
330	1.995262e+06	2.379940e+00,	1.242576e-02	
331	2.041738e+06	2.379949e+00,	1.271510e-02	
332	2.089296e+06	2.379958e+00,	1.301118e-02	
333	2.137962e+06	2.379967e+00,	1.331414e-02	
334	2.187762e+06	2.379977e+00,	1.362416e-02	
335	2.238721e+06	2.379987e+00,	1.394138e-02	
336	2.290868e+06	2.379998e+00,	1.426599e-02	
337	2.344229e+06	2.380009e+00,	1.459815e-02	
338	2.398833e+06	2.380021e+00,	1.493804e-02	
339	2.454709e+06	2.380033e+00,	1.528583e-02	
340	2.511886e+06	2.380046e+00,	1.564171e-02	
341	2.570396e+06	2.380060e+00,	1.600587e-02	
342	2.630268e+06	2.380074e+00,	1.637851e-02	
343	2.691535e+06	2.380089e+00,	1.675980e-02	
344	2.754229e+06	2.380104e+00,	1.714996e-02	

Index   frequency       vop                             
--------------------------------------------------------------------------------
345	2.818383e+06	2.380120e+00,	1.754920e-02	
346	2.884032e+06	2.380137e+00,	1.795772e-02	
347	2.951209e+06	2.380155e+00,	1.837573e-02	
348	3.019952e+06	2.380174e+00,	1.880346e-02	
349	3.090295e+06	2.380193e+00,	1.924113e-02	
350	3.162278e+06	2.380214e+00,	1.968898e-02	
351	3.235937e+06	2.380235e+00,	2.014723e-02	
352	3.311311e+06	2.380257e+00,	2.061613e-02	
353	3.388442e+06	2.380281e+00,	2.109593e-02	
354	3.467369e+06	2.380305e+00,	2.158687e-02	
355	3.548134e+06	2.380331e+00,	2.208922e-02	
356	3.630781e+06	2.380358e+00,	2.260323e-02	
357	3.715352e+06	2.380386e+00,	2.312918e-02	
358	3.801894e+06	2.380416e+00,	2.366734e-02	
359	3.890451e+06	2.380447e+00,	2.421799e-02	
360	3.981072e+06	2.380479e+00,	2.478142e-02	
361	4.073803e+06	2.380513e+00,	2.535794e-02	
362	4.168694e+06	2.380548e+00,	2.594782e-02	
363	4.265795e+06	2.380585e+00,	2.655140e-02	
364	4.365158e+06	2.380624e+00,	2.716897e-02	
365	4.466836e+06	2.380665e+00,	2.780086e-02	
366	4.570882e+06	2.380708e+00,	2.844741e-02	
367	4.677351e+06	2.380752e+00,	2.910894e-02	
368	4.786301e+06	2.380799e+00,	2.978580e-02	
369	4.897788e+06	2.380848e+00,	3.047834e-02	
370	5.011872e+06	2.380899e+00,	3.118693e-02	
371	5.128614e+06	2.380953e+00,	3.191192e-02	
372	5.248075e+06	2.381009e+00,	3.265370e-02	
373	5.370318e+06	2.381068e+00,	3.341265e-02	
374	5.495409e+06	2.381130e+00,	3.418916e-02	
375	5.623413e+06	2.381194e+00,	3.498362e-02	
376	5.754399e+06	2.381262e+00,	3.579646e-02	
377	5.888437e+06	2.381332e+00,	3.662808e-02	
378	6.025596e+06	2.381407e+00,	3.747892e-02	
379	6.165950e+06	2.381484e+00,	3.834941e-02	
380	6.309573e+06	2.381565e+00,	3.924000e-02	
381	6.456542e+06	2.381650e+00,	4.015114e-02	
382	6.606934e+06	2.381739e+00,	4.108330e-02	
383	6.760830e+06	2.381833e+00,	4.203695e-02	
384	6.918310e+06	2.381930e+00,	4.301257e-02	
385	7.079458e+06	2.382032e+00,	4.401067e-02	
386	7.244360e+06	2.382139e+00,	4.503175e-02	
387	7.413102e+06	2.382251e+00,	4.607632e-02	
388	7.585776e+06	2.382369e+00,	4.714491e-02	
389	7.762471e+06	2.382491e+00,	4.823805e-02	
390	7.943282e+06	2.382620e+00,	4.935631e-02	
391	8.128305e+06	2.382754e+00,	5.050022e-02	
392	8.317638e+06	2.382895e+00,	5.167037e-02	
393	8.511380e+06	2.383043e+00,	5.286734e-02	
394	8.709636e+06	2.383197e+00,	5.409172e-02	
395	8.912509e+06	2.383359e+00,	5.534411e-02	
396	9.120108e+06	2.383528e+00,	5.662513e-02	
397	9.332543e+06	2.383706e+00,	5.793542e-02	
398	9.549926e+06	2.383891e+00,	5.927560e-02	
399	9.772372e+06	2.384086e+00,	6.064633e-02	
400	1.000000e+07	2.384289e+00,	6.204828e-02	
401	1.023293e+07	2.384502e+00,	6.348212e-02	
402	1.047129e+07	2.384725e+00,	6.494854e-02	

Index   frequency       vop                             
--------------------------------------------------------------------------------
403	1.071519e+07	2.384958e+00,	6.644824e-02	
404	1.096478e+07	2.385203e+00,	6.798194e-02	
405	1.122018e+07	2.385458e+00,	6.955035e-02	
406	1.148154e+07	2.385726e+00,	7.115422e-02	
407	1.174898e+07	2.386007e+00,	7.279429e-02	
408	1.202264e+07	2.386300e+00,	7.447132e-02	
409	1.230269e+07	2.386607e+00,	7.618609e-02	
410	1.258925e+07	2.386929e+00,	7.793939e-02	
411	1.288250e+07	2.387265e+00,	7.973200e-02	
412	1.318257e+07	2.387618e+00,	8.156473e-02	
413	1.348963e+07	2.387987e+00,	8.343841e-02	
414	1.380384e+07	2.388373e+00,	8.535386e-02	
415	1.412538e+07	2.388777e+00,	8.731192e-02	
416	1.445440e+07	2.389200e+00,	8.931344e-02	
