  ** sch_path: /home/andylithia/openmpw/project-reisen-chip1/xschem/ctle_3.sch
  AC Analysis  Mon Oct 31 00:06:33  2022
--------------------------------------------------------------------------------
Index   frequency       vop                             
--------------------------------------------------------------------------------
0	1.000000e+03	1.079434e-01,	7.506550e-07	
1	1.023293e+03	1.079434e-01,	7.681400e-07	
2	1.047129e+03	1.079434e-01,	7.860323e-07	
3	1.071519e+03	1.079434e-01,	8.043414e-07	
4	1.096478e+03	1.079434e-01,	8.230769e-07	
5	1.122018e+03	1.079434e-01,	8.422488e-07	
6	1.148154e+03	1.079434e-01,	8.618673e-07	
7	1.174898e+03	1.079434e-01,	8.819428e-07	
8	1.202264e+03	1.079434e-01,	9.024859e-07	
9	1.230269e+03	1.079434e-01,	9.235074e-07	
10	1.258925e+03	1.079434e-01,	9.450187e-07	
11	1.288250e+03	1.079434e-01,	9.670310e-07	
12	1.318257e+03	1.079434e-01,	9.895561e-07	
13	1.348963e+03	1.079434e-01,	1.012606e-06	
14	1.380384e+03	1.079434e-01,	1.036192e-06	
15	1.412538e+03	1.079434e-01,	1.060328e-06	
16	1.445440e+03	1.079434e-01,	1.085027e-06	
17	1.479108e+03	1.079434e-01,	1.110300e-06	
18	1.513561e+03	1.079434e-01,	1.136162e-06	
19	1.548817e+03	1.079434e-01,	1.162627e-06	
20	1.584893e+03	1.079434e-01,	1.189708e-06	
21	1.621810e+03	1.079434e-01,	1.217420e-06	
22	1.659587e+03	1.079434e-01,	1.245777e-06	
23	1.698244e+03	1.079434e-01,	1.274795e-06	
24	1.737801e+03	1.079434e-01,	1.304489e-06	
25	1.778279e+03	1.079434e-01,	1.334874e-06	
26	1.819701e+03	1.079434e-01,	1.365968e-06	
27	1.862087e+03	1.079434e-01,	1.397785e-06	
28	1.905461e+03	1.079434e-01,	1.430344e-06	
29	1.949845e+03	1.079434e-01,	1.463661e-06	
30	1.995262e+03	1.079434e-01,	1.497754e-06	
31	2.041738e+03	1.079434e-01,	1.532641e-06	
32	2.089296e+03	1.079434e-01,	1.568341e-06	
33	2.137962e+03	1.079434e-01,	1.604872e-06	
34	2.187762e+03	1.079434e-01,	1.642254e-06	
35	2.238721e+03	1.079434e-01,	1.680507e-06	
36	2.290868e+03	1.079434e-01,	1.719651e-06	
37	2.344229e+03	1.079434e-01,	1.759707e-06	
38	2.398833e+03	1.079434e-01,	1.800696e-06	
39	2.454709e+03	1.079434e-01,	1.842640e-06	
40	2.511886e+03	1.079434e-01,	1.885560e-06	
41	2.570396e+03	1.079434e-01,	1.929481e-06	
42	2.630268e+03	1.079434e-01,	1.974424e-06	
43	2.691535e+03	1.079434e-01,	2.020414e-06	
44	2.754229e+03	1.079434e-01,	2.067476e-06	
45	2.818383e+03	1.079434e-01,	2.115633e-06	
46	2.884032e+03	1.079434e-01,	2.164913e-06	
47	2.951209e+03	1.079434e-01,	2.215340e-06	
48	3.019952e+03	1.079434e-01,	2.266942e-06	
49	3.090295e+03	1.079434e-01,	2.319746e-06	
50	3.162278e+03	1.079434e-01,	2.373780e-06	
51	3.235937e+03	1.079434e-01,	2.429072e-06	
52	3.311311e+03	1.079434e-01,	2.485652e-06	
53	3.388442e+03	1.079434e-01,	2.543551e-06	
54	3.467369e+03	1.079434e-01,	2.602798e-06	

Index   frequency       vop                             
--------------------------------------------------------------------------------
55	3.548134e+03	1.079434e-01,	2.663425e-06	
56	3.630781e+03	1.079434e-01,	2.725464e-06	
57	3.715352e+03	1.079434e-01,	2.788948e-06	
58	3.801894e+03	1.079434e-01,	2.853911e-06	
59	3.890451e+03	1.079434e-01,	2.920387e-06	
60	3.981072e+03	1.079434e-01,	2.988412e-06	
61	4.073803e+03	1.079434e-01,	3.058021e-06	
62	4.168694e+03	1.079434e-01,	3.129251e-06	
63	4.265795e+03	1.079434e-01,	3.202141e-06	
64	4.365158e+03	1.079434e-01,	3.276728e-06	
65	4.466836e+03	1.079434e-01,	3.353053e-06	
66	4.570882e+03	1.079434e-01,	3.431156e-06	
67	4.677351e+03	1.079434e-01,	3.511077e-06	
68	4.786301e+03	1.079434e-01,	3.592861e-06	
69	4.897788e+03	1.079434e-01,	3.676549e-06	
70	5.011872e+03	1.079434e-01,	3.762187e-06	
71	5.128614e+03	1.079434e-01,	3.849820e-06	
72	5.248075e+03	1.079434e-01,	3.939494e-06	
73	5.370318e+03	1.079434e-01,	4.031256e-06	
74	5.495409e+03	1.079434e-01,	4.125156e-06	
75	5.623413e+03	1.079434e-01,	4.221243e-06	
76	5.754399e+03	1.079434e-01,	4.319569e-06	
77	5.888437e+03	1.079434e-01,	4.420185e-06	
78	6.025596e+03	1.079434e-01,	4.523144e-06	
79	6.165950e+03	1.079434e-01,	4.628501e-06	
80	6.309573e+03	1.079434e-01,	4.736313e-06	
81	6.456542e+03	1.079434e-01,	4.846636e-06	
82	6.606934e+03	1.079434e-01,	4.959529e-06	
83	6.760830e+03	1.079434e-01,	5.075051e-06	
84	6.918310e+03	1.079434e-01,	5.193264e-06	
85	7.079458e+03	1.079434e-01,	5.314231e-06	
86	7.244360e+03	1.079434e-01,	5.438015e-06	
87	7.413102e+03	1.079434e-01,	5.564683e-06	
88	7.585776e+03	1.079434e-01,	5.694301e-06	
89	7.762471e+03	1.079434e-01,	5.826938e-06	
90	7.943282e+03	1.079434e-01,	5.962665e-06	
91	8.128305e+03	1.079434e-01,	6.101553e-06	
92	8.317638e+03	1.079434e-01,	6.243677e-06	
93	8.511380e+03	1.079434e-01,	6.389111e-06	
94	8.709636e+03	1.079434e-01,	6.537932e-06	
95	8.912509e+03	1.079434e-01,	6.690220e-06	
96	9.120108e+03	1.079434e-01,	6.846055e-06	
97	9.332543e+03	1.079434e-01,	7.005520e-06	
98	9.549926e+03	1.079434e-01,	7.168700e-06	
99	9.772372e+03	1.079434e-01,	7.335680e-06	
100	1.000000e+04	1.079434e-01,	7.506550e-06	
101	1.023293e+04	1.079434e-01,	7.681400e-06	
102	1.047129e+04	1.079434e-01,	7.860323e-06	
103	1.071519e+04	1.079434e-01,	8.043414e-06	
104	1.096478e+04	1.079434e-01,	8.230769e-06	
105	1.122018e+04	1.079434e-01,	8.422488e-06	
106	1.148154e+04	1.079434e-01,	8.618673e-06	
107	1.174898e+04	1.079434e-01,	8.819428e-06	
108	1.202264e+04	1.079434e-01,	9.024859e-06	
109	1.230269e+04	1.079434e-01,	9.235074e-06	
110	1.258925e+04	1.079434e-01,	9.450187e-06	
111	1.288250e+04	1.079434e-01,	9.670310e-06	
112	1.318257e+04	1.079434e-01,	9.895561e-06	

Index   frequency       vop                             
--------------------------------------------------------------------------------
113	1.348963e+04	1.079434e-01,	1.012606e-05	
114	1.380384e+04	1.079434e-01,	1.036192e-05	
115	1.412538e+04	1.079434e-01,	1.060328e-05	
116	1.445440e+04	1.079434e-01,	1.085027e-05	
117	1.479108e+04	1.079434e-01,	1.110300e-05	
118	1.513561e+04	1.079434e-01,	1.136162e-05	
119	1.548817e+04	1.079434e-01,	1.162627e-05	
120	1.584893e+04	1.079434e-01,	1.189708e-05	
121	1.621810e+04	1.079434e-01,	1.217420e-05	
122	1.659587e+04	1.079434e-01,	1.245777e-05	
123	1.698244e+04	1.079434e-01,	1.274795e-05	
124	1.737801e+04	1.079434e-01,	1.304489e-05	
125	1.778279e+04	1.079434e-01,	1.334874e-05	
126	1.819701e+04	1.079434e-01,	1.365968e-05	
127	1.862087e+04	1.079434e-01,	1.397785e-05	
128	1.905461e+04	1.079434e-01,	1.430344e-05	
129	1.949845e+04	1.079434e-01,	1.463661e-05	
130	1.995262e+04	1.079434e-01,	1.497754e-05	
131	2.041738e+04	1.079434e-01,	1.532641e-05	
132	2.089296e+04	1.079434e-01,	1.568341e-05	
133	2.137962e+04	1.079434e-01,	1.604872e-05	
134	2.187762e+04	1.079434e-01,	1.642254e-05	
135	2.238721e+04	1.079434e-01,	1.680507e-05	
136	2.290868e+04	1.079434e-01,	1.719651e-05	
137	2.344229e+04	1.079434e-01,	1.759707e-05	
138	2.398833e+04	1.079434e-01,	1.800696e-05	
139	2.454709e+04	1.079434e-01,	1.842640e-05	
140	2.511886e+04	1.079434e-01,	1.885560e-05	
141	2.570396e+04	1.079434e-01,	1.929481e-05	
142	2.630268e+04	1.079434e-01,	1.974424e-05	
143	2.691535e+04	1.079434e-01,	2.020414e-05	
144	2.754229e+04	1.079434e-01,	2.067476e-05	
145	2.818383e+04	1.079434e-01,	2.115633e-05	
146	2.884032e+04	1.079434e-01,	2.164913e-05	
147	2.951209e+04	1.079434e-01,	2.215340e-05	
148	3.019952e+04	1.079434e-01,	2.266942e-05	
149	3.090295e+04	1.079434e-01,	2.319746e-05	
150	3.162278e+04	1.079434e-01,	2.373780e-05	
151	3.235937e+04	1.079434e-01,	2.429072e-05	
152	3.311311e+04	1.079434e-01,	2.485652e-05	
153	3.388442e+04	1.079434e-01,	2.543551e-05	
154	3.467369e+04	1.079434e-01,	2.602798e-05	
155	3.548134e+04	1.079434e-01,	2.663425e-05	
156	3.630781e+04	1.079434e-01,	2.725464e-05	
157	3.715352e+04	1.079434e-01,	2.788948e-05	
158	3.801894e+04	1.079434e-01,	2.853911e-05	
159	3.890451e+04	1.079434e-01,	2.920387e-05	
160	3.981072e+04	1.079434e-01,	2.988412e-05	
161	4.073803e+04	1.079434e-01,	3.058021e-05	
162	4.168694e+04	1.079434e-01,	3.129251e-05	
163	4.265795e+04	1.079434e-01,	3.202141e-05	
164	4.365158e+04	1.079434e-01,	3.276728e-05	
165	4.466836e+04	1.079434e-01,	3.353053e-05	
166	4.570882e+04	1.079434e-01,	3.431155e-05	
167	4.677351e+04	1.079434e-01,	3.511077e-05	
168	4.786301e+04	1.079434e-01,	3.592861e-05	
169	4.897788e+04	1.079434e-01,	3.676549e-05	
170	5.011872e+04	1.079434e-01,	3.762187e-05	

Index   frequency       vop                             
--------------------------------------------------------------------------------
171	5.128614e+04	1.079434e-01,	3.849820e-05	
172	5.248075e+04	1.079434e-01,	3.939494e-05	
173	5.370318e+04	1.079434e-01,	4.031256e-05	
174	5.495409e+04	1.079434e-01,	4.125156e-05	
175	5.623413e+04	1.079434e-01,	4.221243e-05	
176	5.754399e+04	1.079434e-01,	4.319569e-05	
177	5.888437e+04	1.079434e-01,	4.420184e-05	
178	6.025596e+04	1.079434e-01,	4.523144e-05	
179	6.165950e+04	1.079434e-01,	4.628501e-05	
180	6.309573e+04	1.079434e-01,	4.736313e-05	
181	6.456542e+04	1.079434e-01,	4.846636e-05	
182	6.606934e+04	1.079434e-01,	4.959529e-05	
183	6.760830e+04	1.079434e-01,	5.075051e-05	
184	6.918310e+04	1.079434e-01,	5.193264e-05	
185	7.079458e+04	1.079434e-01,	5.314231e-05	
186	7.244360e+04	1.079434e-01,	5.438015e-05	
187	7.413102e+04	1.079434e-01,	5.564683e-05	
188	7.585776e+04	1.079434e-01,	5.694301e-05	
189	7.762471e+04	1.079434e-01,	5.826938e-05	
190	7.943282e+04	1.079434e-01,	5.962665e-05	
191	8.128305e+04	1.079434e-01,	6.101553e-05	
192	8.317638e+04	1.079434e-01,	6.243676e-05	
193	8.511380e+04	1.079434e-01,	6.389110e-05	
194	8.709636e+04	1.079434e-01,	6.537932e-05	
195	8.912509e+04	1.079434e-01,	6.690220e-05	
196	9.120108e+04	1.079434e-01,	6.846055e-05	
197	9.332543e+04	1.079434e-01,	7.005520e-05	
198	9.549926e+04	1.079434e-01,	7.168700e-05	
199	9.772372e+04	1.079434e-01,	7.335680e-05	
200	1.000000e+05	1.079434e-01,	7.506550e-05	
201	1.023293e+05	1.079434e-01,	7.681400e-05	
202	1.047129e+05	1.079434e-01,	7.860323e-05	
203	1.071519e+05	1.079434e-01,	8.043413e-05	
204	1.096478e+05	1.079434e-01,	8.230768e-05	
205	1.122018e+05	1.079434e-01,	8.422488e-05	
206	1.148154e+05	1.079434e-01,	8.618673e-05	
207	1.174898e+05	1.079434e-01,	8.819427e-05	
208	1.202264e+05	1.079434e-01,	9.024858e-05	
209	1.230269e+05	1.079434e-01,	9.235074e-05	
210	1.258925e+05	1.079434e-01,	9.450186e-05	
211	1.288250e+05	1.079434e-01,	9.670310e-05	
212	1.318257e+05	1.079434e-01,	9.895560e-05	
213	1.348963e+05	1.079434e-01,	1.012606e-04	
214	1.380384e+05	1.079434e-01,	1.036192e-04	
215	1.412538e+05	1.079434e-01,	1.060328e-04	
216	1.445440e+05	1.079434e-01,	1.085027e-04	
217	1.479108e+05	1.079434e-01,	1.110300e-04	
218	1.513561e+05	1.079434e-01,	1.136162e-04	
219	1.548817e+05	1.079434e-01,	1.162627e-04	
220	1.584893e+05	1.079434e-01,	1.189708e-04	
221	1.621810e+05	1.079434e-01,	1.217420e-04	
222	1.659587e+05	1.079434e-01,	1.245777e-04	
223	1.698244e+05	1.079434e-01,	1.274795e-04	
224	1.737801e+05	1.079434e-01,	1.304489e-04	
225	1.778279e+05	1.079434e-01,	1.334874e-04	
226	1.819701e+05	1.079434e-01,	1.365967e-04	
227	1.862087e+05	1.079434e-01,	1.397785e-04	
228	1.905461e+05	1.079434e-01,	1.430344e-04	

Index   frequency       vop                             
--------------------------------------------------------------------------------
229	1.949845e+05	1.079434e-01,	1.463660e-04	
230	1.995262e+05	1.079434e-01,	1.497753e-04	
231	2.041738e+05	1.079434e-01,	1.532641e-04	
232	2.089296e+05	1.079434e-01,	1.568340e-04	
233	2.137962e+05	1.079434e-01,	1.604872e-04	
234	2.187762e+05	1.079434e-01,	1.642254e-04	
235	2.238721e+05	1.079434e-01,	1.680507e-04	
236	2.290868e+05	1.079434e-01,	1.719651e-04	
237	2.344229e+05	1.079434e-01,	1.759707e-04	
238	2.398833e+05	1.079434e-01,	1.800696e-04	
239	2.454709e+05	1.079434e-01,	1.842639e-04	
240	2.511886e+05	1.079434e-01,	1.885560e-04	
241	2.570396e+05	1.079434e-01,	1.929480e-04	
242	2.630268e+05	1.079434e-01,	1.974423e-04	
243	2.691535e+05	1.079434e-01,	2.020414e-04	
244	2.754229e+05	1.079434e-01,	2.067475e-04	
245	2.818383e+05	1.079434e-01,	2.115633e-04	
246	2.884032e+05	1.079434e-01,	2.164912e-04	
247	2.951209e+05	1.079434e-01,	2.215339e-04	
248	3.019952e+05	1.079434e-01,	2.266941e-04	
249	3.090295e+05	1.079434e-01,	2.319745e-04	
250	3.162278e+05	1.079434e-01,	2.373779e-04	
251	3.235937e+05	1.079434e-01,	2.429071e-04	
252	3.311311e+05	1.079434e-01,	2.485652e-04	
253	3.388442e+05	1.079434e-01,	2.543550e-04	
254	3.467369e+05	1.079434e-01,	2.602797e-04	
255	3.548134e+05	1.079435e-01,	2.663423e-04	
256	3.630781e+05	1.079435e-01,	2.725462e-04	
257	3.715352e+05	1.079435e-01,	2.788947e-04	
258	3.801894e+05	1.079435e-01,	2.853909e-04	
259	3.890451e+05	1.079435e-01,	2.920385e-04	
260	3.981072e+05	1.079435e-01,	2.988410e-04	
261	4.073803e+05	1.079435e-01,	3.058019e-04	
262	4.168694e+05	1.079435e-01,	3.129249e-04	
263	4.265795e+05	1.079435e-01,	3.202139e-04	
264	4.365158e+05	1.079435e-01,	3.276726e-04	
265	4.466836e+05	1.079435e-01,	3.353051e-04	
266	4.570882e+05	1.079435e-01,	3.431153e-04	
267	4.677351e+05	1.079435e-01,	3.511075e-04	
268	4.786301e+05	1.079435e-01,	3.592858e-04	
269	4.897788e+05	1.079435e-01,	3.676546e-04	
270	5.011872e+05	1.079435e-01,	3.762184e-04	
271	5.128614e+05	1.079435e-01,	3.849816e-04	
272	5.248075e+05	1.079435e-01,	3.939490e-04	
273	5.370318e+05	1.079435e-01,	4.031252e-04	
274	5.495409e+05	1.079435e-01,	4.125152e-04	
275	5.623413e+05	1.079435e-01,	4.221239e-04	
276	5.754399e+05	1.079435e-01,	4.319564e-04	
277	5.888437e+05	1.079435e-01,	4.420179e-04	
278	6.025596e+05	1.079436e-01,	4.523138e-04	
279	6.165950e+05	1.079436e-01,	4.628496e-04	
280	6.309573e+05	1.079436e-01,	4.736307e-04	
281	6.456542e+05	1.079436e-01,	4.846629e-04	
282	6.606934e+05	1.079436e-01,	4.959521e-04	
283	6.760830e+05	1.079436e-01,	5.075043e-04	
284	6.918310e+05	1.079436e-01,	5.193256e-04	
285	7.079458e+05	1.079436e-01,	5.314222e-04	
286	7.244360e+05	1.079436e-01,	5.438006e-04	

Index   frequency       vop                             
--------------------------------------------------------------------------------
287	7.413102e+05	1.079436e-01,	5.564672e-04	
288	7.585776e+05	1.079437e-01,	5.694290e-04	
289	7.762471e+05	1.079437e-01,	5.826926e-04	
290	7.943282e+05	1.079437e-01,	5.962652e-04	
291	8.128305e+05	1.079437e-01,	6.101540e-04	
292	8.317638e+05	1.079437e-01,	6.243662e-04	
293	8.511380e+05	1.079437e-01,	6.389095e-04	
294	8.709636e+05	1.079437e-01,	6.537916e-04	
295	8.912509e+05	1.079437e-01,	6.690203e-04	
296	9.120108e+05	1.079438e-01,	6.846037e-04	
297	9.332543e+05	1.079438e-01,	7.005500e-04	
298	9.549926e+05	1.079438e-01,	7.168679e-04	
299	9.772372e+05	1.079438e-01,	7.335658e-04	
300	1.000000e+06	1.079438e-01,	7.506526e-04	
301	1.023293e+06	1.079439e-01,	7.681374e-04	
302	1.047129e+06	1.079439e-01,	7.860295e-04	
303	1.071519e+06	1.079439e-01,	8.043384e-04	
304	1.096478e+06	1.079439e-01,	8.230737e-04	
305	1.122018e+06	1.079440e-01,	8.422454e-04	
306	1.148154e+06	1.079440e-01,	8.618636e-04	
307	1.174898e+06	1.079440e-01,	8.819389e-04	
308	1.202264e+06	1.079440e-01,	9.024817e-04	
309	1.230269e+06	1.079441e-01,	9.235030e-04	
310	1.258925e+06	1.079441e-01,	9.450139e-04	
311	1.288250e+06	1.079441e-01,	9.670259e-04	
312	1.318257e+06	1.079442e-01,	9.895506e-04	
313	1.348963e+06	1.079442e-01,	1.012600e-03	
314	1.380384e+06	1.079442e-01,	1.036186e-03	
315	1.412538e+06	1.079443e-01,	1.060322e-03	
316	1.445440e+06	1.079443e-01,	1.085020e-03	
317	1.479108e+06	1.079444e-01,	1.110293e-03	
318	1.513561e+06	1.079444e-01,	1.136154e-03	
319	1.548817e+06	1.079445e-01,	1.162618e-03	
320	1.584893e+06	1.079445e-01,	1.189699e-03	
321	1.621810e+06	1.079446e-01,	1.217410e-03	
322	1.659587e+06	1.079446e-01,	1.245767e-03	
323	1.698244e+06	1.079447e-01,	1.274784e-03	
324	1.737801e+06	1.079447e-01,	1.304477e-03	
325	1.778279e+06	1.079448e-01,	1.334862e-03	
326	1.819701e+06	1.079449e-01,	1.365954e-03	
327	1.862087e+06	1.079449e-01,	1.397771e-03	
328	1.905461e+06	1.079450e-01,	1.430329e-03	
329	1.949845e+06	1.079451e-01,	1.463645e-03	
330	1.995262e+06	1.079452e-01,	1.497737e-03	
331	2.041738e+06	1.079453e-01,	1.532623e-03	
332	2.089296e+06	1.079453e-01,	1.568322e-03	
333	2.137962e+06	1.079454e-01,	1.604852e-03	
334	2.187762e+06	1.079455e-01,	1.642233e-03	
335	2.238721e+06	1.079456e-01,	1.680485e-03	
336	2.290868e+06	1.079457e-01,	1.719627e-03	
337	2.344229e+06	1.079458e-01,	1.759682e-03	
338	2.398833e+06	1.079460e-01,	1.800669e-03	
339	2.454709e+06	1.079461e-01,	1.842611e-03	
340	2.511886e+06	1.079462e-01,	1.885530e-03	
341	2.570396e+06	1.079463e-01,	1.929449e-03	
342	2.630268e+06	1.079465e-01,	1.974391e-03	
343	2.691535e+06	1.079466e-01,	2.020379e-03	
344	2.754229e+06	1.079468e-01,	2.067439e-03	

Index   frequency       vop                             
--------------------------------------------------------------------------------
345	2.818383e+06	1.079469e-01,	2.115595e-03	
346	2.884032e+06	1.079471e-01,	2.164873e-03	
347	2.951209e+06	1.079473e-01,	2.215298e-03	
348	3.019952e+06	1.079474e-01,	2.266898e-03	
349	3.090295e+06	1.079476e-01,	2.319700e-03	
350	3.162278e+06	1.079478e-01,	2.373732e-03	
351	3.235937e+06	1.079480e-01,	2.429022e-03	
352	3.311311e+06	1.079482e-01,	2.485601e-03	
353	3.388442e+06	1.079485e-01,	2.543497e-03	
354	3.467369e+06	1.079487e-01,	2.602743e-03	
355	3.548134e+06	1.079490e-01,	2.663368e-03	
356	3.630781e+06	1.079492e-01,	2.725405e-03	
357	3.715352e+06	1.079495e-01,	2.788888e-03	
358	3.801894e+06	1.079498e-01,	2.853850e-03	
359	3.890451e+06	1.079501e-01,	2.920325e-03	
360	3.981072e+06	1.079504e-01,	2.988348e-03	
361	4.073803e+06	1.079507e-01,	3.057957e-03	
362	4.168694e+06	1.079511e-01,	3.129187e-03	
363	4.265795e+06	1.079514e-01,	3.202076e-03	
364	4.365158e+06	1.079518e-01,	3.276664e-03	
365	4.466836e+06	1.079522e-01,	3.352989e-03	
366	4.570882e+06	1.079526e-01,	3.431093e-03	
367	4.677351e+06	1.079530e-01,	3.511016e-03	
368	4.786301e+06	1.079535e-01,	3.592801e-03	
369	4.897788e+06	1.079540e-01,	3.676492e-03	
370	5.011872e+06	1.079544e-01,	3.762132e-03	
371	5.128614e+06	1.079550e-01,	3.849768e-03	
372	5.248075e+06	1.079555e-01,	3.939446e-03	
373	5.370318e+06	1.079561e-01,	4.031213e-03	
374	5.495409e+06	1.079567e-01,	4.125117e-03	
375	5.623413e+06	1.079573e-01,	4.221210e-03	
376	5.754399e+06	1.079580e-01,	4.319541e-03	
377	5.888437e+06	1.079586e-01,	4.420163e-03	
378	6.025596e+06	1.079594e-01,	4.523130e-03	
379	6.165950e+06	1.079601e-01,	4.628494e-03	
380	6.309573e+06	1.079609e-01,	4.736314e-03	
381	6.456542e+06	1.079617e-01,	4.846645e-03	
382	6.606934e+06	1.079626e-01,	4.959546e-03	
383	6.760830e+06	1.079635e-01,	5.075078e-03	
384	6.918310e+06	1.079645e-01,	5.193300e-03	
385	7.079458e+06	1.079655e-01,	5.314276e-03	
386	7.244360e+06	1.079665e-01,	5.438070e-03	
387	7.413102e+06	1.079676e-01,	5.564748e-03	
388	7.585776e+06	1.079688e-01,	5.694376e-03	
389	7.762471e+06	1.079700e-01,	5.827023e-03	
390	7.943282e+06	1.079713e-01,	5.962759e-03	
391	8.128305e+06	1.079726e-01,	6.101657e-03	
392	8.317638e+06	1.079740e-01,	6.243790e-03	
393	8.511380e+06	1.079754e-01,	6.389233e-03	
394	8.709636e+06	1.079770e-01,	6.538063e-03	
395	8.912509e+06	1.079786e-01,	6.690360e-03	
396	9.120108e+06	1.079802e-01,	6.846203e-03	
397	9.332543e+06	1.079820e-01,	7.005675e-03	
398	9.549926e+06	1.079838e-01,	7.168861e-03	
399	9.772372e+06	1.079857e-01,	7.335846e-03	
400	1.000000e+07	1.079878e-01,	7.506721e-03	
401	1.023293e+07	1.079899e-01,	7.681574e-03	
402	1.047129e+07	1.079921e-01,	7.860500e-03	

Index   frequency       vop                             
--------------------------------------------------------------------------------
403	1.071519e+07	1.079944e-01,	8.043591e-03	
404	1.096478e+07	1.079968e-01,	8.230946e-03	
405	1.122018e+07	1.079994e-01,	8.422663e-03	
406	1.148154e+07	1.080020e-01,	8.618845e-03	
407	1.174898e+07	1.080048e-01,	8.819594e-03	
408	1.202264e+07	1.080077e-01,	9.025018e-03	
409	1.230269e+07	1.080108e-01,	9.235225e-03	
410	1.258925e+07	1.080140e-01,	9.450326e-03	
411	1.288250e+07	1.080173e-01,	9.670435e-03	
412	1.318257e+07	1.080208e-01,	9.895669e-03	
413	1.348963e+07	1.080245e-01,	1.012615e-02	
414	1.380384e+07	1.080284e-01,	1.036199e-02	
415	1.412538e+07	1.080324e-01,	1.060332e-02	
416	1.445440e+07	1.080366e-01,	1.085028e-02	
