  ** sch_path: /home/andylithia/openmpw/project-reisen-chip1/xschem/ctle_3.sch
  AC Analysis  Mon Oct 31 00:06:33  2022
--------------------------------------------------------------------------------
Index   frequency       vop                             
--------------------------------------------------------------------------------
0	1.000000e+03	1.076225e-01,	7.544791e-07	
1	1.023293e+03	1.076225e-01,	7.720532e-07	
2	1.047129e+03	1.076225e-01,	7.900366e-07	
3	1.071519e+03	1.076225e-01,	8.084390e-07	
4	1.096478e+03	1.076225e-01,	8.272699e-07	
5	1.122018e+03	1.076225e-01,	8.465395e-07	
6	1.148154e+03	1.076225e-01,	8.662580e-07	
7	1.174898e+03	1.076225e-01,	8.864357e-07	
8	1.202264e+03	1.076225e-01,	9.070834e-07	
9	1.230269e+03	1.076225e-01,	9.282121e-07	
10	1.258925e+03	1.076225e-01,	9.498330e-07	
11	1.288250e+03	1.076225e-01,	9.719574e-07	
12	1.318257e+03	1.076225e-01,	9.945972e-07	
13	1.348963e+03	1.076225e-01,	1.017764e-06	
14	1.380384e+03	1.076225e-01,	1.041471e-06	
15	1.412538e+03	1.076225e-01,	1.065730e-06	
16	1.445440e+03	1.076225e-01,	1.090554e-06	
17	1.479108e+03	1.076225e-01,	1.115956e-06	
18	1.513561e+03	1.076225e-01,	1.141950e-06	
19	1.548817e+03	1.076225e-01,	1.168550e-06	
20	1.584893e+03	1.076225e-01,	1.195769e-06	
21	1.621810e+03	1.076225e-01,	1.223622e-06	
22	1.659587e+03	1.076225e-01,	1.252124e-06	
23	1.698244e+03	1.076225e-01,	1.281289e-06	
24	1.737801e+03	1.076225e-01,	1.311134e-06	
25	1.778279e+03	1.076225e-01,	1.341675e-06	
26	1.819701e+03	1.076225e-01,	1.372926e-06	
27	1.862087e+03	1.076225e-01,	1.404906e-06	
28	1.905461e+03	1.076225e-01,	1.437630e-06	
29	1.949845e+03	1.076225e-01,	1.471117e-06	
30	1.995262e+03	1.076225e-01,	1.505384e-06	
31	2.041738e+03	1.076225e-01,	1.540449e-06	
32	2.089296e+03	1.076225e-01,	1.576330e-06	
33	2.137962e+03	1.076225e-01,	1.613048e-06	
34	2.187762e+03	1.076225e-01,	1.650621e-06	
35	2.238721e+03	1.076225e-01,	1.689068e-06	
36	2.290868e+03	1.076225e-01,	1.728412e-06	
37	2.344229e+03	1.076225e-01,	1.768672e-06	
38	2.398833e+03	1.076225e-01,	1.809869e-06	
39	2.454709e+03	1.076225e-01,	1.852027e-06	
40	2.511886e+03	1.076225e-01,	1.895166e-06	
41	2.570396e+03	1.076225e-01,	1.939310e-06	
42	2.630268e+03	1.076225e-01,	1.984482e-06	
43	2.691535e+03	1.076225e-01,	2.030707e-06	
44	2.754229e+03	1.076225e-01,	2.078008e-06	
45	2.818383e+03	1.076225e-01,	2.126411e-06	
46	2.884032e+03	1.076225e-01,	2.175942e-06	
47	2.951209e+03	1.076225e-01,	2.226626e-06	
48	3.019952e+03	1.076225e-01,	2.278491e-06	
49	3.090295e+03	1.076225e-01,	2.331563e-06	
50	3.162278e+03	1.076225e-01,	2.385873e-06	
51	3.235937e+03	1.076225e-01,	2.441447e-06	
52	3.311311e+03	1.076225e-01,	2.498315e-06	
53	3.388442e+03	1.076225e-01,	2.556508e-06	
54	3.467369e+03	1.076225e-01,	2.616057e-06	

Index   frequency       vop                             
--------------------------------------------------------------------------------
55	3.548134e+03	1.076225e-01,	2.676993e-06	
56	3.630781e+03	1.076225e-01,	2.739348e-06	
57	3.715352e+03	1.076225e-01,	2.803156e-06	
58	3.801894e+03	1.076225e-01,	2.868450e-06	
59	3.890451e+03	1.076225e-01,	2.935264e-06	
60	3.981072e+03	1.076225e-01,	3.003636e-06	
61	4.073803e+03	1.076225e-01,	3.073599e-06	
62	4.168694e+03	1.076225e-01,	3.145193e-06	
63	4.265795e+03	1.076225e-01,	3.218453e-06	
64	4.365158e+03	1.076225e-01,	3.293421e-06	
65	4.466836e+03	1.076225e-01,	3.370135e-06	
66	4.570882e+03	1.076225e-01,	3.448635e-06	
67	4.677351e+03	1.076225e-01,	3.528964e-06	
68	4.786301e+03	1.076225e-01,	3.611164e-06	
69	4.897788e+03	1.076225e-01,	3.695279e-06	
70	5.011872e+03	1.076225e-01,	3.781353e-06	
71	5.128614e+03	1.076225e-01,	3.869432e-06	
72	5.248075e+03	1.076225e-01,	3.959563e-06	
73	5.370318e+03	1.076225e-01,	4.051793e-06	
74	5.495409e+03	1.076225e-01,	4.146171e-06	
75	5.623413e+03	1.076225e-01,	4.242748e-06	
76	5.754399e+03	1.076225e-01,	4.341574e-06	
77	5.888437e+03	1.076225e-01,	4.442703e-06	
78	6.025596e+03	1.076225e-01,	4.546186e-06	
79	6.165950e+03	1.076225e-01,	4.652081e-06	
80	6.309573e+03	1.076225e-01,	4.760442e-06	
81	6.456542e+03	1.076225e-01,	4.871326e-06	
82	6.606934e+03	1.076225e-01,	4.984794e-06	
83	6.760830e+03	1.076225e-01,	5.100905e-06	
84	6.918310e+03	1.076225e-01,	5.219720e-06	
85	7.079458e+03	1.076225e-01,	5.341303e-06	
86	7.244360e+03	1.076225e-01,	5.465718e-06	
87	7.413102e+03	1.076225e-01,	5.593031e-06	
88	7.585776e+03	1.076225e-01,	5.723310e-06	
89	7.762471e+03	1.076225e-01,	5.856623e-06	
90	7.943282e+03	1.076225e-01,	5.993041e-06	
91	8.128305e+03	1.076225e-01,	6.132637e-06	
92	8.317638e+03	1.076225e-01,	6.275484e-06	
93	8.511380e+03	1.076225e-01,	6.421659e-06	
94	8.709636e+03	1.076225e-01,	6.571239e-06	
95	8.912509e+03	1.076225e-01,	6.724302e-06	
96	9.120108e+03	1.076225e-01,	6.880932e-06	
97	9.332543e+03	1.076225e-01,	7.041209e-06	
98	9.549926e+03	1.076225e-01,	7.205220e-06	
99	9.772372e+03	1.076225e-01,	7.373051e-06	
100	1.000000e+04	1.076225e-01,	7.544791e-06	
101	1.023293e+04	1.076225e-01,	7.720532e-06	
102	1.047129e+04	1.076225e-01,	7.900366e-06	
103	1.071519e+04	1.076225e-01,	8.084390e-06	
104	1.096478e+04	1.076225e-01,	8.272699e-06	
105	1.122018e+04	1.076225e-01,	8.465395e-06	
106	1.148154e+04	1.076225e-01,	8.662580e-06	
107	1.174898e+04	1.076225e-01,	8.864357e-06	
108	1.202264e+04	1.076225e-01,	9.070834e-06	
109	1.230269e+04	1.076225e-01,	9.282121e-06	
110	1.258925e+04	1.076225e-01,	9.498330e-06	
111	1.288250e+04	1.076225e-01,	9.719574e-06	
112	1.318257e+04	1.076225e-01,	9.945972e-06	

Index   frequency       vop                             
--------------------------------------------------------------------------------
113	1.348963e+04	1.076225e-01,	1.017764e-05	
114	1.380384e+04	1.076225e-01,	1.041471e-05	
115	1.412538e+04	1.076225e-01,	1.065730e-05	
116	1.445440e+04	1.076225e-01,	1.090554e-05	
117	1.479108e+04	1.076225e-01,	1.115956e-05	
118	1.513561e+04	1.076225e-01,	1.141950e-05	
119	1.548817e+04	1.076225e-01,	1.168550e-05	
120	1.584893e+04	1.076225e-01,	1.195769e-05	
121	1.621810e+04	1.076225e-01,	1.223622e-05	
122	1.659587e+04	1.076225e-01,	1.252124e-05	
123	1.698244e+04	1.076225e-01,	1.281289e-05	
124	1.737801e+04	1.076225e-01,	1.311134e-05	
125	1.778279e+04	1.076225e-01,	1.341675e-05	
126	1.819701e+04	1.076225e-01,	1.372926e-05	
127	1.862087e+04	1.076225e-01,	1.404906e-05	
128	1.905461e+04	1.076225e-01,	1.437630e-05	
129	1.949845e+04	1.076225e-01,	1.471117e-05	
130	1.995262e+04	1.076225e-01,	1.505384e-05	
131	2.041738e+04	1.076225e-01,	1.540449e-05	
132	2.089296e+04	1.076225e-01,	1.576330e-05	
133	2.137962e+04	1.076225e-01,	1.613048e-05	
134	2.187762e+04	1.076225e-01,	1.650621e-05	
135	2.238721e+04	1.076225e-01,	1.689068e-05	
136	2.290868e+04	1.076225e-01,	1.728412e-05	
137	2.344229e+04	1.076225e-01,	1.768672e-05	
138	2.398833e+04	1.076225e-01,	1.809869e-05	
139	2.454709e+04	1.076225e-01,	1.852027e-05	
140	2.511886e+04	1.076225e-01,	1.895166e-05	
141	2.570396e+04	1.076225e-01,	1.939310e-05	
142	2.630268e+04	1.076225e-01,	1.984482e-05	
143	2.691535e+04	1.076225e-01,	2.030707e-05	
144	2.754229e+04	1.076225e-01,	2.078008e-05	
145	2.818383e+04	1.076225e-01,	2.126411e-05	
146	2.884032e+04	1.076225e-01,	2.175942e-05	
147	2.951209e+04	1.076225e-01,	2.226626e-05	
148	3.019952e+04	1.076225e-01,	2.278491e-05	
149	3.090295e+04	1.076225e-01,	2.331563e-05	
150	3.162278e+04	1.076225e-01,	2.385873e-05	
151	3.235937e+04	1.076225e-01,	2.441447e-05	
152	3.311311e+04	1.076225e-01,	2.498315e-05	
153	3.388442e+04	1.076225e-01,	2.556508e-05	
154	3.467369e+04	1.076225e-01,	2.616057e-05	
155	3.548134e+04	1.076225e-01,	2.676993e-05	
156	3.630781e+04	1.076225e-01,	2.739348e-05	
157	3.715352e+04	1.076225e-01,	2.803156e-05	
158	3.801894e+04	1.076225e-01,	2.868450e-05	
159	3.890451e+04	1.076225e-01,	2.935264e-05	
160	3.981072e+04	1.076225e-01,	3.003636e-05	
161	4.073803e+04	1.076225e-01,	3.073599e-05	
162	4.168694e+04	1.076225e-01,	3.145193e-05	
163	4.265795e+04	1.076225e-01,	3.218453e-05	
164	4.365158e+04	1.076225e-01,	3.293421e-05	
165	4.466836e+04	1.076225e-01,	3.370135e-05	
166	4.570882e+04	1.076225e-01,	3.448635e-05	
167	4.677351e+04	1.076225e-01,	3.528964e-05	
168	4.786301e+04	1.076225e-01,	3.611164e-05	
169	4.897788e+04	1.076225e-01,	3.695279e-05	
170	5.011872e+04	1.076225e-01,	3.781353e-05	

Index   frequency       vop                             
--------------------------------------------------------------------------------
171	5.128614e+04	1.076225e-01,	3.869432e-05	
172	5.248075e+04	1.076225e-01,	3.959563e-05	
173	5.370318e+04	1.076225e-01,	4.051793e-05	
174	5.495409e+04	1.076225e-01,	4.146171e-05	
175	5.623413e+04	1.076225e-01,	4.242748e-05	
176	5.754399e+04	1.076225e-01,	4.341574e-05	
177	5.888437e+04	1.076225e-01,	4.442703e-05	
178	6.025596e+04	1.076225e-01,	4.546186e-05	
179	6.165950e+04	1.076225e-01,	4.652081e-05	
180	6.309573e+04	1.076225e-01,	4.760442e-05	
181	6.456542e+04	1.076225e-01,	4.871326e-05	
182	6.606934e+04	1.076225e-01,	4.984794e-05	
183	6.760830e+04	1.076225e-01,	5.100905e-05	
184	6.918310e+04	1.076225e-01,	5.219720e-05	
185	7.079458e+04	1.076225e-01,	5.341303e-05	
186	7.244360e+04	1.076225e-01,	5.465718e-05	
187	7.413102e+04	1.076225e-01,	5.593031e-05	
188	7.585776e+04	1.076225e-01,	5.723310e-05	
189	7.762471e+04	1.076225e-01,	5.856623e-05	
190	7.943282e+04	1.076225e-01,	5.993041e-05	
191	8.128305e+04	1.076225e-01,	6.132637e-05	
192	8.317638e+04	1.076225e-01,	6.275484e-05	
193	8.511380e+04	1.076225e-01,	6.421659e-05	
194	8.709636e+04	1.076225e-01,	6.571239e-05	
195	8.912509e+04	1.076225e-01,	6.724303e-05	
196	9.120108e+04	1.076225e-01,	6.880932e-05	
197	9.332543e+04	1.076225e-01,	7.041209e-05	
198	9.549926e+04	1.076225e-01,	7.205220e-05	
199	9.772372e+04	1.076225e-01,	7.373051e-05	
200	1.000000e+05	1.076225e-01,	7.544792e-05	
201	1.023293e+05	1.076225e-01,	7.720532e-05	
202	1.047129e+05	1.076225e-01,	7.900367e-05	
203	1.071519e+05	1.076225e-01,	8.084390e-05	
204	1.096478e+05	1.076225e-01,	8.272699e-05	
205	1.122018e+05	1.076225e-01,	8.465395e-05	
206	1.148154e+05	1.076225e-01,	8.662580e-05	
207	1.174898e+05	1.076225e-01,	8.864357e-05	
208	1.202264e+05	1.076225e-01,	9.070835e-05	
209	1.230269e+05	1.076225e-01,	9.282122e-05	
210	1.258925e+05	1.076225e-01,	9.498330e-05	
211	1.288250e+05	1.076225e-01,	9.719574e-05	
212	1.318257e+05	1.076225e-01,	9.945972e-05	
213	1.348963e+05	1.076225e-01,	1.017764e-04	
214	1.380384e+05	1.076225e-01,	1.041471e-04	
215	1.412538e+05	1.076225e-01,	1.065730e-04	
216	1.445440e+05	1.076225e-01,	1.090554e-04	
217	1.479108e+05	1.076225e-01,	1.115956e-04	
218	1.513561e+05	1.076225e-01,	1.141950e-04	
219	1.548817e+05	1.076225e-01,	1.168550e-04	
220	1.584893e+05	1.076225e-01,	1.195769e-04	
221	1.621810e+05	1.076225e-01,	1.223622e-04	
222	1.659587e+05	1.076225e-01,	1.252124e-04	
223	1.698244e+05	1.076225e-01,	1.281289e-04	
224	1.737801e+05	1.076225e-01,	1.311135e-04	
225	1.778279e+05	1.076225e-01,	1.341675e-04	
226	1.819701e+05	1.076225e-01,	1.372926e-04	
227	1.862087e+05	1.076225e-01,	1.404906e-04	
228	1.905461e+05	1.076225e-01,	1.437630e-04	

Index   frequency       vop                             
--------------------------------------------------------------------------------
229	1.949845e+05	1.076225e-01,	1.471117e-04	
230	1.995262e+05	1.076225e-01,	1.505384e-04	
231	2.041738e+05	1.076225e-01,	1.540449e-04	
232	2.089296e+05	1.076225e-01,	1.576331e-04	
233	2.137962e+05	1.076225e-01,	1.613048e-04	
234	2.187762e+05	1.076225e-01,	1.650621e-04	
235	2.238721e+05	1.076225e-01,	1.689069e-04	
236	2.290868e+05	1.076225e-01,	1.728412e-04	
237	2.344229e+05	1.076225e-01,	1.768672e-04	
238	2.398833e+05	1.076225e-01,	1.809870e-04	
239	2.454709e+05	1.076225e-01,	1.852027e-04	
240	2.511886e+05	1.076225e-01,	1.895166e-04	
241	2.570396e+05	1.076225e-01,	1.939310e-04	
242	2.630268e+05	1.076225e-01,	1.984483e-04	
243	2.691535e+05	1.076225e-01,	2.030707e-04	
244	2.754229e+05	1.076225e-01,	2.078008e-04	
245	2.818383e+05	1.076225e-01,	2.126412e-04	
246	2.884032e+05	1.076225e-01,	2.175942e-04	
247	2.951209e+05	1.076225e-01,	2.226626e-04	
248	3.019952e+05	1.076226e-01,	2.278491e-04	
249	3.090295e+05	1.076226e-01,	2.331564e-04	
250	3.162278e+05	1.076226e-01,	2.385873e-04	
251	3.235937e+05	1.076226e-01,	2.441447e-04	
252	3.311311e+05	1.076226e-01,	2.498316e-04	
253	3.388442e+05	1.076226e-01,	2.556509e-04	
254	3.467369e+05	1.076226e-01,	2.616058e-04	
255	3.548134e+05	1.076226e-01,	2.676994e-04	
256	3.630781e+05	1.076226e-01,	2.739349e-04	
257	3.715352e+05	1.076226e-01,	2.803157e-04	
258	3.801894e+05	1.076226e-01,	2.868451e-04	
259	3.890451e+05	1.076226e-01,	2.935265e-04	
260	3.981072e+05	1.076226e-01,	3.003637e-04	
261	4.073803e+05	1.076226e-01,	3.073600e-04	
262	4.168694e+05	1.076226e-01,	3.145194e-04	
263	4.265795e+05	1.076226e-01,	3.218455e-04	
264	4.365158e+05	1.076226e-01,	3.293422e-04	
265	4.466836e+05	1.076226e-01,	3.370136e-04	
266	4.570882e+05	1.076226e-01,	3.448637e-04	
267	4.677351e+05	1.076226e-01,	3.528966e-04	
268	4.786301e+05	1.076226e-01,	3.611166e-04	
269	4.897788e+05	1.076226e-01,	3.695281e-04	
270	5.011872e+05	1.076226e-01,	3.781355e-04	
271	5.128614e+05	1.076226e-01,	3.869435e-04	
272	5.248075e+05	1.076226e-01,	3.959565e-04	
273	5.370318e+05	1.076226e-01,	4.051796e-04	
274	5.495409e+05	1.076226e-01,	4.146174e-04	
275	5.623413e+05	1.076227e-01,	4.242751e-04	
276	5.754399e+05	1.076227e-01,	4.341578e-04	
277	5.888437e+05	1.076227e-01,	4.442706e-04	
278	6.025596e+05	1.076227e-01,	4.546190e-04	
279	6.165950e+05	1.076227e-01,	4.652085e-04	
280	6.309573e+05	1.076227e-01,	4.760446e-04	
281	6.456542e+05	1.076227e-01,	4.871331e-04	
282	6.606934e+05	1.076227e-01,	4.984799e-04	
283	6.760830e+05	1.076227e-01,	5.100910e-04	
284	6.918310e+05	1.076227e-01,	5.219726e-04	
285	7.079458e+05	1.076227e-01,	5.341309e-04	
286	7.244360e+05	1.076227e-01,	5.465725e-04	

Index   frequency       vop                             
--------------------------------------------------------------------------------
287	7.413102e+05	1.076228e-01,	5.593038e-04	
288	7.585776e+05	1.076228e-01,	5.723317e-04	
289	7.762471e+05	1.076228e-01,	5.856631e-04	
290	7.943282e+05	1.076228e-01,	5.993049e-04	
291	8.128305e+05	1.076228e-01,	6.132646e-04	
292	8.317638e+05	1.076228e-01,	6.275494e-04	
293	8.511380e+05	1.076228e-01,	6.421669e-04	
294	8.709636e+05	1.076229e-01,	6.571250e-04	
295	8.912509e+05	1.076229e-01,	6.724314e-04	
296	9.120108e+05	1.076229e-01,	6.880944e-04	
297	9.332543e+05	1.076229e-01,	7.041223e-04	
298	9.549926e+05	1.076229e-01,	7.205235e-04	
299	9.772372e+05	1.076229e-01,	7.373067e-04	
300	1.000000e+06	1.076230e-01,	7.544808e-04	
301	1.023293e+06	1.076230e-01,	7.720550e-04	
302	1.047129e+06	1.076230e-01,	7.900386e-04	
303	1.071519e+06	1.076230e-01,	8.084410e-04	
304	1.096478e+06	1.076231e-01,	8.272721e-04	
305	1.122018e+06	1.076231e-01,	8.465419e-04	
306	1.148154e+06	1.076231e-01,	8.662605e-04	
307	1.174898e+06	1.076231e-01,	8.864384e-04	
308	1.202264e+06	1.076232e-01,	9.070863e-04	
309	1.230269e+06	1.076232e-01,	9.282152e-04	
310	1.258925e+06	1.076232e-01,	9.498362e-04	
311	1.288250e+06	1.076233e-01,	9.719609e-04	
312	1.318257e+06	1.076233e-01,	9.946009e-04	
313	1.348963e+06	1.076233e-01,	1.017768e-03	
314	1.380384e+06	1.076234e-01,	1.041475e-03	
315	1.412538e+06	1.076234e-01,	1.065735e-03	
316	1.445440e+06	1.076235e-01,	1.090559e-03	
317	1.479108e+06	1.076235e-01,	1.115962e-03	
318	1.513561e+06	1.076236e-01,	1.141956e-03	
319	1.548817e+06	1.076236e-01,	1.168556e-03	
320	1.584893e+06	1.076237e-01,	1.195775e-03	
321	1.621810e+06	1.076237e-01,	1.223628e-03	
322	1.659587e+06	1.076238e-01,	1.252131e-03	
323	1.698244e+06	1.076238e-01,	1.281297e-03	
324	1.737801e+06	1.076239e-01,	1.311142e-03	
325	1.778279e+06	1.076239e-01,	1.341683e-03	
326	1.819701e+06	1.076240e-01,	1.372935e-03	
327	1.862087e+06	1.076241e-01,	1.404915e-03	
328	1.905461e+06	1.076242e-01,	1.437640e-03	
329	1.949845e+06	1.076242e-01,	1.471128e-03	
330	1.995262e+06	1.076243e-01,	1.505395e-03	
331	2.041738e+06	1.076244e-01,	1.540460e-03	
332	2.089296e+06	1.076245e-01,	1.576343e-03	
333	2.137962e+06	1.076246e-01,	1.613061e-03	
334	2.187762e+06	1.076247e-01,	1.650634e-03	
335	2.238721e+06	1.076248e-01,	1.689083e-03	
336	2.290868e+06	1.076249e-01,	1.728427e-03	
337	2.344229e+06	1.076250e-01,	1.768688e-03	
338	2.398833e+06	1.076251e-01,	1.809886e-03	
339	2.454709e+06	1.076253e-01,	1.852044e-03	
340	2.511886e+06	1.076254e-01,	1.895184e-03	
341	2.570396e+06	1.076255e-01,	1.939329e-03	
342	2.630268e+06	1.076257e-01,	1.984502e-03	
343	2.691535e+06	1.076258e-01,	2.030728e-03	
344	2.754229e+06	1.076260e-01,	2.078030e-03	

Index   frequency       vop                             
--------------------------------------------------------------------------------
345	2.818383e+06	1.076261e-01,	2.126434e-03	
346	2.884032e+06	1.076263e-01,	2.175965e-03	
347	2.951209e+06	1.076265e-01,	2.226650e-03	
348	3.019952e+06	1.076267e-01,	2.278515e-03	
349	3.090295e+06	1.076269e-01,	2.331589e-03	
350	3.162278e+06	1.076271e-01,	2.385898e-03	
351	3.235937e+06	1.076273e-01,	2.441473e-03	
352	3.311311e+06	1.076275e-01,	2.498342e-03	
353	3.388442e+06	1.076278e-01,	2.556535e-03	
354	3.467369e+06	1.076280e-01,	2.616084e-03	
355	3.548134e+06	1.076283e-01,	2.677020e-03	
356	3.630781e+06	1.076286e-01,	2.739374e-03	
357	3.715352e+06	1.076288e-01,	2.803181e-03	
358	3.801894e+06	1.076291e-01,	2.868474e-03	
359	3.890451e+06	1.076295e-01,	2.935288e-03	
360	3.981072e+06	1.076298e-01,	3.003657e-03	
361	4.073803e+06	1.076301e-01,	3.073619e-03	
362	4.168694e+06	1.076305e-01,	3.145210e-03	
363	4.265795e+06	1.076309e-01,	3.218468e-03	
364	4.365158e+06	1.076313e-01,	3.293432e-03	
365	4.466836e+06	1.076317e-01,	3.370141e-03	
366	4.570882e+06	1.076321e-01,	3.448637e-03	
367	4.677351e+06	1.076326e-01,	3.528961e-03	
368	4.786301e+06	1.076331e-01,	3.611155e-03	
369	4.897788e+06	1.076336e-01,	3.695264e-03	
370	5.011872e+06	1.076341e-01,	3.781330e-03	
371	5.128614e+06	1.076346e-01,	3.869401e-03	
372	5.248075e+06	1.076352e-01,	3.959522e-03	
373	5.370318e+06	1.076358e-01,	4.051742e-03	
374	5.495409e+06	1.076364e-01,	4.146110e-03	
375	5.623413e+06	1.076371e-01,	4.242675e-03	
376	5.754399e+06	1.076378e-01,	4.341488e-03	
377	5.888437e+06	1.076385e-01,	4.442602e-03	
378	6.025596e+06	1.076392e-01,	4.546071e-03	
379	6.165950e+06	1.076400e-01,	4.651949e-03	
380	6.309573e+06	1.076408e-01,	4.760293e-03	
381	6.456542e+06	1.076417e-01,	4.871160e-03	
382	6.606934e+06	1.076426e-01,	4.984608e-03	
383	6.760830e+06	1.076435e-01,	5.100699e-03	
384	6.918310e+06	1.076445e-01,	5.219492e-03	
385	7.079458e+06	1.076455e-01,	5.341053e-03	
386	7.244360e+06	1.076466e-01,	5.465444e-03	
387	7.413102e+06	1.076478e-01,	5.592732e-03	
388	7.585776e+06	1.076489e-01,	5.722984e-03	
389	7.762471e+06	1.076502e-01,	5.856269e-03	
390	7.943282e+06	1.076515e-01,	5.992659e-03	
391	8.128305e+06	1.076528e-01,	6.132225e-03	
392	8.317638e+06	1.076542e-01,	6.275041e-03	
393	8.511380e+06	1.076557e-01,	6.421183e-03	
394	8.709636e+06	1.076573e-01,	6.570729e-03	
395	8.912509e+06	1.076589e-01,	6.723757e-03	
396	9.120108e+06	1.076606e-01,	6.880349e-03	
397	9.332543e+06	1.076624e-01,	7.040588e-03	
398	9.549926e+06	1.076642e-01,	7.204559e-03	
399	9.772372e+06	1.076662e-01,	7.372349e-03	
400	1.000000e+07	1.076682e-01,	7.544046e-03	
401	1.023293e+07	1.076703e-01,	7.719741e-03	
402	1.047129e+07	1.076726e-01,	7.899528e-03	

Index   frequency       vop                             
--------------------------------------------------------------------------------
403	1.071519e+07	1.076749e-01,	8.083502e-03	
404	1.096478e+07	1.076774e-01,	8.271761e-03	
405	1.122018e+07	1.076799e-01,	8.464403e-03	
406	1.148154e+07	1.076826e-01,	8.661531e-03	
407	1.174898e+07	1.076854e-01,	8.863250e-03	
408	1.202264e+07	1.076884e-01,	9.069666e-03	
409	1.230269e+07	1.076915e-01,	9.280888e-03	
410	1.258925e+07	1.076947e-01,	9.497029e-03	
411	1.288250e+07	1.076981e-01,	9.718203e-03	
412	1.318257e+07	1.077016e-01,	9.944527e-03	
413	1.348963e+07	1.077053e-01,	1.017612e-02	
414	1.380384e+07	1.077092e-01,	1.041311e-02	
415	1.412538e+07	1.077132e-01,	1.065561e-02	
416	1.445440e+07	1.077175e-01,	1.090376e-02	
