  ** sch_path: /home/andylithia/openmpw/project-reisen-chip1/xschem/ctle_3.sch
  AC Analysis  Mon Oct 31 00:06:33  2022
--------------------------------------------------------------------------------
Index   frequency       vop                             
--------------------------------------------------------------------------------
0	1.000000e+03	2.798637e-01,	6.197553e-07	
1	1.023293e+03	2.798637e-01,	6.341912e-07	
2	1.047129e+03	2.798637e-01,	6.489634e-07	
3	1.071519e+03	2.798637e-01,	6.640797e-07	
4	1.096478e+03	2.798637e-01,	6.795481e-07	
5	1.122018e+03	2.798637e-01,	6.953769e-07	
6	1.148154e+03	2.798637e-01,	7.115743e-07	
7	1.174898e+03	2.798637e-01,	7.281490e-07	
8	1.202264e+03	2.798637e-01,	7.451097e-07	
9	1.230269e+03	2.798637e-01,	7.624656e-07	
10	1.258925e+03	2.798637e-01,	7.802257e-07	
11	1.288250e+03	2.798637e-01,	7.983995e-07	
12	1.318257e+03	2.798637e-01,	8.169966e-07	
13	1.348963e+03	2.798637e-01,	8.360269e-07	
14	1.380384e+03	2.798637e-01,	8.555004e-07	
15	1.412538e+03	2.798637e-01,	8.754276e-07	
16	1.445440e+03	2.798637e-01,	8.958189e-07	
17	1.479108e+03	2.798637e-01,	9.166852e-07	
18	1.513561e+03	2.798637e-01,	9.380376e-07	
19	1.548817e+03	2.798637e-01,	9.598873e-07	
20	1.584893e+03	2.798637e-01,	9.822459e-07	
21	1.621810e+03	2.798637e-01,	1.005125e-06	
22	1.659587e+03	2.798637e-01,	1.028538e-06	
23	1.698244e+03	2.798637e-01,	1.052495e-06	
24	1.737801e+03	2.798637e-01,	1.077011e-06	
25	1.778279e+03	2.798637e-01,	1.102098e-06	
26	1.819701e+03	2.798637e-01,	1.127769e-06	
27	1.862087e+03	2.798637e-01,	1.154038e-06	
28	1.905461e+03	2.798637e-01,	1.180919e-06	
29	1.949845e+03	2.798637e-01,	1.208426e-06	
30	1.995262e+03	2.798637e-01,	1.236574e-06	
31	2.041738e+03	2.798637e-01,	1.265378e-06	
32	2.089296e+03	2.798637e-01,	1.294852e-06	
33	2.137962e+03	2.798637e-01,	1.325013e-06	
34	2.187762e+03	2.798637e-01,	1.355877e-06	
35	2.238721e+03	2.798637e-01,	1.387459e-06	
36	2.290868e+03	2.798637e-01,	1.419777e-06	
37	2.344229e+03	2.798637e-01,	1.452848e-06	
38	2.398833e+03	2.798637e-01,	1.486689e-06	
39	2.454709e+03	2.798637e-01,	1.521319e-06	
40	2.511886e+03	2.798637e-01,	1.556755e-06	
41	2.570396e+03	2.798637e-01,	1.593016e-06	
42	2.630268e+03	2.798637e-01,	1.630122e-06	
43	2.691535e+03	2.798637e-01,	1.668093e-06	
44	2.754229e+03	2.798637e-01,	1.706948e-06	
45	2.818383e+03	2.798637e-01,	1.746708e-06	
46	2.884032e+03	2.798637e-01,	1.787394e-06	
47	2.951209e+03	2.798637e-01,	1.829027e-06	
48	3.019952e+03	2.798637e-01,	1.871631e-06	
49	3.090295e+03	2.798637e-01,	1.915227e-06	
50	3.162278e+03	2.798637e-01,	1.959838e-06	
51	3.235937e+03	2.798637e-01,	2.005489e-06	
52	3.311311e+03	2.798637e-01,	2.052203e-06	
53	3.388442e+03	2.798637e-01,	2.100005e-06	
54	3.467369e+03	2.798637e-01,	2.148920e-06	

Index   frequency       vop                             
--------------------------------------------------------------------------------
55	3.548134e+03	2.798637e-01,	2.198975e-06	
56	3.630781e+03	2.798637e-01,	2.250195e-06	
57	3.715352e+03	2.798637e-01,	2.302609e-06	
58	3.801894e+03	2.798637e-01,	2.356244e-06	
59	3.890451e+03	2.798637e-01,	2.411128e-06	
60	3.981072e+03	2.798637e-01,	2.467290e-06	
61	4.073803e+03	2.798637e-01,	2.524761e-06	
62	4.168694e+03	2.798637e-01,	2.583570e-06	
63	4.265795e+03	2.798637e-01,	2.643749e-06	
64	4.365158e+03	2.798637e-01,	2.705330e-06	
65	4.466836e+03	2.798637e-01,	2.768345e-06	
66	4.570882e+03	2.798637e-01,	2.832828e-06	
67	4.677351e+03	2.798637e-01,	2.898813e-06	
68	4.786301e+03	2.798637e-01,	2.966335e-06	
69	4.897788e+03	2.798637e-01,	3.035430e-06	
70	5.011872e+03	2.798637e-01,	3.106134e-06	
71	5.128614e+03	2.798637e-01,	3.178485e-06	
72	5.248075e+03	2.798637e-01,	3.252522e-06	
73	5.370318e+03	2.798637e-01,	3.328283e-06	
74	5.495409e+03	2.798637e-01,	3.405809e-06	
75	5.623413e+03	2.798637e-01,	3.485140e-06	
76	5.754399e+03	2.798637e-01,	3.566319e-06	
77	5.888437e+03	2.798637e-01,	3.649390e-06	
78	6.025596e+03	2.798637e-01,	3.734395e-06	
79	6.165950e+03	2.798637e-01,	3.821380e-06	
80	6.309573e+03	2.798637e-01,	3.910391e-06	
81	6.456542e+03	2.798637e-01,	4.001476e-06	
82	6.606934e+03	2.798637e-01,	4.094683e-06	
83	6.760830e+03	2.798637e-01,	4.190060e-06	
84	6.918310e+03	2.798637e-01,	4.287659e-06	
85	7.079458e+03	2.798637e-01,	4.387531e-06	
86	7.244360e+03	2.798637e-01,	4.489730e-06	
87	7.413102e+03	2.798637e-01,	4.594309e-06	
88	7.585776e+03	2.798637e-01,	4.701325e-06	
89	7.762471e+03	2.798637e-01,	4.810832e-06	
90	7.943282e+03	2.798637e-01,	4.922891e-06	
91	8.128305e+03	2.798637e-01,	5.037560e-06	
92	8.317638e+03	2.798637e-01,	5.154900e-06	
93	8.511380e+03	2.798637e-01,	5.274973e-06	
94	8.709636e+03	2.798637e-01,	5.397843e-06	
95	8.912509e+03	2.798637e-01,	5.523575e-06	
96	9.120108e+03	2.798637e-01,	5.652235e-06	
97	9.332543e+03	2.798637e-01,	5.783893e-06	
98	9.549926e+03	2.798637e-01,	5.918617e-06	
99	9.772372e+03	2.798637e-01,	6.056479e-06	
100	1.000000e+04	2.798637e-01,	6.197553e-06	
101	1.023293e+04	2.798637e-01,	6.341912e-06	
102	1.047129e+04	2.798637e-01,	6.489634e-06	
103	1.071519e+04	2.798637e-01,	6.640797e-06	
104	1.096478e+04	2.798637e-01,	6.795481e-06	
105	1.122018e+04	2.798637e-01,	6.953769e-06	
106	1.148154e+04	2.798637e-01,	7.115743e-06	
107	1.174898e+04	2.798637e-01,	7.281490e-06	
108	1.202264e+04	2.798637e-01,	7.451097e-06	
109	1.230269e+04	2.798637e-01,	7.624656e-06	
110	1.258925e+04	2.798637e-01,	7.802257e-06	
111	1.288250e+04	2.798637e-01,	7.983995e-06	
112	1.318257e+04	2.798637e-01,	8.169966e-06	

Index   frequency       vop                             
--------------------------------------------------------------------------------
113	1.348963e+04	2.798637e-01,	8.360269e-06	
114	1.380384e+04	2.798637e-01,	8.555004e-06	
115	1.412538e+04	2.798637e-01,	8.754276e-06	
116	1.445440e+04	2.798637e-01,	8.958189e-06	
117	1.479108e+04	2.798637e-01,	9.166852e-06	
118	1.513561e+04	2.798637e-01,	9.380376e-06	
119	1.548817e+04	2.798637e-01,	9.598873e-06	
120	1.584893e+04	2.798637e-01,	9.822459e-06	
121	1.621810e+04	2.798637e-01,	1.005125e-05	
122	1.659587e+04	2.798637e-01,	1.028538e-05	
123	1.698244e+04	2.798637e-01,	1.052495e-05	
124	1.737801e+04	2.798637e-01,	1.077011e-05	
125	1.778279e+04	2.798637e-01,	1.102098e-05	
126	1.819701e+04	2.798637e-01,	1.127769e-05	
127	1.862087e+04	2.798637e-01,	1.154038e-05	
128	1.905461e+04	2.798637e-01,	1.180919e-05	
129	1.949845e+04	2.798637e-01,	1.208426e-05	
130	1.995262e+04	2.798637e-01,	1.236574e-05	
131	2.041738e+04	2.798637e-01,	1.265378e-05	
132	2.089296e+04	2.798637e-01,	1.294852e-05	
133	2.137962e+04	2.798637e-01,	1.325013e-05	
134	2.187762e+04	2.798637e-01,	1.355877e-05	
135	2.238721e+04	2.798637e-01,	1.387459e-05	
136	2.290868e+04	2.798637e-01,	1.419777e-05	
137	2.344229e+04	2.798637e-01,	1.452848e-05	
138	2.398833e+04	2.798637e-01,	1.486689e-05	
139	2.454709e+04	2.798637e-01,	1.521319e-05	
140	2.511886e+04	2.798637e-01,	1.556755e-05	
141	2.570396e+04	2.798637e-01,	1.593016e-05	
142	2.630268e+04	2.798637e-01,	1.630122e-05	
143	2.691535e+04	2.798637e-01,	1.668093e-05	
144	2.754229e+04	2.798637e-01,	1.706948e-05	
145	2.818383e+04	2.798637e-01,	1.746708e-05	
146	2.884032e+04	2.798637e-01,	1.787394e-05	
147	2.951209e+04	2.798637e-01,	1.829027e-05	
148	3.019952e+04	2.798637e-01,	1.871631e-05	
149	3.090295e+04	2.798637e-01,	1.915227e-05	
150	3.162278e+04	2.798637e-01,	1.959838e-05	
151	3.235937e+04	2.798637e-01,	2.005489e-05	
152	3.311311e+04	2.798637e-01,	2.052203e-05	
153	3.388442e+04	2.798637e-01,	2.100005e-05	
154	3.467369e+04	2.798637e-01,	2.148920e-05	
155	3.548134e+04	2.798637e-01,	2.198975e-05	
156	3.630781e+04	2.798637e-01,	2.250195e-05	
157	3.715352e+04	2.798637e-01,	2.302609e-05	
158	3.801894e+04	2.798637e-01,	2.356244e-05	
159	3.890451e+04	2.798637e-01,	2.411128e-05	
160	3.981072e+04	2.798637e-01,	2.467290e-05	
161	4.073803e+04	2.798637e-01,	2.524761e-05	
162	4.168694e+04	2.798637e-01,	2.583570e-05	
163	4.265795e+04	2.798637e-01,	2.643749e-05	
164	4.365158e+04	2.798637e-01,	2.705330e-05	
165	4.466836e+04	2.798637e-01,	2.768345e-05	
166	4.570882e+04	2.798637e-01,	2.832828e-05	
167	4.677351e+04	2.798637e-01,	2.898813e-05	
168	4.786301e+04	2.798637e-01,	2.966335e-05	
169	4.897788e+04	2.798637e-01,	3.035430e-05	
170	5.011872e+04	2.798637e-01,	3.106134e-05	

Index   frequency       vop                             
--------------------------------------------------------------------------------
171	5.128614e+04	2.798637e-01,	3.178485e-05	
172	5.248075e+04	2.798637e-01,	3.252522e-05	
173	5.370318e+04	2.798637e-01,	3.328283e-05	
174	5.495409e+04	2.798637e-01,	3.405809e-05	
175	5.623413e+04	2.798637e-01,	3.485140e-05	
176	5.754399e+04	2.798637e-01,	3.566319e-05	
177	5.888437e+04	2.798637e-01,	3.649390e-05	
178	6.025596e+04	2.798637e-01,	3.734395e-05	
179	6.165950e+04	2.798637e-01,	3.821380e-05	
180	6.309573e+04	2.798637e-01,	3.910391e-05	
181	6.456542e+04	2.798637e-01,	4.001476e-05	
182	6.606934e+04	2.798637e-01,	4.094682e-05	
183	6.760830e+04	2.798637e-01,	4.190060e-05	
184	6.918310e+04	2.798637e-01,	4.287659e-05	
185	7.079458e+04	2.798637e-01,	4.387531e-05	
186	7.244360e+04	2.798637e-01,	4.489730e-05	
187	7.413102e+04	2.798637e-01,	4.594309e-05	
188	7.585776e+04	2.798637e-01,	4.701324e-05	
189	7.762471e+04	2.798637e-01,	4.810832e-05	
190	7.943282e+04	2.798637e-01,	4.922891e-05	
191	8.128305e+04	2.798637e-01,	5.037560e-05	
192	8.317638e+04	2.798637e-01,	5.154900e-05	
193	8.511380e+04	2.798637e-01,	5.274973e-05	
194	8.709636e+04	2.798637e-01,	5.397843e-05	
195	8.912509e+04	2.798637e-01,	5.523575e-05	
196	9.120108e+04	2.798637e-01,	5.652235e-05	
197	9.332543e+04	2.798637e-01,	5.783893e-05	
198	9.549926e+04	2.798637e-01,	5.918617e-05	
199	9.772372e+04	2.798637e-01,	6.056479e-05	
200	1.000000e+05	2.798637e-01,	6.197553e-05	
201	1.023293e+05	2.798637e-01,	6.341912e-05	
202	1.047129e+05	2.798637e-01,	6.489634e-05	
203	1.071519e+05	2.798637e-01,	6.640797e-05	
204	1.096478e+05	2.798637e-01,	6.795481e-05	
205	1.122018e+05	2.798637e-01,	6.953768e-05	
206	1.148154e+05	2.798637e-01,	7.115742e-05	
207	1.174898e+05	2.798637e-01,	7.281489e-05	
208	1.202264e+05	2.798637e-01,	7.451097e-05	
209	1.230269e+05	2.798637e-01,	7.624655e-05	
210	1.258925e+05	2.798637e-01,	7.802256e-05	
211	1.288250e+05	2.798637e-01,	7.983994e-05	
212	1.318257e+05	2.798637e-01,	8.169965e-05	
213	1.348963e+05	2.798637e-01,	8.360268e-05	
214	1.380384e+05	2.798637e-01,	8.555004e-05	
215	1.412538e+05	2.798637e-01,	8.754275e-05	
216	1.445440e+05	2.798637e-01,	8.958189e-05	
217	1.479108e+05	2.798637e-01,	9.166852e-05	
218	1.513561e+05	2.798637e-01,	9.380375e-05	
219	1.548817e+05	2.798637e-01,	9.598872e-05	
220	1.584893e+05	2.798637e-01,	9.822458e-05	
221	1.621810e+05	2.798637e-01,	1.005125e-04	
222	1.659587e+05	2.798637e-01,	1.028538e-04	
223	1.698244e+05	2.798637e-01,	1.052495e-04	
224	1.737801e+05	2.798637e-01,	1.077011e-04	
225	1.778279e+05	2.798637e-01,	1.102098e-04	
226	1.819701e+05	2.798637e-01,	1.127769e-04	
227	1.862087e+05	2.798637e-01,	1.154038e-04	
228	1.905461e+05	2.798637e-01,	1.180919e-04	

Index   frequency       vop                             
--------------------------------------------------------------------------------
229	1.949845e+05	2.798637e-01,	1.208426e-04	
230	1.995262e+05	2.798637e-01,	1.236574e-04	
231	2.041738e+05	2.798637e-01,	1.265378e-04	
232	2.089296e+05	2.798637e-01,	1.294852e-04	
233	2.137962e+05	2.798637e-01,	1.325013e-04	
234	2.187762e+05	2.798637e-01,	1.355877e-04	
235	2.238721e+05	2.798637e-01,	1.387459e-04	
236	2.290868e+05	2.798637e-01,	1.419777e-04	
237	2.344229e+05	2.798637e-01,	1.452848e-04	
238	2.398833e+05	2.798637e-01,	1.486689e-04	
239	2.454709e+05	2.798637e-01,	1.521319e-04	
240	2.511886e+05	2.798637e-01,	1.556755e-04	
241	2.570396e+05	2.798637e-01,	1.593016e-04	
242	2.630268e+05	2.798637e-01,	1.630122e-04	
243	2.691535e+05	2.798637e-01,	1.668093e-04	
244	2.754229e+05	2.798637e-01,	1.706947e-04	
245	2.818383e+05	2.798637e-01,	1.746707e-04	
246	2.884032e+05	2.798637e-01,	1.787393e-04	
247	2.951209e+05	2.798637e-01,	1.829027e-04	
248	3.019952e+05	2.798637e-01,	1.871631e-04	
249	3.090295e+05	2.798637e-01,	1.915226e-04	
250	3.162278e+05	2.798637e-01,	1.959838e-04	
251	3.235937e+05	2.798637e-01,	2.005488e-04	
252	3.311311e+05	2.798637e-01,	2.052202e-04	
253	3.388442e+05	2.798637e-01,	2.100004e-04	
254	3.467369e+05	2.798637e-01,	2.148919e-04	
255	3.548134e+05	2.798637e-01,	2.198974e-04	
256	3.630781e+05	2.798637e-01,	2.250195e-04	
257	3.715352e+05	2.798637e-01,	2.302608e-04	
258	3.801894e+05	2.798637e-01,	2.356243e-04	
259	3.890451e+05	2.798637e-01,	2.411127e-04	
260	3.981072e+05	2.798637e-01,	2.467289e-04	
261	4.073803e+05	2.798637e-01,	2.524760e-04	
262	4.168694e+05	2.798637e-01,	2.583569e-04	
263	4.265795e+05	2.798637e-01,	2.643748e-04	
264	4.365158e+05	2.798637e-01,	2.705328e-04	
265	4.466836e+05	2.798637e-01,	2.768343e-04	
266	4.570882e+05	2.798637e-01,	2.832826e-04	
267	4.677351e+05	2.798637e-01,	2.898811e-04	
268	4.786301e+05	2.798638e-01,	2.966333e-04	
269	4.897788e+05	2.798638e-01,	3.035428e-04	
270	5.011872e+05	2.798638e-01,	3.106132e-04	
271	5.128614e+05	2.798638e-01,	3.178483e-04	
272	5.248075e+05	2.798638e-01,	3.252519e-04	
273	5.370318e+05	2.798638e-01,	3.328280e-04	
274	5.495409e+05	2.798638e-01,	3.405806e-04	
275	5.623413e+05	2.798638e-01,	3.485137e-04	
276	5.754399e+05	2.798638e-01,	3.566316e-04	
277	5.888437e+05	2.798638e-01,	3.649386e-04	
278	6.025596e+05	2.798638e-01,	3.734391e-04	
279	6.165950e+05	2.798638e-01,	3.821376e-04	
280	6.309573e+05	2.798638e-01,	3.910387e-04	
281	6.456542e+05	2.798638e-01,	4.001471e-04	
282	6.606934e+05	2.798638e-01,	4.094677e-04	
283	6.760830e+05	2.798638e-01,	4.190054e-04	
284	6.918310e+05	2.798638e-01,	4.287653e-04	
285	7.079458e+05	2.798639e-01,	4.387525e-04	
286	7.244360e+05	2.798639e-01,	4.489723e-04	

Index   frequency       vop                             
--------------------------------------------------------------------------------
287	7.413102e+05	2.798639e-01,	4.594302e-04	
288	7.585776e+05	2.798639e-01,	4.701317e-04	
289	7.762471e+05	2.798639e-01,	4.810824e-04	
290	7.943282e+05	2.798639e-01,	4.922882e-04	
291	8.128305e+05	2.798639e-01,	5.037550e-04	
292	8.317638e+05	2.798639e-01,	5.154889e-04	
293	8.511380e+05	2.798639e-01,	5.274962e-04	
294	8.709636e+05	2.798639e-01,	5.397831e-04	
295	8.912509e+05	2.798640e-01,	5.523562e-04	
296	9.120108e+05	2.798640e-01,	5.652222e-04	
297	9.332543e+05	2.798640e-01,	5.783878e-04	
298	9.549926e+05	2.798640e-01,	5.918601e-04	
299	9.772372e+05	2.798640e-01,	6.056463e-04	
300	1.000000e+06	2.798640e-01,	6.197535e-04	
301	1.023293e+06	2.798640e-01,	6.341893e-04	
302	1.047129e+06	2.798641e-01,	6.489614e-04	
303	1.071519e+06	2.798641e-01,	6.640776e-04	
304	1.096478e+06	2.798641e-01,	6.795458e-04	
305	1.122018e+06	2.798641e-01,	6.953744e-04	
306	1.148154e+06	2.798641e-01,	7.115716e-04	
307	1.174898e+06	2.798642e-01,	7.281461e-04	
308	1.202264e+06	2.798642e-01,	7.451067e-04	
309	1.230269e+06	2.798642e-01,	7.624623e-04	
310	1.258925e+06	2.798642e-01,	7.802222e-04	
311	1.288250e+06	2.798643e-01,	7.983958e-04	
312	1.318257e+06	2.798643e-01,	8.169926e-04	
313	1.348963e+06	2.798643e-01,	8.360226e-04	
314	1.380384e+06	2.798644e-01,	8.554959e-04	
315	1.412538e+06	2.798644e-01,	8.754228e-04	
316	1.445440e+06	2.798644e-01,	8.958138e-04	
317	1.479108e+06	2.798645e-01,	9.166797e-04	
318	1.513561e+06	2.798645e-01,	9.380317e-04	
319	1.548817e+06	2.798645e-01,	9.598810e-04	
320	1.584893e+06	2.798646e-01,	9.822393e-04	
321	1.621810e+06	2.798646e-01,	1.005118e-03	
322	1.659587e+06	2.798647e-01,	1.028530e-03	
323	1.698244e+06	2.798647e-01,	1.052487e-03	
324	1.737801e+06	2.798648e-01,	1.077003e-03	
325	1.778279e+06	2.798648e-01,	1.102089e-03	
326	1.819701e+06	2.798649e-01,	1.127760e-03	
327	1.862087e+06	2.798649e-01,	1.154028e-03	
328	1.905461e+06	2.798650e-01,	1.180908e-03	
329	1.949845e+06	2.798650e-01,	1.208415e-03	
330	1.995262e+06	2.798651e-01,	1.236562e-03	
331	2.041738e+06	2.798652e-01,	1.265365e-03	
332	2.089296e+06	2.798652e-01,	1.294838e-03	
333	2.137962e+06	2.798653e-01,	1.324999e-03	
334	2.187762e+06	2.798654e-01,	1.355861e-03	
335	2.238721e+06	2.798655e-01,	1.387443e-03	
336	2.290868e+06	2.798656e-01,	1.419760e-03	
337	2.344229e+06	2.798657e-01,	1.452830e-03	
338	2.398833e+06	2.798657e-01,	1.486670e-03	
339	2.454709e+06	2.798658e-01,	1.521298e-03	
340	2.511886e+06	2.798659e-01,	1.556733e-03	
341	2.570396e+06	2.798660e-01,	1.592993e-03	
342	2.630268e+06	2.798662e-01,	1.630098e-03	
343	2.691535e+06	2.798663e-01,	1.668067e-03	
344	2.754229e+06	2.798664e-01,	1.706921e-03	

Index   frequency       vop                             
--------------------------------------------------------------------------------
345	2.818383e+06	2.798665e-01,	1.746680e-03	
346	2.884032e+06	2.798667e-01,	1.787364e-03	
347	2.951209e+06	2.798668e-01,	1.828997e-03	
348	3.019952e+06	2.798669e-01,	1.871599e-03	
349	3.090295e+06	2.798671e-01,	1.915193e-03	
350	3.162278e+06	2.798673e-01,	1.959803e-03	
351	3.235937e+06	2.798674e-01,	2.005452e-03	
352	3.311311e+06	2.798676e-01,	2.052165e-03	
353	3.388442e+06	2.798678e-01,	2.099965e-03	
354	3.467369e+06	2.798680e-01,	2.148879e-03	
355	3.548134e+06	2.798682e-01,	2.198933e-03	
356	3.630781e+06	2.798684e-01,	2.250152e-03	
357	3.715352e+06	2.798686e-01,	2.302565e-03	
358	3.801894e+06	2.798688e-01,	2.356199e-03	
359	3.890451e+06	2.798691e-01,	2.411082e-03	
360	3.981072e+06	2.798693e-01,	2.467243e-03	
361	4.073803e+06	2.798696e-01,	2.524713e-03	
362	4.168694e+06	2.798699e-01,	2.583522e-03	
363	4.265795e+06	2.798702e-01,	2.643701e-03	
364	4.365158e+06	2.798705e-01,	2.705282e-03	
365	4.466836e+06	2.798708e-01,	2.768297e-03	
366	4.570882e+06	2.798711e-01,	2.832781e-03	
367	4.677351e+06	2.798715e-01,	2.898767e-03	
368	4.786301e+06	2.798719e-01,	2.966290e-03	
369	4.897788e+06	2.798722e-01,	3.035386e-03	
370	5.011872e+06	2.798726e-01,	3.106092e-03	
371	5.128614e+06	2.798731e-01,	3.178445e-03	
372	5.248075e+06	2.798735e-01,	3.252484e-03	
373	5.370318e+06	2.798740e-01,	3.328248e-03	
374	5.495409e+06	2.798744e-01,	3.405777e-03	
375	5.623413e+06	2.798750e-01,	3.485112e-03	
376	5.754399e+06	2.798755e-01,	3.566295e-03	
377	5.888437e+06	2.798760e-01,	3.649370e-03	
378	6.025596e+06	2.798766e-01,	3.734379e-03	
379	6.165950e+06	2.798772e-01,	3.821370e-03	
380	6.309573e+06	2.798779e-01,	3.910386e-03	
381	6.456542e+06	2.798786e-01,	4.001476e-03	
382	6.606934e+06	2.798793e-01,	4.094689e-03	
383	6.760830e+06	2.798800e-01,	4.190072e-03	
384	6.918310e+06	2.798808e-01,	4.287677e-03	
385	7.079458e+06	2.798816e-01,	4.387556e-03	
386	7.244360e+06	2.798824e-01,	4.489761e-03	
387	7.413102e+06	2.798833e-01,	4.594347e-03	
388	7.585776e+06	2.798843e-01,	4.701368e-03	
389	7.762471e+06	2.798852e-01,	4.810883e-03	
390	7.943282e+06	2.798863e-01,	4.922947e-03	
391	8.128305e+06	2.798873e-01,	5.037622e-03	
392	8.317638e+06	2.798885e-01,	5.154968e-03	
393	8.511380e+06	2.798897e-01,	5.275047e-03	
394	8.709636e+06	2.798909e-01,	5.397922e-03	
395	8.912509e+06	2.798922e-01,	5.523659e-03	
396	9.120108e+06	2.798935e-01,	5.652324e-03	
397	9.332543e+06	2.798950e-01,	5.783985e-03	
398	9.549926e+06	2.798964e-01,	5.918712e-03	
399	9.772372e+06	2.798980e-01,	6.056577e-03	
400	1.000000e+07	2.798996e-01,	6.197652e-03	
401	1.023293e+07	2.799013e-01,	6.342013e-03	
402	1.047129e+07	2.799031e-01,	6.489735e-03	

Index   frequency       vop                             
--------------------------------------------------------------------------------
403	1.071519e+07	2.799050e-01,	6.640897e-03	
404	1.096478e+07	2.799070e-01,	6.795578e-03	
405	1.122018e+07	2.799090e-01,	6.953862e-03	
406	1.148154e+07	2.799112e-01,	7.115831e-03	
407	1.174898e+07	2.799134e-01,	7.281572e-03	
408	1.202264e+07	2.799158e-01,	7.451172e-03	
409	1.230269e+07	2.799183e-01,	7.624721e-03	
410	1.258925e+07	2.799209e-01,	7.802310e-03	
411	1.288250e+07	2.799236e-01,	7.984035e-03	
412	1.318257e+07	2.799264e-01,	8.169990e-03	
413	1.348963e+07	2.799294e-01,	8.360275e-03	
414	1.380384e+07	2.799325e-01,	8.554991e-03	
415	1.412538e+07	2.799358e-01,	8.754239e-03	
416	1.445440e+07	2.799392e-01,	8.958127e-03	
