  ** sch_path: /home/andylithia/openmpw/project-reisen-chip1/xschem/ctle_3.sch
  AC Analysis  Mon Oct 31 00:06:33  2022
--------------------------------------------------------------------------------
Index   frequency       vop                             
--------------------------------------------------------------------------------
0	1.000000e+03	1.075958e-01,	7.526730e-07	
1	1.023293e+03	1.075958e-01,	7.702051e-07	
2	1.047129e+03	1.075958e-01,	7.881454e-07	
3	1.071519e+03	1.075958e-01,	8.065037e-07	
4	1.096478e+03	1.075958e-01,	8.252896e-07	
5	1.122018e+03	1.075958e-01,	8.445130e-07	
6	1.148154e+03	1.075958e-01,	8.641843e-07	
7	1.174898e+03	1.075958e-01,	8.843137e-07	
8	1.202264e+03	1.075958e-01,	9.049120e-07	
9	1.230269e+03	1.075958e-01,	9.259901e-07	
10	1.258925e+03	1.075958e-01,	9.475592e-07	
11	1.288250e+03	1.075958e-01,	9.696307e-07	
12	1.318257e+03	1.075958e-01,	9.922163e-07	
13	1.348963e+03	1.075958e-01,	1.015328e-06	
14	1.380384e+03	1.075958e-01,	1.038978e-06	
15	1.412538e+03	1.075958e-01,	1.063179e-06	
16	1.445440e+03	1.075958e-01,	1.087944e-06	
17	1.479108e+03	1.075958e-01,	1.113285e-06	
18	1.513561e+03	1.075958e-01,	1.139217e-06	
19	1.548817e+03	1.075958e-01,	1.165753e-06	
20	1.584893e+03	1.075958e-01,	1.192906e-06	
21	1.621810e+03	1.075958e-01,	1.220693e-06	
22	1.659587e+03	1.075958e-01,	1.249126e-06	
23	1.698244e+03	1.075958e-01,	1.278222e-06	
24	1.737801e+03	1.075958e-01,	1.307996e-06	
25	1.778279e+03	1.075958e-01,	1.338463e-06	
26	1.819701e+03	1.075958e-01,	1.369640e-06	
27	1.862087e+03	1.075958e-01,	1.401543e-06	
28	1.905461e+03	1.075958e-01,	1.434189e-06	
29	1.949845e+03	1.075958e-01,	1.467595e-06	
30	1.995262e+03	1.075958e-01,	1.501780e-06	
31	2.041738e+03	1.075958e-01,	1.536761e-06	
32	2.089296e+03	1.075958e-01,	1.572557e-06	
33	2.137962e+03	1.075958e-01,	1.609186e-06	
34	2.187762e+03	1.075958e-01,	1.646669e-06	
35	2.238721e+03	1.075958e-01,	1.685025e-06	
36	2.290868e+03	1.075958e-01,	1.724274e-06	
37	2.344229e+03	1.075958e-01,	1.764438e-06	
38	2.398833e+03	1.075958e-01,	1.805537e-06	
39	2.454709e+03	1.075958e-01,	1.847593e-06	
40	2.511886e+03	1.075958e-01,	1.890629e-06	
41	2.570396e+03	1.075958e-01,	1.934668e-06	
42	2.630268e+03	1.075958e-01,	1.979732e-06	
43	2.691535e+03	1.075958e-01,	2.025846e-06	
44	2.754229e+03	1.075958e-01,	2.073034e-06	
45	2.818383e+03	1.075958e-01,	2.121321e-06	
46	2.884032e+03	1.075958e-01,	2.170733e-06	
47	2.951209e+03	1.075958e-01,	2.221296e-06	
48	3.019952e+03	1.075958e-01,	2.273036e-06	
49	3.090295e+03	1.075958e-01,	2.325982e-06	
50	3.162278e+03	1.075958e-01,	2.380161e-06	
51	3.235937e+03	1.075958e-01,	2.435602e-06	
52	3.311311e+03	1.075958e-01,	2.492335e-06	
53	3.388442e+03	1.075958e-01,	2.550389e-06	
54	3.467369e+03	1.075958e-01,	2.609795e-06	

Index   frequency       vop                             
--------------------------------------------------------------------------------
55	3.548134e+03	1.075958e-01,	2.670585e-06	
56	3.630781e+03	1.075958e-01,	2.732791e-06	
57	3.715352e+03	1.075958e-01,	2.796446e-06	
58	3.801894e+03	1.075958e-01,	2.861583e-06	
59	3.890451e+03	1.075958e-01,	2.928238e-06	
60	3.981072e+03	1.075958e-01,	2.996445e-06	
61	4.073803e+03	1.075958e-01,	3.066242e-06	
62	4.168694e+03	1.075958e-01,	3.137663e-06	
63	4.265795e+03	1.075958e-01,	3.210749e-06	
64	4.365158e+03	1.075958e-01,	3.285537e-06	
65	4.466836e+03	1.075958e-01,	3.362067e-06	
66	4.570882e+03	1.075958e-01,	3.440380e-06	
67	4.677351e+03	1.075958e-01,	3.520516e-06	
68	4.786301e+03	1.075958e-01,	3.602520e-06	
69	4.897788e+03	1.075958e-01,	3.686433e-06	
70	5.011872e+03	1.075958e-01,	3.772301e-06	
71	5.128614e+03	1.075958e-01,	3.860169e-06	
72	5.248075e+03	1.075958e-01,	3.950084e-06	
73	5.370318e+03	1.075958e-01,	4.042094e-06	
74	5.495409e+03	1.075958e-01,	4.136246e-06	
75	5.623413e+03	1.075958e-01,	4.232592e-06	
76	5.754399e+03	1.075958e-01,	4.331181e-06	
77	5.888437e+03	1.075958e-01,	4.432067e-06	
78	6.025596e+03	1.075958e-01,	4.535304e-06	
79	6.165950e+03	1.075958e-01,	4.640944e-06	
80	6.309573e+03	1.075958e-01,	4.749046e-06	
81	6.456542e+03	1.075958e-01,	4.859665e-06	
82	6.606934e+03	1.075958e-01,	4.972861e-06	
83	6.760830e+03	1.075958e-01,	5.088694e-06	
84	6.918310e+03	1.075958e-01,	5.207225e-06	
85	7.079458e+03	1.075958e-01,	5.328517e-06	
86	7.244360e+03	1.075958e-01,	5.452634e-06	
87	7.413102e+03	1.075958e-01,	5.579642e-06	
88	7.585776e+03	1.075958e-01,	5.709609e-06	
89	7.762471e+03	1.075958e-01,	5.842603e-06	
90	7.943282e+03	1.075958e-01,	5.978695e-06	
91	8.128305e+03	1.075958e-01,	6.117956e-06	
92	8.317638e+03	1.075958e-01,	6.260462e-06	
93	8.511380e+03	1.075958e-01,	6.406287e-06	
94	8.709636e+03	1.075958e-01,	6.555508e-06	
95	8.912509e+03	1.075958e-01,	6.708206e-06	
96	9.120108e+03	1.075958e-01,	6.864460e-06	
97	9.332543e+03	1.075958e-01,	7.024354e-06	
98	9.549926e+03	1.075958e-01,	7.187972e-06	
99	9.772372e+03	1.075958e-01,	7.355401e-06	
100	1.000000e+04	1.075958e-01,	7.526730e-06	
101	1.023293e+04	1.075958e-01,	7.702051e-06	
102	1.047129e+04	1.075958e-01,	7.881454e-06	
103	1.071519e+04	1.075958e-01,	8.065037e-06	
104	1.096478e+04	1.075958e-01,	8.252896e-06	
105	1.122018e+04	1.075958e-01,	8.445130e-06	
106	1.148154e+04	1.075958e-01,	8.641843e-06	
107	1.174898e+04	1.075958e-01,	8.843137e-06	
108	1.202264e+04	1.075958e-01,	9.049120e-06	
109	1.230269e+04	1.075958e-01,	9.259901e-06	
110	1.258925e+04	1.075958e-01,	9.475592e-06	
111	1.288250e+04	1.075958e-01,	9.696307e-06	
112	1.318257e+04	1.075958e-01,	9.922163e-06	

Index   frequency       vop                             
--------------------------------------------------------------------------------
113	1.348963e+04	1.075958e-01,	1.015328e-05	
114	1.380384e+04	1.075958e-01,	1.038978e-05	
115	1.412538e+04	1.075958e-01,	1.063179e-05	
116	1.445440e+04	1.075958e-01,	1.087944e-05	
117	1.479108e+04	1.075958e-01,	1.113285e-05	
118	1.513561e+04	1.075958e-01,	1.139217e-05	
119	1.548817e+04	1.075958e-01,	1.165753e-05	
120	1.584893e+04	1.075958e-01,	1.192906e-05	
121	1.621810e+04	1.075958e-01,	1.220693e-05	
122	1.659587e+04	1.075958e-01,	1.249126e-05	
123	1.698244e+04	1.075958e-01,	1.278222e-05	
124	1.737801e+04	1.075958e-01,	1.307996e-05	
125	1.778279e+04	1.075958e-01,	1.338463e-05	
126	1.819701e+04	1.075958e-01,	1.369640e-05	
127	1.862087e+04	1.075958e-01,	1.401543e-05	
128	1.905461e+04	1.075958e-01,	1.434189e-05	
129	1.949845e+04	1.075958e-01,	1.467595e-05	
130	1.995262e+04	1.075958e-01,	1.501780e-05	
131	2.041738e+04	1.075958e-01,	1.536761e-05	
132	2.089296e+04	1.075958e-01,	1.572557e-05	
133	2.137962e+04	1.075958e-01,	1.609186e-05	
134	2.187762e+04	1.075958e-01,	1.646669e-05	
135	2.238721e+04	1.075958e-01,	1.685025e-05	
136	2.290868e+04	1.075958e-01,	1.724274e-05	
137	2.344229e+04	1.075958e-01,	1.764438e-05	
138	2.398833e+04	1.075958e-01,	1.805537e-05	
139	2.454709e+04	1.075958e-01,	1.847593e-05	
140	2.511886e+04	1.075958e-01,	1.890629e-05	
141	2.570396e+04	1.075958e-01,	1.934668e-05	
142	2.630268e+04	1.075958e-01,	1.979732e-05	
143	2.691535e+04	1.075958e-01,	2.025846e-05	
144	2.754229e+04	1.075958e-01,	2.073034e-05	
145	2.818383e+04	1.075958e-01,	2.121321e-05	
146	2.884032e+04	1.075958e-01,	2.170733e-05	
147	2.951209e+04	1.075958e-01,	2.221296e-05	
148	3.019952e+04	1.075958e-01,	2.273036e-05	
149	3.090295e+04	1.075958e-01,	2.325982e-05	
150	3.162278e+04	1.075958e-01,	2.380161e-05	
151	3.235937e+04	1.075958e-01,	2.435602e-05	
152	3.311311e+04	1.075958e-01,	2.492335e-05	
153	3.388442e+04	1.075958e-01,	2.550389e-05	
154	3.467369e+04	1.075958e-01,	2.609795e-05	
155	3.548134e+04	1.075958e-01,	2.670585e-05	
156	3.630781e+04	1.075958e-01,	2.732791e-05	
157	3.715352e+04	1.075958e-01,	2.796446e-05	
158	3.801894e+04	1.075958e-01,	2.861583e-05	
159	3.890451e+04	1.075958e-01,	2.928238e-05	
160	3.981072e+04	1.075958e-01,	2.996445e-05	
161	4.073803e+04	1.075958e-01,	3.066242e-05	
162	4.168694e+04	1.075958e-01,	3.137663e-05	
163	4.265795e+04	1.075958e-01,	3.210749e-05	
164	4.365158e+04	1.075958e-01,	3.285537e-05	
165	4.466836e+04	1.075958e-01,	3.362067e-05	
166	4.570882e+04	1.075958e-01,	3.440380e-05	
167	4.677351e+04	1.075958e-01,	3.520516e-05	
168	4.786301e+04	1.075958e-01,	3.602520e-05	
169	4.897788e+04	1.075958e-01,	3.686433e-05	
170	5.011872e+04	1.075958e-01,	3.772301e-05	

Index   frequency       vop                             
--------------------------------------------------------------------------------
171	5.128614e+04	1.075958e-01,	3.860169e-05	
172	5.248075e+04	1.075958e-01,	3.950084e-05	
173	5.370318e+04	1.075958e-01,	4.042094e-05	
174	5.495409e+04	1.075958e-01,	4.136246e-05	
175	5.623413e+04	1.075958e-01,	4.232592e-05	
176	5.754399e+04	1.075958e-01,	4.331181e-05	
177	5.888437e+04	1.075958e-01,	4.432067e-05	
178	6.025596e+04	1.075958e-01,	4.535304e-05	
179	6.165950e+04	1.075958e-01,	4.640944e-05	
180	6.309573e+04	1.075958e-01,	4.749046e-05	
181	6.456542e+04	1.075958e-01,	4.859665e-05	
182	6.606934e+04	1.075958e-01,	4.972861e-05	
183	6.760830e+04	1.075958e-01,	5.088694e-05	
184	6.918310e+04	1.075958e-01,	5.207225e-05	
185	7.079458e+04	1.075958e-01,	5.328517e-05	
186	7.244360e+04	1.075958e-01,	5.452634e-05	
187	7.413102e+04	1.075958e-01,	5.579642e-05	
188	7.585776e+04	1.075958e-01,	5.709609e-05	
189	7.762471e+04	1.075958e-01,	5.842603e-05	
190	7.943282e+04	1.075958e-01,	5.978695e-05	
191	8.128305e+04	1.075958e-01,	6.117956e-05	
192	8.317638e+04	1.075958e-01,	6.260462e-05	
193	8.511380e+04	1.075958e-01,	6.406287e-05	
194	8.709636e+04	1.075958e-01,	6.555508e-05	
195	8.912509e+04	1.075958e-01,	6.708206e-05	
196	9.120108e+04	1.075958e-01,	6.864460e-05	
197	9.332543e+04	1.075958e-01,	7.024354e-05	
198	9.549926e+04	1.075958e-01,	7.187972e-05	
199	9.772372e+04	1.075958e-01,	7.355401e-05	
200	1.000000e+05	1.075958e-01,	7.526730e-05	
201	1.023293e+05	1.075958e-01,	7.702051e-05	
202	1.047129e+05	1.075958e-01,	7.881454e-05	
203	1.071519e+05	1.075958e-01,	8.065037e-05	
204	1.096478e+05	1.075958e-01,	8.252896e-05	
205	1.122018e+05	1.075958e-01,	8.445131e-05	
206	1.148154e+05	1.075958e-01,	8.641843e-05	
207	1.174898e+05	1.075958e-01,	8.843137e-05	
208	1.202264e+05	1.075958e-01,	9.049120e-05	
209	1.230269e+05	1.075958e-01,	9.259901e-05	
210	1.258925e+05	1.075958e-01,	9.475592e-05	
211	1.288250e+05	1.075958e-01,	9.696307e-05	
212	1.318257e+05	1.075958e-01,	9.922163e-05	
213	1.348963e+05	1.075958e-01,	1.015328e-04	
214	1.380384e+05	1.075958e-01,	1.038978e-04	
215	1.412538e+05	1.075958e-01,	1.063179e-04	
216	1.445440e+05	1.075958e-01,	1.087944e-04	
217	1.479108e+05	1.075958e-01,	1.113285e-04	
218	1.513561e+05	1.075958e-01,	1.139217e-04	
219	1.548817e+05	1.075958e-01,	1.165753e-04	
220	1.584893e+05	1.075958e-01,	1.192906e-04	
221	1.621810e+05	1.075958e-01,	1.220693e-04	
222	1.659587e+05	1.075958e-01,	1.249126e-04	
223	1.698244e+05	1.075958e-01,	1.278222e-04	
224	1.737801e+05	1.075958e-01,	1.307996e-04	
225	1.778279e+05	1.075958e-01,	1.338463e-04	
226	1.819701e+05	1.075958e-01,	1.369640e-04	
227	1.862087e+05	1.075958e-01,	1.401543e-04	
228	1.905461e+05	1.075958e-01,	1.434189e-04	

Index   frequency       vop                             
--------------------------------------------------------------------------------
229	1.949845e+05	1.075958e-01,	1.467596e-04	
230	1.995262e+05	1.075958e-01,	1.501780e-04	
231	2.041738e+05	1.075958e-01,	1.536761e-04	
232	2.089296e+05	1.075958e-01,	1.572557e-04	
233	2.137962e+05	1.075958e-01,	1.609186e-04	
234	2.187762e+05	1.075958e-01,	1.646669e-04	
235	2.238721e+05	1.075959e-01,	1.685025e-04	
236	2.290868e+05	1.075959e-01,	1.724274e-04	
237	2.344229e+05	1.075959e-01,	1.764438e-04	
238	2.398833e+05	1.075959e-01,	1.805537e-04	
239	2.454709e+05	1.075959e-01,	1.847593e-04	
240	2.511886e+05	1.075959e-01,	1.890629e-04	
241	2.570396e+05	1.075959e-01,	1.934668e-04	
242	2.630268e+05	1.075959e-01,	1.979732e-04	
243	2.691535e+05	1.075959e-01,	2.025846e-04	
244	2.754229e+05	1.075959e-01,	2.073034e-04	
245	2.818383e+05	1.075959e-01,	2.121321e-04	
246	2.884032e+05	1.075959e-01,	2.170733e-04	
247	2.951209e+05	1.075959e-01,	2.221296e-04	
248	3.019952e+05	1.075959e-01,	2.273036e-04	
249	3.090295e+05	1.075959e-01,	2.325982e-04	
250	3.162278e+05	1.075959e-01,	2.380161e-04	
251	3.235937e+05	1.075959e-01,	2.435602e-04	
252	3.311311e+05	1.075959e-01,	2.492335e-04	
253	3.388442e+05	1.075959e-01,	2.550389e-04	
254	3.467369e+05	1.075959e-01,	2.609795e-04	
255	3.548134e+05	1.075959e-01,	2.670585e-04	
256	3.630781e+05	1.075959e-01,	2.732791e-04	
257	3.715352e+05	1.075959e-01,	2.796446e-04	
258	3.801894e+05	1.075959e-01,	2.861583e-04	
259	3.890451e+05	1.075959e-01,	2.928238e-04	
260	3.981072e+05	1.075959e-01,	2.996446e-04	
261	4.073803e+05	1.075959e-01,	3.066242e-04	
262	4.168694e+05	1.075959e-01,	3.137664e-04	
263	4.265795e+05	1.075959e-01,	3.210749e-04	
264	4.365158e+05	1.075959e-01,	3.285537e-04	
265	4.466836e+05	1.075959e-01,	3.362067e-04	
266	4.570882e+05	1.075959e-01,	3.440380e-04	
267	4.677351e+05	1.075959e-01,	3.520517e-04	
268	4.786301e+05	1.075959e-01,	3.602520e-04	
269	4.897788e+05	1.075959e-01,	3.686434e-04	
270	5.011872e+05	1.075959e-01,	3.772302e-04	
271	5.128614e+05	1.075959e-01,	3.860170e-04	
272	5.248075e+05	1.075960e-01,	3.950085e-04	
273	5.370318e+05	1.075960e-01,	4.042094e-04	
274	5.495409e+05	1.075960e-01,	4.136247e-04	
275	5.623413e+05	1.075960e-01,	4.232592e-04	
276	5.754399e+05	1.075960e-01,	4.331182e-04	
277	5.888437e+05	1.075960e-01,	4.432068e-04	
278	6.025596e+05	1.075960e-01,	4.535304e-04	
279	6.165950e+05	1.075960e-01,	4.640945e-04	
280	6.309573e+05	1.075960e-01,	4.749047e-04	
281	6.456542e+05	1.075960e-01,	4.859666e-04	
282	6.606934e+05	1.075960e-01,	4.972863e-04	
283	6.760830e+05	1.075960e-01,	5.088696e-04	
284	6.918310e+05	1.075960e-01,	5.207227e-04	
285	7.079458e+05	1.075961e-01,	5.328518e-04	
286	7.244360e+05	1.075961e-01,	5.452636e-04	

Index   frequency       vop                             
--------------------------------------------------------------------------------
287	7.413102e+05	1.075961e-01,	5.579644e-04	
288	7.585776e+05	1.075961e-01,	5.709611e-04	
289	7.762471e+05	1.075961e-01,	5.842605e-04	
290	7.943282e+05	1.075961e-01,	5.978696e-04	
291	8.128305e+05	1.075961e-01,	6.117958e-04	
292	8.317638e+05	1.075961e-01,	6.260464e-04	
293	8.511380e+05	1.075962e-01,	6.406289e-04	
294	8.709636e+05	1.075962e-01,	6.555511e-04	
295	8.912509e+05	1.075962e-01,	6.708208e-04	
296	9.120108e+05	1.075962e-01,	6.864463e-04	
297	9.332543e+05	1.075962e-01,	7.024357e-04	
298	9.549926e+05	1.075962e-01,	7.187975e-04	
299	9.772372e+05	1.075963e-01,	7.355405e-04	
300	1.000000e+06	1.075963e-01,	7.526734e-04	
301	1.023293e+06	1.075963e-01,	7.702055e-04	
302	1.047129e+06	1.075963e-01,	7.881459e-04	
303	1.071519e+06	1.075963e-01,	8.065042e-04	
304	1.096478e+06	1.075964e-01,	8.252901e-04	
305	1.122018e+06	1.075964e-01,	8.445136e-04	
306	1.148154e+06	1.075964e-01,	8.641848e-04	
307	1.174898e+06	1.075965e-01,	8.843143e-04	
308	1.202264e+06	1.075965e-01,	9.049127e-04	
309	1.230269e+06	1.075965e-01,	9.259908e-04	
310	1.258925e+06	1.075965e-01,	9.475599e-04	
311	1.288250e+06	1.075966e-01,	9.696315e-04	
312	1.318257e+06	1.075966e-01,	9.922171e-04	
313	1.348963e+06	1.075966e-01,	1.015329e-03	
314	1.380384e+06	1.075967e-01,	1.038979e-03	
315	1.412538e+06	1.075967e-01,	1.063180e-03	
316	1.445440e+06	1.075968e-01,	1.087945e-03	
317	1.479108e+06	1.075968e-01,	1.113286e-03	
318	1.513561e+06	1.075969e-01,	1.139218e-03	
319	1.548817e+06	1.075969e-01,	1.165754e-03	
320	1.584893e+06	1.075970e-01,	1.192908e-03	
321	1.621810e+06	1.075970e-01,	1.220694e-03	
322	1.659587e+06	1.075971e-01,	1.249128e-03	
323	1.698244e+06	1.075971e-01,	1.278224e-03	
324	1.737801e+06	1.075972e-01,	1.307997e-03	
325	1.778279e+06	1.075973e-01,	1.338465e-03	
326	1.819701e+06	1.075973e-01,	1.369642e-03	
327	1.862087e+06	1.075974e-01,	1.401545e-03	
328	1.905461e+06	1.075975e-01,	1.434191e-03	
329	1.949845e+06	1.075975e-01,	1.467598e-03	
330	1.995262e+06	1.075976e-01,	1.501782e-03	
331	2.041738e+06	1.075977e-01,	1.536763e-03	
332	2.089296e+06	1.075978e-01,	1.572559e-03	
333	2.137962e+06	1.075979e-01,	1.609189e-03	
334	2.187762e+06	1.075980e-01,	1.646672e-03	
335	2.238721e+06	1.075981e-01,	1.685028e-03	
336	2.290868e+06	1.075982e-01,	1.724277e-03	
337	2.344229e+06	1.075983e-01,	1.764441e-03	
338	2.398833e+06	1.075984e-01,	1.805540e-03	
339	2.454709e+06	1.075986e-01,	1.847596e-03	
340	2.511886e+06	1.075987e-01,	1.890632e-03	
341	2.570396e+06	1.075988e-01,	1.934671e-03	
342	2.630268e+06	1.075990e-01,	1.979735e-03	
343	2.691535e+06	1.075991e-01,	2.025849e-03	
344	2.754229e+06	1.075993e-01,	2.073037e-03	

Index   frequency       vop                             
--------------------------------------------------------------------------------
345	2.818383e+06	1.075994e-01,	2.121324e-03	
346	2.884032e+06	1.075996e-01,	2.170736e-03	
347	2.951209e+06	1.075998e-01,	2.221299e-03	
348	3.019952e+06	1.076000e-01,	2.273039e-03	
349	3.090295e+06	1.076001e-01,	2.325985e-03	
350	3.162278e+06	1.076004e-01,	2.380164e-03	
351	3.235937e+06	1.076006e-01,	2.435605e-03	
352	3.311311e+06	1.076008e-01,	2.492337e-03	
353	3.388442e+06	1.076010e-01,	2.550390e-03	
354	3.467369e+06	1.076013e-01,	2.609796e-03	
355	3.548134e+06	1.076015e-01,	2.670585e-03	
356	3.630781e+06	1.076018e-01,	2.732790e-03	
357	3.715352e+06	1.076021e-01,	2.796444e-03	
358	3.801894e+06	1.076024e-01,	2.861581e-03	
359	3.890451e+06	1.076027e-01,	2.928234e-03	
360	3.981072e+06	1.076030e-01,	2.996440e-03	
361	4.073803e+06	1.076033e-01,	3.066235e-03	
362	4.168694e+06	1.076037e-01,	3.137655e-03	
363	4.265795e+06	1.076041e-01,	3.210739e-03	
364	4.365158e+06	1.076045e-01,	3.285524e-03	
365	4.466836e+06	1.076049e-01,	3.362052e-03	
366	4.570882e+06	1.076053e-01,	3.440361e-03	
367	4.677351e+06	1.076057e-01,	3.520495e-03	
368	4.786301e+06	1.076062e-01,	3.602495e-03	
369	4.897788e+06	1.076067e-01,	3.686404e-03	
370	5.011872e+06	1.076072e-01,	3.772268e-03	
371	5.128614e+06	1.076078e-01,	3.860132e-03	
372	5.248075e+06	1.076083e-01,	3.950042e-03	
373	5.370318e+06	1.076089e-01,	4.042045e-03	
374	5.495409e+06	1.076095e-01,	4.136192e-03	
375	5.623413e+06	1.076102e-01,	4.232531e-03	
376	5.754399e+06	1.076108e-01,	4.331114e-03	
377	5.888437e+06	1.076116e-01,	4.431992e-03	
378	6.025596e+06	1.076123e-01,	4.535220e-03	
379	6.165950e+06	1.076131e-01,	4.640853e-03	
380	6.309573e+06	1.076139e-01,	4.748945e-03	
381	6.456542e+06	1.076147e-01,	4.859554e-03	
382	6.606934e+06	1.076156e-01,	4.972740e-03	
383	6.760830e+06	1.076165e-01,	5.088562e-03	
384	6.918310e+06	1.076175e-01,	5.207081e-03	
385	7.079458e+06	1.076185e-01,	5.328360e-03	
386	7.244360e+06	1.076196e-01,	5.452464e-03	
387	7.413102e+06	1.076207e-01,	5.579458e-03	
388	7.585776e+06	1.076219e-01,	5.709410e-03	
389	7.762471e+06	1.076231e-01,	5.842388e-03	
390	7.943282e+06	1.076244e-01,	5.978463e-03	
391	8.128305e+06	1.076257e-01,	6.117708e-03	
392	8.317638e+06	1.076272e-01,	6.260195e-03	
393	8.511380e+06	1.076286e-01,	6.406000e-03	
394	8.709636e+06	1.076302e-01,	6.555201e-03	
395	8.912509e+06	1.076318e-01,	6.707877e-03	
396	9.120108e+06	1.076335e-01,	6.864108e-03	
397	9.332543e+06	1.076352e-01,	7.023978e-03	
398	9.549926e+06	1.076371e-01,	7.187571e-03	
399	9.772372e+06	1.076390e-01,	7.354974e-03	
400	1.000000e+07	1.076411e-01,	7.526275e-03	
401	1.023293e+07	1.076432e-01,	7.701565e-03	
402	1.047129e+07	1.076454e-01,	7.880937e-03	

Index   frequency       vop                             
--------------------------------------------------------------------------------
403	1.071519e+07	1.076477e-01,	8.064487e-03	
404	1.096478e+07	1.076502e-01,	8.252311e-03	
405	1.122018e+07	1.076527e-01,	8.444508e-03	
406	1.148154e+07	1.076554e-01,	8.641181e-03	
407	1.174898e+07	1.076582e-01,	8.842434e-03	
408	1.202264e+07	1.076611e-01,	9.048372e-03	
409	1.230269e+07	1.076642e-01,	9.259107e-03	
410	1.258925e+07	1.076674e-01,	9.474748e-03	
411	1.288250e+07	1.076708e-01,	9.695410e-03	
412	1.318257e+07	1.076743e-01,	9.921210e-03	
413	1.348963e+07	1.076780e-01,	1.015227e-02	
414	1.380384e+07	1.076819e-01,	1.038870e-02	
415	1.412538e+07	1.076859e-01,	1.063065e-02	
416	1.445440e+07	1.076901e-01,	1.087822e-02	
