  ** sch_path: /home/andylithia/openmpw/project-reisen-chip1/xschem/ctle_3.sch
  AC Analysis  Mon Oct 31 00:06:33  2022
--------------------------------------------------------------------------------
Index   frequency       vop                             
--------------------------------------------------------------------------------
0	1.000000e+03	5.166617e-01,	4.536668e-07	
1	1.023293e+03	5.166617e-01,	4.642341e-07	
2	1.047129e+03	5.166617e-01,	4.750475e-07	
3	1.071519e+03	5.166617e-01,	4.861127e-07	
4	1.096478e+03	5.166617e-01,	4.974358e-07	
5	1.122018e+03	5.166617e-01,	5.090225e-07	
6	1.148154e+03	5.166617e-01,	5.208792e-07	
7	1.174898e+03	5.166617e-01,	5.330120e-07	
8	1.202264e+03	5.166617e-01,	5.454275e-07	
9	1.230269e+03	5.166617e-01,	5.581321e-07	
10	1.258925e+03	5.166617e-01,	5.711327e-07	
11	1.288250e+03	5.166617e-01,	5.844361e-07	
12	1.318257e+03	5.166617e-01,	5.980493e-07	
13	1.348963e+03	5.166617e-01,	6.119797e-07	
14	1.380384e+03	5.166617e-01,	6.262345e-07	
15	1.412538e+03	5.166617e-01,	6.408214e-07	
16	1.445440e+03	5.166617e-01,	6.557480e-07	
17	1.479108e+03	5.166617e-01,	6.710224e-07	
18	1.513561e+03	5.166617e-01,	6.866525e-07	
19	1.548817e+03	5.166617e-01,	7.026467e-07	
20	1.584893e+03	5.166617e-01,	7.190134e-07	
21	1.621810e+03	5.166617e-01,	7.357614e-07	
22	1.659587e+03	5.166617e-01,	7.528995e-07	
23	1.698244e+03	5.166617e-01,	7.704368e-07	
24	1.737801e+03	5.166617e-01,	7.883826e-07	
25	1.778279e+03	5.166617e-01,	8.067463e-07	
26	1.819701e+03	5.166617e-01,	8.255379e-07	
27	1.862087e+03	5.166617e-01,	8.447671e-07	
28	1.905461e+03	5.166617e-01,	8.644443e-07	
29	1.949845e+03	5.166617e-01,	8.845798e-07	
30	1.995262e+03	5.166617e-01,	9.051843e-07	
31	2.041738e+03	5.166617e-01,	9.262687e-07	
32	2.089296e+03	5.166617e-01,	9.478443e-07	
33	2.137962e+03	5.166617e-01,	9.699224e-07	
34	2.187762e+03	5.166617e-01,	9.925148e-07	
35	2.238721e+03	5.166617e-01,	1.015633e-06	
36	2.290868e+03	5.166617e-01,	1.039291e-06	
37	2.344229e+03	5.166617e-01,	1.063499e-06	
38	2.398833e+03	5.166617e-01,	1.088271e-06	
39	2.454709e+03	5.166617e-01,	1.113620e-06	
40	2.511886e+03	5.166617e-01,	1.139560e-06	
41	2.570396e+03	5.166617e-01,	1.166103e-06	
42	2.630268e+03	5.166617e-01,	1.193265e-06	
43	2.691535e+03	5.166617e-01,	1.221060e-06	
44	2.754229e+03	5.166617e-01,	1.249502e-06	
45	2.818383e+03	5.166617e-01,	1.278607e-06	
46	2.884032e+03	5.166617e-01,	1.308389e-06	
47	2.951209e+03	5.166617e-01,	1.338866e-06	
48	3.019952e+03	5.166617e-01,	1.370052e-06	
49	3.090295e+03	5.166617e-01,	1.401964e-06	
50	3.162278e+03	5.166617e-01,	1.434620e-06	
51	3.235937e+03	5.166617e-01,	1.468037e-06	
52	3.311311e+03	5.166617e-01,	1.502232e-06	
53	3.388442e+03	5.166617e-01,	1.537223e-06	
54	3.467369e+03	5.166617e-01,	1.573030e-06	

Index   frequency       vop                             
--------------------------------------------------------------------------------
55	3.548134e+03	5.166617e-01,	1.609671e-06	
56	3.630781e+03	5.166617e-01,	1.647165e-06	
57	3.715352e+03	5.166617e-01,	1.685532e-06	
58	3.801894e+03	5.166617e-01,	1.724793e-06	
59	3.890451e+03	5.166617e-01,	1.764969e-06	
60	3.981072e+03	5.166617e-01,	1.806080e-06	
61	4.073803e+03	5.166617e-01,	1.848149e-06	
62	4.168694e+03	5.166617e-01,	1.891198e-06	
63	4.265795e+03	5.166617e-01,	1.935250e-06	
64	4.365158e+03	5.166617e-01,	1.980327e-06	
65	4.466836e+03	5.166617e-01,	2.026455e-06	
66	4.570882e+03	5.166617e-01,	2.073657e-06	
67	4.677351e+03	5.166617e-01,	2.121959e-06	
68	4.786301e+03	5.166617e-01,	2.171386e-06	
69	4.897788e+03	5.166617e-01,	2.221964e-06	
70	5.011872e+03	5.166617e-01,	2.273720e-06	
71	5.128614e+03	5.166617e-01,	2.326682e-06	
72	5.248075e+03	5.166617e-01,	2.380877e-06	
73	5.370318e+03	5.166617e-01,	2.436335e-06	
74	5.495409e+03	5.166617e-01,	2.493085e-06	
75	5.623413e+03	5.166617e-01,	2.551156e-06	
76	5.754399e+03	5.166617e-01,	2.610580e-06	
77	5.888437e+03	5.166617e-01,	2.671388e-06	
78	6.025596e+03	5.166617e-01,	2.733613e-06	
79	6.165950e+03	5.166617e-01,	2.797287e-06	
80	6.309573e+03	5.166617e-01,	2.862444e-06	
81	6.456542e+03	5.166617e-01,	2.929119e-06	
82	6.606934e+03	5.166617e-01,	2.997347e-06	
83	6.760830e+03	5.166617e-01,	3.067164e-06	
84	6.918310e+03	5.166617e-01,	3.138607e-06	
85	7.079458e+03	5.166617e-01,	3.211715e-06	
86	7.244360e+03	5.166617e-01,	3.286526e-06	
87	7.413102e+03	5.166617e-01,	3.363079e-06	
88	7.585776e+03	5.166617e-01,	3.441415e-06	
89	7.762471e+03	5.166617e-01,	3.521576e-06	
90	7.943282e+03	5.166617e-01,	3.603604e-06	
91	8.128305e+03	5.166617e-01,	3.687542e-06	
92	8.317638e+03	5.166617e-01,	3.773436e-06	
93	8.511380e+03	5.166617e-01,	3.861331e-06	
94	8.709636e+03	5.166617e-01,	3.951273e-06	
95	8.912509e+03	5.166617e-01,	4.043310e-06	
96	9.120108e+03	5.166617e-01,	4.137490e-06	
97	9.332543e+03	5.166617e-01,	4.233865e-06	
98	9.549926e+03	5.166617e-01,	4.332484e-06	
99	9.772372e+03	5.166617e-01,	4.433401e-06	
100	1.000000e+04	5.166617e-01,	4.536668e-06	
101	1.023293e+04	5.166617e-01,	4.642341e-06	
102	1.047129e+04	5.166617e-01,	4.750475e-06	
103	1.071519e+04	5.166617e-01,	4.861127e-06	
104	1.096478e+04	5.166617e-01,	4.974358e-06	
105	1.122018e+04	5.166617e-01,	5.090225e-06	
106	1.148154e+04	5.166617e-01,	5.208792e-06	
107	1.174898e+04	5.166617e-01,	5.330120e-06	
108	1.202264e+04	5.166617e-01,	5.454275e-06	
109	1.230269e+04	5.166617e-01,	5.581321e-06	
110	1.258925e+04	5.166617e-01,	5.711327e-06	
111	1.288250e+04	5.166617e-01,	5.844361e-06	
112	1.318257e+04	5.166617e-01,	5.980493e-06	

Index   frequency       vop                             
--------------------------------------------------------------------------------
113	1.348963e+04	5.166617e-01,	6.119797e-06	
114	1.380384e+04	5.166617e-01,	6.262345e-06	
115	1.412538e+04	5.166617e-01,	6.408214e-06	
116	1.445440e+04	5.166617e-01,	6.557480e-06	
117	1.479108e+04	5.166617e-01,	6.710224e-06	
118	1.513561e+04	5.166617e-01,	6.866525e-06	
119	1.548817e+04	5.166617e-01,	7.026467e-06	
120	1.584893e+04	5.166617e-01,	7.190134e-06	
121	1.621810e+04	5.166617e-01,	7.357614e-06	
122	1.659587e+04	5.166617e-01,	7.528995e-06	
123	1.698244e+04	5.166617e-01,	7.704368e-06	
124	1.737801e+04	5.166617e-01,	7.883826e-06	
125	1.778279e+04	5.166617e-01,	8.067463e-06	
126	1.819701e+04	5.166617e-01,	8.255379e-06	
127	1.862087e+04	5.166617e-01,	8.447671e-06	
128	1.905461e+04	5.166617e-01,	8.644443e-06	
129	1.949845e+04	5.166617e-01,	8.845798e-06	
130	1.995262e+04	5.166617e-01,	9.051843e-06	
131	2.041738e+04	5.166617e-01,	9.262687e-06	
132	2.089296e+04	5.166617e-01,	9.478443e-06	
133	2.137962e+04	5.166617e-01,	9.699224e-06	
134	2.187762e+04	5.166617e-01,	9.925148e-06	
135	2.238721e+04	5.166617e-01,	1.015633e-05	
136	2.290868e+04	5.166617e-01,	1.039291e-05	
137	2.344229e+04	5.166617e-01,	1.063499e-05	
138	2.398833e+04	5.166617e-01,	1.088271e-05	
139	2.454709e+04	5.166617e-01,	1.113620e-05	
140	2.511886e+04	5.166617e-01,	1.139560e-05	
141	2.570396e+04	5.166617e-01,	1.166103e-05	
142	2.630268e+04	5.166617e-01,	1.193265e-05	
143	2.691535e+04	5.166617e-01,	1.221060e-05	
144	2.754229e+04	5.166617e-01,	1.249502e-05	
145	2.818383e+04	5.166617e-01,	1.278607e-05	
146	2.884032e+04	5.166617e-01,	1.308389e-05	
147	2.951209e+04	5.166617e-01,	1.338866e-05	
148	3.019952e+04	5.166617e-01,	1.370052e-05	
149	3.090295e+04	5.166617e-01,	1.401964e-05	
150	3.162278e+04	5.166617e-01,	1.434620e-05	
151	3.235937e+04	5.166617e-01,	1.468037e-05	
152	3.311311e+04	5.166617e-01,	1.502232e-05	
153	3.388442e+04	5.166617e-01,	1.537223e-05	
154	3.467369e+04	5.166617e-01,	1.573030e-05	
155	3.548134e+04	5.166617e-01,	1.609671e-05	
156	3.630781e+04	5.166617e-01,	1.647165e-05	
157	3.715352e+04	5.166617e-01,	1.685532e-05	
158	3.801894e+04	5.166617e-01,	1.724793e-05	
159	3.890451e+04	5.166617e-01,	1.764969e-05	
160	3.981072e+04	5.166617e-01,	1.806080e-05	
161	4.073803e+04	5.166617e-01,	1.848149e-05	
162	4.168694e+04	5.166617e-01,	1.891198e-05	
163	4.265795e+04	5.166617e-01,	1.935250e-05	
164	4.365158e+04	5.166617e-01,	1.980327e-05	
165	4.466836e+04	5.166617e-01,	2.026455e-05	
166	4.570882e+04	5.166617e-01,	2.073657e-05	
167	4.677351e+04	5.166617e-01,	2.121959e-05	
168	4.786301e+04	5.166617e-01,	2.171386e-05	
169	4.897788e+04	5.166617e-01,	2.221964e-05	
170	5.011872e+04	5.166617e-01,	2.273720e-05	

Index   frequency       vop                             
--------------------------------------------------------------------------------
171	5.128614e+04	5.166617e-01,	2.326682e-05	
172	5.248075e+04	5.166617e-01,	2.380877e-05	
173	5.370318e+04	5.166617e-01,	2.436335e-05	
174	5.495409e+04	5.166617e-01,	2.493085e-05	
175	5.623413e+04	5.166617e-01,	2.551156e-05	
176	5.754399e+04	5.166617e-01,	2.610580e-05	
177	5.888437e+04	5.166617e-01,	2.671388e-05	
178	6.025596e+04	5.166617e-01,	2.733613e-05	
179	6.165950e+04	5.166617e-01,	2.797287e-05	
180	6.309573e+04	5.166617e-01,	2.862444e-05	
181	6.456542e+04	5.166617e-01,	2.929119e-05	
182	6.606934e+04	5.166617e-01,	2.997347e-05	
183	6.760830e+04	5.166617e-01,	3.067164e-05	
184	6.918310e+04	5.166617e-01,	3.138607e-05	
185	7.079458e+04	5.166617e-01,	3.211715e-05	
186	7.244360e+04	5.166617e-01,	3.286525e-05	
187	7.413102e+04	5.166617e-01,	3.363078e-05	
188	7.585776e+04	5.166617e-01,	3.441415e-05	
189	7.762471e+04	5.166617e-01,	3.521575e-05	
190	7.943282e+04	5.166617e-01,	3.603603e-05	
191	8.128305e+04	5.166617e-01,	3.687542e-05	
192	8.317638e+04	5.166617e-01,	3.773436e-05	
193	8.511380e+04	5.166617e-01,	3.861331e-05	
194	8.709636e+04	5.166617e-01,	3.951273e-05	
195	8.912509e+04	5.166617e-01,	4.043310e-05	
196	9.120108e+04	5.166617e-01,	4.137490e-05	
197	9.332543e+04	5.166617e-01,	4.233865e-05	
198	9.549926e+04	5.166617e-01,	4.332484e-05	
199	9.772372e+04	5.166617e-01,	4.433401e-05	
200	1.000000e+05	5.166617e-01,	4.536668e-05	
201	1.023293e+05	5.166617e-01,	4.642341e-05	
202	1.047129e+05	5.166617e-01,	4.750474e-05	
203	1.071519e+05	5.166617e-01,	4.861127e-05	
204	1.096478e+05	5.166617e-01,	4.974357e-05	
205	1.122018e+05	5.166617e-01,	5.090225e-05	
206	1.148154e+05	5.166617e-01,	5.208792e-05	
207	1.174898e+05	5.166617e-01,	5.330120e-05	
208	1.202264e+05	5.166617e-01,	5.454274e-05	
209	1.230269e+05	5.166617e-01,	5.581321e-05	
210	1.258925e+05	5.166617e-01,	5.711326e-05	
211	1.288250e+05	5.166617e-01,	5.844360e-05	
212	1.318257e+05	5.166617e-01,	5.980493e-05	
213	1.348963e+05	5.166617e-01,	6.119796e-05	
214	1.380384e+05	5.166617e-01,	6.262345e-05	
215	1.412538e+05	5.166617e-01,	6.408214e-05	
216	1.445440e+05	5.166617e-01,	6.557480e-05	
217	1.479108e+05	5.166617e-01,	6.710223e-05	
218	1.513561e+05	5.166617e-01,	6.866524e-05	
219	1.548817e+05	5.166617e-01,	7.026466e-05	
220	1.584893e+05	5.166617e-01,	7.190134e-05	
221	1.621810e+05	5.166617e-01,	7.357613e-05	
222	1.659587e+05	5.166617e-01,	7.528994e-05	
223	1.698244e+05	5.166617e-01,	7.704367e-05	
224	1.737801e+05	5.166617e-01,	7.883825e-05	
225	1.778279e+05	5.166617e-01,	8.067463e-05	
226	1.819701e+05	5.166617e-01,	8.255378e-05	
227	1.862087e+05	5.166617e-01,	8.447670e-05	
228	1.905461e+05	5.166617e-01,	8.644442e-05	

Index   frequency       vop                             
--------------------------------------------------------------------------------
229	1.949845e+05	5.166617e-01,	8.845797e-05	
230	1.995262e+05	5.166617e-01,	9.051842e-05	
231	2.041738e+05	5.166617e-01,	9.262686e-05	
232	2.089296e+05	5.166617e-01,	9.478442e-05	
233	2.137962e+05	5.166617e-01,	9.699223e-05	
234	2.187762e+05	5.166617e-01,	9.925147e-05	
235	2.238721e+05	5.166617e-01,	1.015633e-04	
236	2.290868e+05	5.166617e-01,	1.039290e-04	
237	2.344229e+05	5.166617e-01,	1.063499e-04	
238	2.398833e+05	5.166617e-01,	1.088271e-04	
239	2.454709e+05	5.166617e-01,	1.113620e-04	
240	2.511886e+05	5.166617e-01,	1.139559e-04	
241	2.570396e+05	5.166617e-01,	1.166103e-04	
242	2.630268e+05	5.166617e-01,	1.193265e-04	
243	2.691535e+05	5.166617e-01,	1.221060e-04	
244	2.754229e+05	5.166617e-01,	1.249502e-04	
245	2.818383e+05	5.166617e-01,	1.278606e-04	
246	2.884032e+05	5.166617e-01,	1.308389e-04	
247	2.951209e+05	5.166617e-01,	1.338865e-04	
248	3.019952e+05	5.166617e-01,	1.370051e-04	
249	3.090295e+05	5.166617e-01,	1.401964e-04	
250	3.162278e+05	5.166617e-01,	1.434620e-04	
251	3.235937e+05	5.166617e-01,	1.468037e-04	
252	3.311311e+05	5.166617e-01,	1.502231e-04	
253	3.388442e+05	5.166617e-01,	1.537223e-04	
254	3.467369e+05	5.166617e-01,	1.573029e-04	
255	3.548134e+05	5.166617e-01,	1.609670e-04	
256	3.630781e+05	5.166617e-01,	1.647164e-04	
257	3.715352e+05	5.166617e-01,	1.685531e-04	
258	3.801894e+05	5.166617e-01,	1.724792e-04	
259	3.890451e+05	5.166617e-01,	1.764968e-04	
260	3.981072e+05	5.166617e-01,	1.806079e-04	
261	4.073803e+05	5.166617e-01,	1.848148e-04	
262	4.168694e+05	5.166617e-01,	1.891197e-04	
263	4.265795e+05	5.166617e-01,	1.935249e-04	
264	4.365158e+05	5.166617e-01,	1.980326e-04	
265	4.466836e+05	5.166617e-01,	2.026454e-04	
266	4.570882e+05	5.166617e-01,	2.073656e-04	
267	4.677351e+05	5.166618e-01,	2.121958e-04	
268	4.786301e+05	5.166618e-01,	2.171384e-04	
269	4.897788e+05	5.166618e-01,	2.221962e-04	
270	5.011872e+05	5.166618e-01,	2.273718e-04	
271	5.128614e+05	5.166618e-01,	2.326680e-04	
272	5.248075e+05	5.166618e-01,	2.380875e-04	
273	5.370318e+05	5.166618e-01,	2.436333e-04	
274	5.495409e+05	5.166618e-01,	2.493082e-04	
275	5.623413e+05	5.166618e-01,	2.551153e-04	
276	5.754399e+05	5.166618e-01,	2.610577e-04	
277	5.888437e+05	5.166618e-01,	2.671385e-04	
278	6.025596e+05	5.166618e-01,	2.733610e-04	
279	6.165950e+05	5.166618e-01,	2.797283e-04	
280	6.309573e+05	5.166618e-01,	2.862440e-04	
281	6.456542e+05	5.166618e-01,	2.929115e-04	
282	6.606934e+05	5.166618e-01,	2.997343e-04	
283	6.760830e+05	5.166618e-01,	3.067159e-04	
284	6.918310e+05	5.166618e-01,	3.138603e-04	
285	7.079458e+05	5.166618e-01,	3.211710e-04	
286	7.244360e+05	5.166618e-01,	3.286520e-04	

Index   frequency       vop                             
--------------------------------------------------------------------------------
287	7.413102e+05	5.166618e-01,	3.363072e-04	
288	7.585776e+05	5.166618e-01,	3.441408e-04	
289	7.762471e+05	5.166619e-01,	3.521569e-04	
290	7.943282e+05	5.166619e-01,	3.603596e-04	
291	8.128305e+05	5.166619e-01,	3.687534e-04	
292	8.317638e+05	5.166619e-01,	3.773428e-04	
293	8.511380e+05	5.166619e-01,	3.861322e-04	
294	8.709636e+05	5.166619e-01,	3.951263e-04	
295	8.912509e+05	5.166619e-01,	4.043299e-04	
296	9.120108e+05	5.166619e-01,	4.137479e-04	
297	9.332543e+05	5.166619e-01,	4.233853e-04	
298	9.549926e+05	5.166619e-01,	4.332472e-04	
299	9.772372e+05	5.166619e-01,	4.433387e-04	
300	1.000000e+06	5.166620e-01,	4.536654e-04	
301	1.023293e+06	5.166620e-01,	4.642325e-04	
302	1.047129e+06	5.166620e-01,	4.750458e-04	
303	1.071519e+06	5.166620e-01,	4.861110e-04	
304	1.096478e+06	5.166620e-01,	4.974339e-04	
305	1.122018e+06	5.166620e-01,	5.090205e-04	
306	1.148154e+06	5.166620e-01,	5.208770e-04	
307	1.174898e+06	5.166621e-01,	5.330097e-04	
308	1.202264e+06	5.166621e-01,	5.454250e-04	
309	1.230269e+06	5.166621e-01,	5.581295e-04	
310	1.258925e+06	5.166621e-01,	5.711298e-04	
311	1.288250e+06	5.166621e-01,	5.844330e-04	
312	1.318257e+06	5.166621e-01,	5.980461e-04	
313	1.348963e+06	5.166622e-01,	6.119762e-04	
314	1.380384e+06	5.166622e-01,	6.262308e-04	
315	1.412538e+06	5.166622e-01,	6.408175e-04	
316	1.445440e+06	5.166622e-01,	6.557439e-04	
317	1.479108e+06	5.166623e-01,	6.710179e-04	
318	1.513561e+06	5.166623e-01,	6.866477e-04	
319	1.548817e+06	5.166623e-01,	7.026416e-04	
320	1.584893e+06	5.166623e-01,	7.190080e-04	
321	1.621810e+06	5.166624e-01,	7.357556e-04	
322	1.659587e+06	5.166624e-01,	7.528934e-04	
323	1.698244e+06	5.166624e-01,	7.704302e-04	
324	1.737801e+06	5.166625e-01,	7.883756e-04	
325	1.778279e+06	5.166625e-01,	8.067389e-04	
326	1.819701e+06	5.166626e-01,	8.255300e-04	
327	1.862087e+06	5.166626e-01,	8.447587e-04	
328	1.905461e+06	5.166626e-01,	8.644354e-04	
329	1.949845e+06	5.166627e-01,	8.845703e-04	
330	1.995262e+06	5.166627e-01,	9.051742e-04	
331	2.041738e+06	5.166628e-01,	9.262581e-04	
332	2.089296e+06	5.166628e-01,	9.478330e-04	
333	2.137962e+06	5.166629e-01,	9.699104e-04	
334	2.187762e+06	5.166629e-01,	9.925021e-04	
335	2.238721e+06	5.166630e-01,	1.015620e-03	
336	2.290868e+06	5.166631e-01,	1.039276e-03	
337	2.344229e+06	5.166631e-01,	1.063484e-03	
338	2.398833e+06	5.166632e-01,	1.088255e-03	
339	2.454709e+06	5.166633e-01,	1.113603e-03	
340	2.511886e+06	5.166633e-01,	1.139542e-03	
341	2.570396e+06	5.166634e-01,	1.166085e-03	
342	2.630268e+06	5.166635e-01,	1.193246e-03	
343	2.691535e+06	5.166636e-01,	1.221039e-03	
344	2.754229e+06	5.166637e-01,	1.249480e-03	

Index   frequency       vop                             
--------------------------------------------------------------------------------
345	2.818383e+06	5.166638e-01,	1.278584e-03	
346	2.884032e+06	5.166639e-01,	1.308366e-03	
347	2.951209e+06	5.166640e-01,	1.338841e-03	
348	3.019952e+06	5.166641e-01,	1.370026e-03	
349	3.090295e+06	5.166642e-01,	1.401937e-03	
350	3.162278e+06	5.166643e-01,	1.434592e-03	
351	3.235937e+06	5.166644e-01,	1.468008e-03	
352	3.311311e+06	5.166645e-01,	1.502202e-03	
353	3.388442e+06	5.166647e-01,	1.537192e-03	
354	3.467369e+06	5.166648e-01,	1.572997e-03	
355	3.548134e+06	5.166650e-01,	1.609637e-03	
356	3.630781e+06	5.166651e-01,	1.647130e-03	
357	3.715352e+06	5.166653e-01,	1.685497e-03	
358	3.801894e+06	5.166654e-01,	1.724757e-03	
359	3.890451e+06	5.166656e-01,	1.764932e-03	
360	3.981072e+06	5.166658e-01,	1.806043e-03	
361	4.073803e+06	5.166660e-01,	1.848112e-03	
362	4.168694e+06	5.166662e-01,	1.891160e-03	
363	4.265795e+06	5.166664e-01,	1.935212e-03	
364	4.365158e+06	5.166666e-01,	1.980290e-03	
365	4.466836e+06	5.166668e-01,	2.026418e-03	
366	4.570882e+06	5.166671e-01,	2.073621e-03	
367	4.677351e+06	5.166673e-01,	2.121923e-03	
368	4.786301e+06	5.166676e-01,	2.171351e-03	
369	4.897788e+06	5.166679e-01,	2.221931e-03	
370	5.011872e+06	5.166682e-01,	2.273689e-03	
371	5.128614e+06	5.166685e-01,	2.326652e-03	
372	5.248075e+06	5.166688e-01,	2.380850e-03	
373	5.370318e+06	5.166691e-01,	2.436310e-03	
374	5.495409e+06	5.166695e-01,	2.493063e-03	
375	5.623413e+06	5.166698e-01,	2.551138e-03	
376	5.754399e+06	5.166702e-01,	2.610565e-03	
377	5.888437e+06	5.166706e-01,	2.671377e-03	
378	6.025596e+06	5.166710e-01,	2.733606e-03	
379	6.165950e+06	5.166715e-01,	2.797285e-03	
380	6.309573e+06	5.166720e-01,	2.862447e-03	
381	6.456542e+06	5.166724e-01,	2.929127e-03	
382	6.606934e+06	5.166729e-01,	2.997360e-03	
383	6.760830e+06	5.166735e-01,	3.067183e-03	
384	6.918310e+06	5.166740e-01,	3.138632e-03	
385	7.079458e+06	5.166746e-01,	3.211746e-03	
386	7.244360e+06	5.166752e-01,	3.286562e-03	
387	7.413102e+06	5.166759e-01,	3.363121e-03	
388	7.585776e+06	5.166766e-01,	3.441464e-03	
389	7.762471e+06	5.166773e-01,	3.521631e-03	
390	7.943282e+06	5.166780e-01,	3.603665e-03	
391	8.128305e+06	5.166788e-01,	3.687610e-03	
392	8.317638e+06	5.166796e-01,	3.773510e-03	
393	8.511380e+06	5.166805e-01,	3.861410e-03	
394	8.709636e+06	5.166813e-01,	3.951358e-03	
395	8.912509e+06	5.166823e-01,	4.043400e-03	
396	9.120108e+06	5.166833e-01,	4.137586e-03	
397	9.332543e+06	5.166843e-01,	4.233965e-03	
398	9.549926e+06	5.166854e-01,	4.332589e-03	
399	9.772372e+06	5.166865e-01,	4.433509e-03	
400	1.000000e+07	5.166877e-01,	4.536780e-03	
401	1.023293e+07	5.166889e-01,	4.642455e-03	
402	1.047129e+07	5.166902e-01,	4.750591e-03	

Index   frequency       vop                             
--------------------------------------------------------------------------------
403	1.071519e+07	5.166916e-01,	4.861245e-03	
404	1.096478e+07	5.166930e-01,	4.974476e-03	
405	1.122018e+07	5.166945e-01,	5.090344e-03	
406	1.148154e+07	5.166960e-01,	5.208909e-03	
407	1.174898e+07	5.166977e-01,	5.330236e-03	
408	1.202264e+07	5.166994e-01,	5.454387e-03	
409	1.230269e+07	5.167012e-01,	5.581429e-03	
410	1.258925e+07	5.167030e-01,	5.711429e-03	
411	1.288250e+07	5.167050e-01,	5.844456e-03	
412	1.318257e+07	5.167071e-01,	5.980580e-03	
413	1.348963e+07	5.167092e-01,	6.119873e-03	
414	1.380384e+07	5.167115e-01,	6.262410e-03	
415	1.412538e+07	5.167138e-01,	6.408265e-03	
416	1.445440e+07	5.167163e-01,	6.557516e-03	
