  ** sch_path: /home/andylithia/openmpw/project-reisen-chip1/xschem/ctle_3.sch
  AC Analysis  Mon Oct 31 00:06:34  2022
--------------------------------------------------------------------------------
Index   frequency       vop                             
--------------------------------------------------------------------------------
0	1.000000e+03	1.044458e+00,	1.480933e-07	
1	1.023293e+03	1.044458e+00,	1.515428e-07	
2	1.047129e+03	1.044458e+00,	1.550727e-07	
3	1.071519e+03	1.044458e+00,	1.586848e-07	
4	1.096478e+03	1.044458e+00,	1.623811e-07	
5	1.122018e+03	1.044458e+00,	1.661634e-07	
6	1.148154e+03	1.044458e+00,	1.700338e-07	
7	1.174898e+03	1.044458e+00,	1.739944e-07	
8	1.202264e+03	1.044458e+00,	1.780473e-07	
9	1.230269e+03	1.044458e+00,	1.821945e-07	
10	1.258925e+03	1.044458e+00,	1.864384e-07	
11	1.288250e+03	1.044458e+00,	1.907811e-07	
12	1.318257e+03	1.044458e+00,	1.952250e-07	
13	1.348963e+03	1.044458e+00,	1.997723e-07	
14	1.380384e+03	1.044458e+00,	2.044256e-07	
15	1.412538e+03	1.044458e+00,	2.091873e-07	
16	1.445440e+03	1.044458e+00,	2.140599e-07	
17	1.479108e+03	1.044458e+00,	2.190460e-07	
18	1.513561e+03	1.044458e+00,	2.241483e-07	
19	1.548817e+03	1.044458e+00,	2.293693e-07	
20	1.584893e+03	1.044458e+00,	2.347120e-07	
21	1.621810e+03	1.044458e+00,	2.401792e-07	
22	1.659587e+03	1.044458e+00,	2.457737e-07	
23	1.698244e+03	1.044458e+00,	2.514985e-07	
24	1.737801e+03	1.044458e+00,	2.573566e-07	
25	1.778279e+03	1.044458e+00,	2.633512e-07	
26	1.819701e+03	1.044458e+00,	2.694855e-07	
27	1.862087e+03	1.044458e+00,	2.757626e-07	
28	1.905461e+03	1.044458e+00,	2.821859e-07	
29	1.949845e+03	1.044458e+00,	2.887589e-07	
30	1.995262e+03	1.044458e+00,	2.954849e-07	
31	2.041738e+03	1.044458e+00,	3.023677e-07	
32	2.089296e+03	1.044458e+00,	3.094107e-07	
33	2.137962e+03	1.044458e+00,	3.166178e-07	
34	2.187762e+03	1.044458e+00,	3.239928e-07	
35	2.238721e+03	1.044458e+00,	3.315396e-07	
36	2.290868e+03	1.044458e+00,	3.392621e-07	
37	2.344229e+03	1.044458e+00,	3.471645e-07	
38	2.398833e+03	1.044458e+00,	3.552510e-07	
39	2.454709e+03	1.044458e+00,	3.635259e-07	
40	2.511886e+03	1.044458e+00,	3.719935e-07	
41	2.570396e+03	1.044458e+00,	3.806583e-07	
42	2.630268e+03	1.044458e+00,	3.895250e-07	
43	2.691535e+03	1.044458e+00,	3.985982e-07	
44	2.754229e+03	1.044458e+00,	4.078828e-07	
45	2.818383e+03	1.044458e+00,	4.173836e-07	
46	2.884032e+03	1.044458e+00,	4.271057e-07	
47	2.951209e+03	1.044458e+00,	4.370543e-07	
48	3.019952e+03	1.044458e+00,	4.472346e-07	
49	3.090295e+03	1.044458e+00,	4.576520e-07	
50	3.162278e+03	1.044458e+00,	4.683121e-07	
51	3.235937e+03	1.044458e+00,	4.792205e-07	
52	3.311311e+03	1.044458e+00,	4.903829e-07	
53	3.388442e+03	1.044458e+00,	5.018054e-07	
54	3.467369e+03	1.044458e+00,	5.134940e-07	

Index   frequency       vop                             
--------------------------------------------------------------------------------
55	3.548134e+03	1.044458e+00,	5.254548e-07	
56	3.630781e+03	1.044458e+00,	5.376942e-07	
57	3.715352e+03	1.044458e+00,	5.502187e-07	
58	3.801894e+03	1.044458e+00,	5.630350e-07	
59	3.890451e+03	1.044458e+00,	5.761497e-07	
60	3.981072e+03	1.044458e+00,	5.895700e-07	
61	4.073803e+03	1.044458e+00,	6.033028e-07	
62	4.168694e+03	1.044458e+00,	6.173556e-07	
63	4.265795e+03	1.044458e+00,	6.317356e-07	
64	4.365158e+03	1.044458e+00,	6.464506e-07	
65	4.466836e+03	1.044458e+00,	6.615084e-07	
66	4.570882e+03	1.044458e+00,	6.769169e-07	
67	4.677351e+03	1.044458e+00,	6.926843e-07	
68	4.786301e+03	1.044458e+00,	7.088190e-07	
69	4.897788e+03	1.044458e+00,	7.253295e-07	
70	5.011872e+03	1.044458e+00,	7.422246e-07	
71	5.128614e+03	1.044458e+00,	7.595133e-07	
72	5.248075e+03	1.044458e+00,	7.772046e-07	
73	5.370318e+03	1.044458e+00,	7.953080e-07	
74	5.495409e+03	1.044458e+00,	8.138331e-07	
75	5.623413e+03	1.044458e+00,	8.327897e-07	
76	5.754399e+03	1.044458e+00,	8.521879e-07	
77	5.888437e+03	1.044458e+00,	8.720379e-07	
78	6.025596e+03	1.044458e+00,	8.923503e-07	
79	6.165950e+03	1.044458e+00,	9.131358e-07	
80	6.309573e+03	1.044458e+00,	9.344054e-07	
81	6.456542e+03	1.044458e+00,	9.561705e-07	
82	6.606934e+03	1.044458e+00,	9.784426e-07	
83	6.760830e+03	1.044458e+00,	1.001233e-06	
84	6.918310e+03	1.044458e+00,	1.024555e-06	
85	7.079458e+03	1.044458e+00,	1.048420e-06	
86	7.244360e+03	1.044458e+00,	1.072841e-06	
87	7.413102e+03	1.044458e+00,	1.097831e-06	
88	7.585776e+03	1.044458e+00,	1.123402e-06	
89	7.762471e+03	1.044458e+00,	1.149570e-06	
90	7.943282e+03	1.044458e+00,	1.176347e-06	
91	8.128305e+03	1.044458e+00,	1.203747e-06	
92	8.317638e+03	1.044458e+00,	1.231786e-06	
93	8.511380e+03	1.044458e+00,	1.260478e-06	
94	8.709636e+03	1.044458e+00,	1.289839e-06	
95	8.912509e+03	1.044458e+00,	1.319883e-06	
96	9.120108e+03	1.044458e+00,	1.350627e-06	
97	9.332543e+03	1.044458e+00,	1.382087e-06	
98	9.549926e+03	1.044458e+00,	1.414280e-06	
99	9.772372e+03	1.044458e+00,	1.447223e-06	
100	1.000000e+04	1.044458e+00,	1.480933e-06	
101	1.023293e+04	1.044458e+00,	1.515428e-06	
102	1.047129e+04	1.044458e+00,	1.550727e-06	
103	1.071519e+04	1.044458e+00,	1.586848e-06	
104	1.096478e+04	1.044458e+00,	1.623811e-06	
105	1.122018e+04	1.044458e+00,	1.661634e-06	
106	1.148154e+04	1.044458e+00,	1.700338e-06	
107	1.174898e+04	1.044458e+00,	1.739944e-06	
108	1.202264e+04	1.044458e+00,	1.780473e-06	
109	1.230269e+04	1.044458e+00,	1.821945e-06	
110	1.258925e+04	1.044458e+00,	1.864384e-06	
111	1.288250e+04	1.044458e+00,	1.907811e-06	
112	1.318257e+04	1.044458e+00,	1.952250e-06	

Index   frequency       vop                             
--------------------------------------------------------------------------------
113	1.348963e+04	1.044458e+00,	1.997723e-06	
114	1.380384e+04	1.044458e+00,	2.044256e-06	
115	1.412538e+04	1.044458e+00,	2.091873e-06	
116	1.445440e+04	1.044458e+00,	2.140599e-06	
117	1.479108e+04	1.044458e+00,	2.190460e-06	
118	1.513561e+04	1.044458e+00,	2.241483e-06	
119	1.548817e+04	1.044458e+00,	2.293693e-06	
120	1.584893e+04	1.044458e+00,	2.347120e-06	
121	1.621810e+04	1.044458e+00,	2.401792e-06	
122	1.659587e+04	1.044458e+00,	2.457737e-06	
123	1.698244e+04	1.044458e+00,	2.514985e-06	
124	1.737801e+04	1.044458e+00,	2.573566e-06	
125	1.778279e+04	1.044458e+00,	2.633512e-06	
126	1.819701e+04	1.044458e+00,	2.694855e-06	
127	1.862087e+04	1.044458e+00,	2.757626e-06	
128	1.905461e+04	1.044458e+00,	2.821859e-06	
129	1.949845e+04	1.044458e+00,	2.887589e-06	
130	1.995262e+04	1.044458e+00,	2.954849e-06	
131	2.041738e+04	1.044458e+00,	3.023677e-06	
132	2.089296e+04	1.044458e+00,	3.094107e-06	
133	2.137962e+04	1.044458e+00,	3.166178e-06	
134	2.187762e+04	1.044458e+00,	3.239928e-06	
135	2.238721e+04	1.044458e+00,	3.315396e-06	
136	2.290868e+04	1.044458e+00,	3.392621e-06	
137	2.344229e+04	1.044458e+00,	3.471645e-06	
138	2.398833e+04	1.044458e+00,	3.552510e-06	
139	2.454709e+04	1.044458e+00,	3.635259e-06	
140	2.511886e+04	1.044458e+00,	3.719935e-06	
141	2.570396e+04	1.044458e+00,	3.806584e-06	
142	2.630268e+04	1.044458e+00,	3.895250e-06	
143	2.691535e+04	1.044458e+00,	3.985982e-06	
144	2.754229e+04	1.044458e+00,	4.078828e-06	
145	2.818383e+04	1.044458e+00,	4.173836e-06	
146	2.884032e+04	1.044458e+00,	4.271057e-06	
147	2.951209e+04	1.044458e+00,	4.370543e-06	
148	3.019952e+04	1.044458e+00,	4.472346e-06	
149	3.090295e+04	1.044458e+00,	4.576520e-06	
150	3.162278e+04	1.044458e+00,	4.683121e-06	
151	3.235937e+04	1.044458e+00,	4.792205e-06	
152	3.311311e+04	1.044458e+00,	4.903830e-06	
153	3.388442e+04	1.044458e+00,	5.018054e-06	
154	3.467369e+04	1.044458e+00,	5.134940e-06	
155	3.548134e+04	1.044458e+00,	5.254548e-06	
156	3.630781e+04	1.044458e+00,	5.376942e-06	
157	3.715352e+04	1.044458e+00,	5.502187e-06	
158	3.801894e+04	1.044458e+00,	5.630350e-06	
159	3.890451e+04	1.044458e+00,	5.761497e-06	
160	3.981072e+04	1.044458e+00,	5.895700e-06	
161	4.073803e+04	1.044458e+00,	6.033028e-06	
162	4.168694e+04	1.044458e+00,	6.173556e-06	
163	4.265795e+04	1.044458e+00,	6.317356e-06	
164	4.365158e+04	1.044458e+00,	6.464506e-06	
165	4.466836e+04	1.044458e+00,	6.615084e-06	
166	4.570882e+04	1.044458e+00,	6.769169e-06	
167	4.677351e+04	1.044458e+00,	6.926843e-06	
168	4.786301e+04	1.044458e+00,	7.088190e-06	
169	4.897788e+04	1.044458e+00,	7.253295e-06	
170	5.011872e+04	1.044458e+00,	7.422246e-06	

Index   frequency       vop                             
--------------------------------------------------------------------------------
171	5.128614e+04	1.044458e+00,	7.595133e-06	
172	5.248075e+04	1.044458e+00,	7.772046e-06	
173	5.370318e+04	1.044458e+00,	7.953080e-06	
174	5.495409e+04	1.044458e+00,	8.138331e-06	
175	5.623413e+04	1.044458e+00,	8.327897e-06	
176	5.754399e+04	1.044458e+00,	8.521879e-06	
177	5.888437e+04	1.044458e+00,	8.720379e-06	
178	6.025596e+04	1.044458e+00,	8.923503e-06	
179	6.165950e+04	1.044458e+00,	9.131358e-06	
180	6.309573e+04	1.044458e+00,	9.344055e-06	
181	6.456542e+04	1.044458e+00,	9.561706e-06	
182	6.606934e+04	1.044458e+00,	9.784426e-06	
183	6.760830e+04	1.044458e+00,	1.001233e-05	
184	6.918310e+04	1.044458e+00,	1.024555e-05	
185	7.079458e+04	1.044458e+00,	1.048420e-05	
186	7.244360e+04	1.044458e+00,	1.072841e-05	
187	7.413102e+04	1.044458e+00,	1.097831e-05	
188	7.585776e+04	1.044458e+00,	1.123402e-05	
189	7.762471e+04	1.044458e+00,	1.149570e-05	
190	7.943282e+04	1.044458e+00,	1.176347e-05	
191	8.128305e+04	1.044458e+00,	1.203747e-05	
192	8.317638e+04	1.044458e+00,	1.231786e-05	
193	8.511380e+04	1.044458e+00,	1.260478e-05	
194	8.709636e+04	1.044458e+00,	1.289839e-05	
195	8.912509e+04	1.044458e+00,	1.319883e-05	
196	9.120108e+04	1.044458e+00,	1.350627e-05	
197	9.332543e+04	1.044458e+00,	1.382087e-05	
198	9.549926e+04	1.044458e+00,	1.414280e-05	
199	9.772372e+04	1.044458e+00,	1.447223e-05	
200	1.000000e+05	1.044458e+00,	1.480933e-05	
201	1.023293e+05	1.044458e+00,	1.515428e-05	
202	1.047129e+05	1.044458e+00,	1.550727e-05	
203	1.071519e+05	1.044458e+00,	1.586848e-05	
204	1.096478e+05	1.044458e+00,	1.623811e-05	
205	1.122018e+05	1.044458e+00,	1.661634e-05	
206	1.148154e+05	1.044458e+00,	1.700339e-05	
207	1.174898e+05	1.044458e+00,	1.739944e-05	
208	1.202264e+05	1.044458e+00,	1.780473e-05	
209	1.230269e+05	1.044458e+00,	1.821946e-05	
210	1.258925e+05	1.044458e+00,	1.864384e-05	
211	1.288250e+05	1.044458e+00,	1.907811e-05	
212	1.318257e+05	1.044458e+00,	1.952250e-05	
213	1.348963e+05	1.044458e+00,	1.997724e-05	
214	1.380384e+05	1.044458e+00,	2.044257e-05	
215	1.412538e+05	1.044458e+00,	2.091873e-05	
216	1.445440e+05	1.044458e+00,	2.140599e-05	
217	1.479108e+05	1.044458e+00,	2.190460e-05	
218	1.513561e+05	1.044458e+00,	2.241483e-05	
219	1.548817e+05	1.044458e+00,	2.293694e-05	
220	1.584893e+05	1.044458e+00,	2.347121e-05	
221	1.621810e+05	1.044458e+00,	2.401792e-05	
222	1.659587e+05	1.044458e+00,	2.457737e-05	
223	1.698244e+05	1.044458e+00,	2.514985e-05	
224	1.737801e+05	1.044458e+00,	2.573567e-05	
225	1.778279e+05	1.044458e+00,	2.633513e-05	
226	1.819701e+05	1.044458e+00,	2.694855e-05	
227	1.862087e+05	1.044458e+00,	2.757627e-05	
228	1.905461e+05	1.044458e+00,	2.821860e-05	

Index   frequency       vop                             
--------------------------------------------------------------------------------
229	1.949845e+05	1.044458e+00,	2.887590e-05	
230	1.995262e+05	1.044458e+00,	2.954850e-05	
231	2.041738e+05	1.044458e+00,	3.023677e-05	
232	2.089296e+05	1.044458e+00,	3.094108e-05	
233	2.137962e+05	1.044458e+00,	3.166179e-05	
234	2.187762e+05	1.044458e+00,	3.239929e-05	
235	2.238721e+05	1.044458e+00,	3.315397e-05	
236	2.290868e+05	1.044458e+00,	3.392622e-05	
237	2.344229e+05	1.044458e+00,	3.471647e-05	
238	2.398833e+05	1.044458e+00,	3.552512e-05	
239	2.454709e+05	1.044458e+00,	3.635260e-05	
240	2.511886e+05	1.044458e+00,	3.719936e-05	
241	2.570396e+05	1.044458e+00,	3.806585e-05	
242	2.630268e+05	1.044458e+00,	3.895252e-05	
243	2.691535e+05	1.044458e+00,	3.985984e-05	
244	2.754229e+05	1.044458e+00,	4.078830e-05	
245	2.818383e+05	1.044458e+00,	4.173838e-05	
246	2.884032e+05	1.044458e+00,	4.271059e-05	
247	2.951209e+05	1.044458e+00,	4.370545e-05	
248	3.019952e+05	1.044458e+00,	4.472348e-05	
249	3.090295e+05	1.044458e+00,	4.576523e-05	
250	3.162278e+05	1.044458e+00,	4.683124e-05	
251	3.235937e+05	1.044458e+00,	4.792208e-05	
252	3.311311e+05	1.044458e+00,	4.903833e-05	
253	3.388442e+05	1.044458e+00,	5.018058e-05	
254	3.467369e+05	1.044458e+00,	5.134943e-05	
255	3.548134e+05	1.044458e+00,	5.254552e-05	
256	3.630781e+05	1.044458e+00,	5.376946e-05	
257	3.715352e+05	1.044458e+00,	5.502192e-05	
258	3.801894e+05	1.044458e+00,	5.630354e-05	
259	3.890451e+05	1.044458e+00,	5.761502e-05	
260	3.981072e+05	1.044458e+00,	5.895705e-05	
261	4.073803e+05	1.044458e+00,	6.033034e-05	
262	4.168694e+05	1.044458e+00,	6.173562e-05	
263	4.265795e+05	1.044458e+00,	6.317363e-05	
264	4.365158e+05	1.044458e+00,	6.464513e-05	
265	4.466836e+05	1.044458e+00,	6.615092e-05	
266	4.570882e+05	1.044458e+00,	6.769177e-05	
267	4.677351e+05	1.044458e+00,	6.926852e-05	
268	4.786301e+05	1.044458e+00,	7.088200e-05	
269	4.897788e+05	1.044458e+00,	7.253305e-05	
270	5.011872e+05	1.044458e+00,	7.422257e-05	
271	5.128614e+05	1.044458e+00,	7.595144e-05	
272	5.248075e+05	1.044458e+00,	7.772058e-05	
273	5.370318e+05	1.044458e+00,	7.953094e-05	
274	5.495409e+05	1.044458e+00,	8.138346e-05	
275	5.623413e+05	1.044458e+00,	8.327913e-05	
276	5.754399e+05	1.044458e+00,	8.521895e-05	
277	5.888437e+05	1.044458e+00,	8.720397e-05	
278	6.025596e+05	1.044458e+00,	8.923522e-05	
279	6.165950e+05	1.044458e+00,	9.131378e-05	
280	6.309573e+05	1.044458e+00,	9.344076e-05	
281	6.456542e+05	1.044458e+00,	9.561728e-05	
282	6.606934e+05	1.044458e+00,	9.784451e-05	
283	6.760830e+05	1.044458e+00,	1.001236e-04	
284	6.918310e+05	1.044458e+00,	1.024558e-04	
285	7.079458e+05	1.044458e+00,	1.048423e-04	
286	7.244360e+05	1.044458e+00,	1.072844e-04	

Index   frequency       vop                             
--------------------------------------------------------------------------------
287	7.413102e+05	1.044458e+00,	1.097834e-04	
288	7.585776e+05	1.044458e+00,	1.123406e-04	
289	7.762471e+05	1.044458e+00,	1.149574e-04	
290	7.943282e+05	1.044458e+00,	1.176351e-04	
291	8.128305e+05	1.044458e+00,	1.203752e-04	
292	8.317638e+05	1.044458e+00,	1.231791e-04	
293	8.511380e+05	1.044458e+00,	1.260483e-04	
294	8.709636e+05	1.044458e+00,	1.289844e-04	
295	8.912509e+05	1.044458e+00,	1.319889e-04	
296	9.120108e+05	1.044458e+00,	1.350633e-04	
297	9.332543e+05	1.044458e+00,	1.382094e-04	
298	9.549926e+05	1.044458e+00,	1.414287e-04	
299	9.772372e+05	1.044458e+00,	1.447230e-04	
300	1.000000e+06	1.044458e+00,	1.480941e-04	
301	1.023293e+06	1.044458e+00,	1.515437e-04	
302	1.047129e+06	1.044458e+00,	1.550737e-04	
303	1.071519e+06	1.044458e+00,	1.586858e-04	
304	1.096478e+06	1.044458e+00,	1.623821e-04	
305	1.122018e+06	1.044458e+00,	1.661646e-04	
306	1.148154e+06	1.044458e+00,	1.700351e-04	
307	1.174898e+06	1.044458e+00,	1.739958e-04	
308	1.202264e+06	1.044458e+00,	1.780487e-04	
309	1.230269e+06	1.044458e+00,	1.821960e-04	
310	1.258925e+06	1.044458e+00,	1.864400e-04	
311	1.288250e+06	1.044458e+00,	1.907828e-04	
312	1.318257e+06	1.044458e+00,	1.952268e-04	
313	1.348963e+06	1.044458e+00,	1.997743e-04	
314	1.380384e+06	1.044458e+00,	2.044277e-04	
315	1.412538e+06	1.044458e+00,	2.091895e-04	
316	1.445440e+06	1.044458e+00,	2.140623e-04	
317	1.479108e+06	1.044458e+00,	2.190485e-04	
318	1.513561e+06	1.044458e+00,	2.241509e-04	
319	1.548817e+06	1.044458e+00,	2.293722e-04	
320	1.584893e+06	1.044458e+00,	2.347151e-04	
321	1.621810e+06	1.044458e+00,	2.401824e-04	
322	1.659587e+06	1.044458e+00,	2.457771e-04	
323	1.698244e+06	1.044458e+00,	2.515021e-04	
324	1.737801e+06	1.044458e+00,	2.573605e-04	
325	1.778279e+06	1.044458e+00,	2.633554e-04	
326	1.819701e+06	1.044458e+00,	2.694899e-04	
327	1.862087e+06	1.044458e+00,	2.757673e-04	
328	1.905461e+06	1.044458e+00,	2.821909e-04	
329	1.949845e+06	1.044458e+00,	2.887641e-04	
330	1.995262e+06	1.044458e+00,	2.954905e-04	
331	2.041738e+06	1.044458e+00,	3.023735e-04	
332	2.089296e+06	1.044458e+00,	3.094169e-04	
333	2.137962e+06	1.044458e+00,	3.166244e-04	
334	2.187762e+06	1.044458e+00,	3.239997e-04	
335	2.238721e+06	1.044458e+00,	3.315469e-04	
336	2.290868e+06	1.044458e+00,	3.392698e-04	
337	2.344229e+06	1.044458e+00,	3.471727e-04	
338	2.398833e+06	1.044458e+00,	3.552596e-04	
339	2.454709e+06	1.044458e+00,	3.635349e-04	
340	2.511886e+06	1.044458e+00,	3.720029e-04	
341	2.570396e+06	1.044458e+00,	3.806682e-04	
342	2.630268e+06	1.044458e+00,	3.895354e-04	
343	2.691535e+06	1.044458e+00,	3.986090e-04	
344	2.754229e+06	1.044459e+00,	4.078940e-04	

Index   frequency       vop                             
--------------------------------------------------------------------------------
345	2.818383e+06	1.044459e+00,	4.173953e-04	
346	2.884032e+06	1.044459e+00,	4.271179e-04	
347	2.951209e+06	1.044459e+00,	4.370669e-04	
348	3.019952e+06	1.044459e+00,	4.472476e-04	
349	3.090295e+06	1.044459e+00,	4.576655e-04	
350	3.162278e+06	1.044459e+00,	4.683259e-04	
351	3.235937e+06	1.044459e+00,	4.792346e-04	
352	3.311311e+06	1.044459e+00,	4.903974e-04	
353	3.388442e+06	1.044459e+00,	5.018202e-04	
354	3.467369e+06	1.044459e+00,	5.135089e-04	
355	3.548134e+06	1.044459e+00,	5.254698e-04	
356	3.630781e+06	1.044459e+00,	5.377093e-04	
357	3.715352e+06	1.044459e+00,	5.502337e-04	
358	3.801894e+06	1.044459e+00,	5.630498e-04	
359	3.890451e+06	1.044459e+00,	5.761642e-04	
360	3.981072e+06	1.044459e+00,	5.895841e-04	
361	4.073803e+06	1.044460e+00,	6.033163e-04	
362	4.168694e+06	1.044460e+00,	6.173683e-04	
363	4.265795e+06	1.044460e+00,	6.317473e-04	
364	4.365158e+06	1.044460e+00,	6.464612e-04	
365	4.466836e+06	1.044460e+00,	6.615176e-04	
366	4.570882e+06	1.044460e+00,	6.769244e-04	
367	4.677351e+06	1.044460e+00,	6.926899e-04	
368	4.786301e+06	1.044460e+00,	7.088224e-04	
369	4.897788e+06	1.044460e+00,	7.253304e-04	
370	5.011872e+06	1.044460e+00,	7.422227e-04	
371	5.128614e+06	1.044461e+00,	7.595082e-04	
372	5.248075e+06	1.044461e+00,	7.771961e-04	
373	5.370318e+06	1.044461e+00,	7.952956e-04	
374	5.495409e+06	1.044461e+00,	8.138165e-04	
375	5.623413e+06	1.044461e+00,	8.327685e-04	
376	5.754399e+06	1.044461e+00,	8.521617e-04	
377	5.888437e+06	1.044461e+00,	8.720063e-04	
378	6.025596e+06	1.044462e+00,	8.923129e-04	
379	6.165950e+06	1.044462e+00,	9.130922e-04	
380	6.309573e+06	1.044462e+00,	9.343552e-04	
381	6.456542e+06	1.044462e+00,	9.561133e-04	
382	6.606934e+06	1.044462e+00,	9.783779e-04	
383	6.760830e+06	1.044463e+00,	1.001161e-03	
384	6.918310e+06	1.044463e+00,	1.024474e-03	
385	7.079458e+06	1.044463e+00,	1.048331e-03	
386	7.244360e+06	1.044463e+00,	1.072742e-03	
387	7.413102e+06	1.044464e+00,	1.097722e-03	
388	7.585776e+06	1.044464e+00,	1.123284e-03	
389	7.762471e+06	1.044464e+00,	1.149441e-03	
390	7.943282e+06	1.044465e+00,	1.176207e-03	
391	8.128305e+06	1.044465e+00,	1.203597e-03	
392	8.317638e+06	1.044465e+00,	1.231624e-03	
393	8.511380e+06	1.044466e+00,	1.260304e-03	
394	8.709636e+06	1.044466e+00,	1.289652e-03	
395	8.912509e+06	1.044466e+00,	1.319683e-03	
396	9.120108e+06	1.044467e+00,	1.350414e-03	
397	9.332543e+06	1.044467e+00,	1.381861e-03	
398	9.549926e+06	1.044468e+00,	1.414039e-03	
399	9.772372e+06	1.044468e+00,	1.446967e-03	
400	1.000000e+07	1.044468e+00,	1.480662e-03	
401	1.023293e+07	1.044469e+00,	1.515142e-03	
402	1.047129e+07	1.044469e+00,	1.550425e-03	

Index   frequency       vop                             
--------------------------------------------------------------------------------
403	1.071519e+07	1.044470e+00,	1.586529e-03	
404	1.096478e+07	1.044471e+00,	1.623474e-03	
405	1.122018e+07	1.044471e+00,	1.661280e-03	
406	1.148154e+07	1.044472e+00,	1.699965e-03	
407	1.174898e+07	1.044472e+00,	1.739552e-03	
408	1.202264e+07	1.044473e+00,	1.780060e-03	
409	1.230269e+07	1.044474e+00,	1.821512e-03	
410	1.258925e+07	1.044475e+00,	1.863929e-03	
411	1.288250e+07	1.044475e+00,	1.907334e-03	
412	1.318257e+07	1.044476e+00,	1.951749e-03	
413	1.348963e+07	1.044477e+00,	1.997198e-03	
414	1.380384e+07	1.044478e+00,	2.043706e-03	
415	1.412538e+07	1.044479e+00,	2.091296e-03	
416	1.445440e+07	1.044480e+00,	2.139995e-03	
