  ** sch_path: /home/andylithia/openmpw/project-reisen-chip1/xschem/ctle_3.sch
  AC Analysis  Mon Oct 31 00:06:33  2022
--------------------------------------------------------------------------------
Index   frequency       vop                             
--------------------------------------------------------------------------------
0	1.000000e+03	1.075978e-01,	7.538937e-07	
1	1.023293e+03	1.075978e-01,	7.714541e-07	
2	1.047129e+03	1.075978e-01,	7.894236e-07	
3	1.071519e+03	1.075978e-01,	8.078116e-07	
4	1.096478e+03	1.075978e-01,	8.266280e-07	
5	1.122018e+03	1.075978e-01,	8.458826e-07	
6	1.148154e+03	1.075978e-01,	8.655858e-07	
7	1.174898e+03	1.075978e-01,	8.857479e-07	
8	1.202264e+03	1.075978e-01,	9.063796e-07	
9	1.230269e+03	1.075978e-01,	9.274919e-07	
10	1.258925e+03	1.075978e-01,	9.490959e-07	
11	1.288250e+03	1.075978e-01,	9.712032e-07	
12	1.318257e+03	1.075978e-01,	9.938254e-07	
13	1.348963e+03	1.075978e-01,	1.016975e-06	
14	1.380384e+03	1.075978e-01,	1.040663e-06	
15	1.412538e+03	1.075978e-01,	1.064903e-06	
16	1.445440e+03	1.075978e-01,	1.089708e-06	
17	1.479108e+03	1.075978e-01,	1.115090e-06	
18	1.513561e+03	1.075978e-01,	1.141064e-06	
19	1.548817e+03	1.075978e-01,	1.167643e-06	
20	1.584893e+03	1.075978e-01,	1.194841e-06	
21	1.621810e+03	1.075978e-01,	1.222672e-06	
22	1.659587e+03	1.075978e-01,	1.251152e-06	
23	1.698244e+03	1.075978e-01,	1.280295e-06	
24	1.737801e+03	1.075978e-01,	1.310117e-06	
25	1.778279e+03	1.075978e-01,	1.340634e-06	
26	1.819701e+03	1.075978e-01,	1.371861e-06	
27	1.862087e+03	1.075978e-01,	1.403816e-06	
28	1.905461e+03	1.075978e-01,	1.436515e-06	
29	1.949845e+03	1.075978e-01,	1.469976e-06	
30	1.995262e+03	1.075978e-01,	1.504216e-06	
31	2.041738e+03	1.075978e-01,	1.539253e-06	
32	2.089296e+03	1.075978e-01,	1.575107e-06	
33	2.137962e+03	1.075978e-01,	1.611796e-06	
34	2.187762e+03	1.075978e-01,	1.649340e-06	
35	2.238721e+03	1.075978e-01,	1.687758e-06	
36	2.290868e+03	1.075978e-01,	1.727071e-06	
37	2.344229e+03	1.075978e-01,	1.767299e-06	
38	2.398833e+03	1.075978e-01,	1.808465e-06	
39	2.454709e+03	1.075978e-01,	1.850590e-06	
40	2.511886e+03	1.075978e-01,	1.893695e-06	
41	2.570396e+03	1.075978e-01,	1.937805e-06	
42	2.630268e+03	1.075978e-01,	1.982942e-06	
43	2.691535e+03	1.075978e-01,	2.029131e-06	
44	2.754229e+03	1.075978e-01,	2.076396e-06	
45	2.818383e+03	1.075978e-01,	2.124761e-06	
46	2.884032e+03	1.075978e-01,	2.174253e-06	
47	2.951209e+03	1.075978e-01,	2.224898e-06	
48	3.019952e+03	1.075978e-01,	2.276723e-06	
49	3.090295e+03	1.075978e-01,	2.329754e-06	
50	3.162278e+03	1.075978e-01,	2.384021e-06	
51	3.235937e+03	1.075978e-01,	2.439552e-06	
52	3.311311e+03	1.075978e-01,	2.496377e-06	
53	3.388442e+03	1.075978e-01,	2.554525e-06	
54	3.467369e+03	1.075978e-01,	2.614027e-06	

Index   frequency       vop                             
--------------------------------------------------------------------------------
55	3.548134e+03	1.075978e-01,	2.674916e-06	
56	3.630781e+03	1.075978e-01,	2.737223e-06	
57	3.715352e+03	1.075978e-01,	2.800981e-06	
58	3.801894e+03	1.075978e-01,	2.866224e-06	
59	3.890451e+03	1.075978e-01,	2.932987e-06	
60	3.981072e+03	1.075978e-01,	3.001305e-06	
61	4.073803e+03	1.075978e-01,	3.071214e-06	
62	4.168694e+03	1.075978e-01,	3.142752e-06	
63	4.265795e+03	1.075978e-01,	3.215956e-06	
64	4.365158e+03	1.075978e-01,	3.290865e-06	
65	4.466836e+03	1.075978e-01,	3.367519e-06	
66	4.570882e+03	1.075978e-01,	3.445959e-06	
67	4.677351e+03	1.075978e-01,	3.526226e-06	
68	4.786301e+03	1.075978e-01,	3.608362e-06	
69	4.897788e+03	1.075978e-01,	3.692412e-06	
70	5.011872e+03	1.075978e-01,	3.778419e-06	
71	5.128614e+03	1.075978e-01,	3.866430e-06	
72	5.248075e+03	1.075978e-01,	3.956490e-06	
73	5.370318e+03	1.075978e-01,	4.048649e-06	
74	5.495409e+03	1.075978e-01,	4.142954e-06	
75	5.623413e+03	1.075978e-01,	4.239456e-06	
76	5.754399e+03	1.075978e-01,	4.338205e-06	
77	5.888437e+03	1.075978e-01,	4.439255e-06	
78	6.025596e+03	1.075978e-01,	4.542659e-06	
79	6.165950e+03	1.075978e-01,	4.648471e-06	
80	6.309573e+03	1.075978e-01,	4.756748e-06	
81	6.456542e+03	1.075978e-01,	4.867547e-06	
82	6.606934e+03	1.075978e-01,	4.980926e-06	
83	6.760830e+03	1.075978e-01,	5.096947e-06	
84	6.918310e+03	1.075978e-01,	5.215670e-06	
85	7.079458e+03	1.075978e-01,	5.337159e-06	
86	7.244360e+03	1.075978e-01,	5.461477e-06	
87	7.413102e+03	1.075978e-01,	5.588691e-06	
88	7.585776e+03	1.075978e-01,	5.718869e-06	
89	7.762471e+03	1.075978e-01,	5.852078e-06	
90	7.943282e+03	1.075978e-01,	5.988390e-06	
91	8.128305e+03	1.075978e-01,	6.127878e-06	
92	8.317638e+03	1.075978e-01,	6.270615e-06	
93	8.511380e+03	1.075978e-01,	6.416676e-06	
94	8.709636e+03	1.075978e-01,	6.566140e-06	
95	8.912509e+03	1.075978e-01,	6.719085e-06	
96	9.120108e+03	1.075978e-01,	6.875592e-06	
97	9.332543e+03	1.075978e-01,	7.035745e-06	
98	9.549926e+03	1.075978e-01,	7.199629e-06	
99	9.772372e+03	1.075978e-01,	7.367330e-06	
100	1.000000e+04	1.075978e-01,	7.538937e-06	
101	1.023293e+04	1.075978e-01,	7.714541e-06	
102	1.047129e+04	1.075978e-01,	7.894236e-06	
103	1.071519e+04	1.075978e-01,	8.078116e-06	
104	1.096478e+04	1.075978e-01,	8.266280e-06	
105	1.122018e+04	1.075978e-01,	8.458826e-06	
106	1.148154e+04	1.075978e-01,	8.655858e-06	
107	1.174898e+04	1.075978e-01,	8.857479e-06	
108	1.202264e+04	1.075978e-01,	9.063796e-06	
109	1.230269e+04	1.075978e-01,	9.274919e-06	
110	1.258925e+04	1.075978e-01,	9.490959e-06	
111	1.288250e+04	1.075978e-01,	9.712032e-06	
112	1.318257e+04	1.075978e-01,	9.938254e-06	

Index   frequency       vop                             
--------------------------------------------------------------------------------
113	1.348963e+04	1.075978e-01,	1.016975e-05	
114	1.380384e+04	1.075978e-01,	1.040663e-05	
115	1.412538e+04	1.075978e-01,	1.064903e-05	
116	1.445440e+04	1.075978e-01,	1.089708e-05	
117	1.479108e+04	1.075978e-01,	1.115090e-05	
118	1.513561e+04	1.075978e-01,	1.141064e-05	
119	1.548817e+04	1.075978e-01,	1.167643e-05	
120	1.584893e+04	1.075978e-01,	1.194841e-05	
121	1.621810e+04	1.075978e-01,	1.222672e-05	
122	1.659587e+04	1.075978e-01,	1.251152e-05	
123	1.698244e+04	1.075978e-01,	1.280295e-05	
124	1.737801e+04	1.075978e-01,	1.310117e-05	
125	1.778279e+04	1.075978e-01,	1.340634e-05	
126	1.819701e+04	1.075978e-01,	1.371861e-05	
127	1.862087e+04	1.075978e-01,	1.403816e-05	
128	1.905461e+04	1.075978e-01,	1.436515e-05	
129	1.949845e+04	1.075978e-01,	1.469976e-05	
130	1.995262e+04	1.075978e-01,	1.504216e-05	
131	2.041738e+04	1.075978e-01,	1.539253e-05	
132	2.089296e+04	1.075978e-01,	1.575107e-05	
133	2.137962e+04	1.075978e-01,	1.611796e-05	
134	2.187762e+04	1.075978e-01,	1.649340e-05	
135	2.238721e+04	1.075978e-01,	1.687758e-05	
136	2.290868e+04	1.075978e-01,	1.727071e-05	
137	2.344229e+04	1.075978e-01,	1.767299e-05	
138	2.398833e+04	1.075978e-01,	1.808465e-05	
139	2.454709e+04	1.075978e-01,	1.850590e-05	
140	2.511886e+04	1.075978e-01,	1.893695e-05	
141	2.570396e+04	1.075978e-01,	1.937805e-05	
142	2.630268e+04	1.075978e-01,	1.982942e-05	
143	2.691535e+04	1.075978e-01,	2.029131e-05	
144	2.754229e+04	1.075978e-01,	2.076396e-05	
145	2.818383e+04	1.075978e-01,	2.124761e-05	
146	2.884032e+04	1.075978e-01,	2.174253e-05	
147	2.951209e+04	1.075978e-01,	2.224898e-05	
148	3.019952e+04	1.075978e-01,	2.276723e-05	
149	3.090295e+04	1.075978e-01,	2.329754e-05	
150	3.162278e+04	1.075978e-01,	2.384021e-05	
151	3.235937e+04	1.075978e-01,	2.439552e-05	
152	3.311311e+04	1.075978e-01,	2.496377e-05	
153	3.388442e+04	1.075978e-01,	2.554525e-05	
154	3.467369e+04	1.075978e-01,	2.614027e-05	
155	3.548134e+04	1.075978e-01,	2.674916e-05	
156	3.630781e+04	1.075978e-01,	2.737223e-05	
157	3.715352e+04	1.075978e-01,	2.800981e-05	
158	3.801894e+04	1.075978e-01,	2.866224e-05	
159	3.890451e+04	1.075978e-01,	2.932987e-05	
160	3.981072e+04	1.075978e-01,	3.001305e-05	
161	4.073803e+04	1.075978e-01,	3.071214e-05	
162	4.168694e+04	1.075978e-01,	3.142752e-05	
163	4.265795e+04	1.075978e-01,	3.215956e-05	
164	4.365158e+04	1.075978e-01,	3.290865e-05	
165	4.466836e+04	1.075978e-01,	3.367519e-05	
166	4.570882e+04	1.075978e-01,	3.445959e-05	
167	4.677351e+04	1.075978e-01,	3.526226e-05	
168	4.786301e+04	1.075978e-01,	3.608362e-05	
169	4.897788e+04	1.075978e-01,	3.692412e-05	
170	5.011872e+04	1.075978e-01,	3.778419e-05	

Index   frequency       vop                             
--------------------------------------------------------------------------------
171	5.128614e+04	1.075978e-01,	3.866430e-05	
172	5.248075e+04	1.075978e-01,	3.956490e-05	
173	5.370318e+04	1.075978e-01,	4.048649e-05	
174	5.495409e+04	1.075978e-01,	4.142954e-05	
175	5.623413e+04	1.075978e-01,	4.239456e-05	
176	5.754399e+04	1.075978e-01,	4.338205e-05	
177	5.888437e+04	1.075978e-01,	4.439255e-05	
178	6.025596e+04	1.075978e-01,	4.542659e-05	
179	6.165950e+04	1.075978e-01,	4.648471e-05	
180	6.309573e+04	1.075978e-01,	4.756748e-05	
181	6.456542e+04	1.075978e-01,	4.867547e-05	
182	6.606934e+04	1.075978e-01,	4.980926e-05	
183	6.760830e+04	1.075978e-01,	5.096947e-05	
184	6.918310e+04	1.075978e-01,	5.215670e-05	
185	7.079458e+04	1.075978e-01,	5.337159e-05	
186	7.244360e+04	1.075978e-01,	5.461477e-05	
187	7.413102e+04	1.075978e-01,	5.588691e-05	
188	7.585776e+04	1.075978e-01,	5.718869e-05	
189	7.762471e+04	1.075978e-01,	5.852078e-05	
190	7.943282e+04	1.075978e-01,	5.988391e-05	
191	8.128305e+04	1.075978e-01,	6.127878e-05	
192	8.317638e+04	1.075978e-01,	6.270615e-05	
193	8.511380e+04	1.075978e-01,	6.416676e-05	
194	8.709636e+04	1.075978e-01,	6.566140e-05	
195	8.912509e+04	1.075978e-01,	6.719085e-05	
196	9.120108e+04	1.075978e-01,	6.875592e-05	
197	9.332543e+04	1.075978e-01,	7.035745e-05	
198	9.549926e+04	1.075978e-01,	7.199629e-05	
199	9.772372e+04	1.075978e-01,	7.367330e-05	
200	1.000000e+05	1.075978e-01,	7.538937e-05	
201	1.023293e+05	1.075978e-01,	7.714542e-05	
202	1.047129e+05	1.075978e-01,	7.894236e-05	
203	1.071519e+05	1.075978e-01,	8.078117e-05	
204	1.096478e+05	1.075978e-01,	8.266280e-05	
205	1.122018e+05	1.075978e-01,	8.458827e-05	
206	1.148154e+05	1.075978e-01,	8.655858e-05	
207	1.174898e+05	1.075978e-01,	8.857479e-05	
208	1.202264e+05	1.075978e-01,	9.063796e-05	
209	1.230269e+05	1.075978e-01,	9.274919e-05	
210	1.258925e+05	1.075978e-01,	9.490960e-05	
211	1.288250e+05	1.075978e-01,	9.712032e-05	
212	1.318257e+05	1.075978e-01,	9.938255e-05	
213	1.348963e+05	1.075978e-01,	1.016975e-04	
214	1.380384e+05	1.075978e-01,	1.040663e-04	
215	1.412538e+05	1.075978e-01,	1.064903e-04	
216	1.445440e+05	1.075978e-01,	1.089708e-04	
217	1.479108e+05	1.075978e-01,	1.115091e-04	
218	1.513561e+05	1.075978e-01,	1.141064e-04	
219	1.548817e+05	1.075978e-01,	1.167643e-04	
220	1.584893e+05	1.075978e-01,	1.194841e-04	
221	1.621810e+05	1.075978e-01,	1.222672e-04	
222	1.659587e+05	1.075978e-01,	1.251152e-04	
223	1.698244e+05	1.075978e-01,	1.280295e-04	
224	1.737801e+05	1.075978e-01,	1.310117e-04	
225	1.778279e+05	1.075978e-01,	1.340634e-04	
226	1.819701e+05	1.075978e-01,	1.371861e-04	
227	1.862087e+05	1.075978e-01,	1.403816e-04	
228	1.905461e+05	1.075978e-01,	1.436515e-04	

Index   frequency       vop                             
--------------------------------------------------------------------------------
229	1.949845e+05	1.075978e-01,	1.469976e-04	
230	1.995262e+05	1.075978e-01,	1.504216e-04	
231	2.041738e+05	1.075978e-01,	1.539253e-04	
232	2.089296e+05	1.075978e-01,	1.575107e-04	
233	2.137962e+05	1.075978e-01,	1.611796e-04	
234	2.187762e+05	1.075978e-01,	1.649340e-04	
235	2.238721e+05	1.075978e-01,	1.687758e-04	
236	2.290868e+05	1.075978e-01,	1.727071e-04	
237	2.344229e+05	1.075978e-01,	1.767300e-04	
238	2.398833e+05	1.075978e-01,	1.808465e-04	
239	2.454709e+05	1.075978e-01,	1.850590e-04	
240	2.511886e+05	1.075978e-01,	1.893696e-04	
241	2.570396e+05	1.075978e-01,	1.937805e-04	
242	2.630268e+05	1.075978e-01,	1.982943e-04	
243	2.691535e+05	1.075978e-01,	2.029131e-04	
244	2.754229e+05	1.075978e-01,	2.076396e-04	
245	2.818383e+05	1.075978e-01,	2.124761e-04	
246	2.884032e+05	1.075978e-01,	2.174253e-04	
247	2.951209e+05	1.075978e-01,	2.224898e-04	
248	3.019952e+05	1.075978e-01,	2.276723e-04	
249	3.090295e+05	1.075978e-01,	2.329755e-04	
250	3.162278e+05	1.075978e-01,	2.384022e-04	
251	3.235937e+05	1.075979e-01,	2.439553e-04	
252	3.311311e+05	1.075979e-01,	2.496377e-04	
253	3.388442e+05	1.075979e-01,	2.554525e-04	
254	3.467369e+05	1.075979e-01,	2.614028e-04	
255	3.548134e+05	1.075979e-01,	2.674916e-04	
256	3.630781e+05	1.075979e-01,	2.737223e-04	
257	3.715352e+05	1.075979e-01,	2.800981e-04	
258	3.801894e+05	1.075979e-01,	2.866225e-04	
259	3.890451e+05	1.075979e-01,	2.932988e-04	
260	3.981072e+05	1.075979e-01,	3.001306e-04	
261	4.073803e+05	1.075979e-01,	3.071215e-04	
262	4.168694e+05	1.075979e-01,	3.142753e-04	
263	4.265795e+05	1.075979e-01,	3.215957e-04	
264	4.365158e+05	1.075979e-01,	3.290866e-04	
265	4.466836e+05	1.075979e-01,	3.367521e-04	
266	4.570882e+05	1.075979e-01,	3.445960e-04	
267	4.677351e+05	1.075979e-01,	3.526227e-04	
268	4.786301e+05	1.075979e-01,	3.608364e-04	
269	4.897788e+05	1.075979e-01,	3.692413e-04	
270	5.011872e+05	1.075979e-01,	3.778421e-04	
271	5.128614e+05	1.075979e-01,	3.866431e-04	
272	5.248075e+05	1.075979e-01,	3.956492e-04	
273	5.370318e+05	1.075979e-01,	4.048651e-04	
274	5.495409e+05	1.075979e-01,	4.142956e-04	
275	5.623413e+05	1.075979e-01,	4.239458e-04	
276	5.754399e+05	1.075980e-01,	4.338208e-04	
277	5.888437e+05	1.075980e-01,	4.439258e-04	
278	6.025596e+05	1.075980e-01,	4.542662e-04	
279	6.165950e+05	1.075980e-01,	4.648474e-04	
280	6.309573e+05	1.075980e-01,	4.756751e-04	
281	6.456542e+05	1.075980e-01,	4.867550e-04	
282	6.606934e+05	1.075980e-01,	4.980930e-04	
283	6.760830e+05	1.075980e-01,	5.096951e-04	
284	6.918310e+05	1.075980e-01,	5.215674e-04	
285	7.079458e+05	1.075980e-01,	5.337163e-04	
286	7.244360e+05	1.075980e-01,	5.461482e-04	

Index   frequency       vop                             
--------------------------------------------------------------------------------
287	7.413102e+05	1.075981e-01,	5.588697e-04	
288	7.585776e+05	1.075981e-01,	5.718874e-04	
289	7.762471e+05	1.075981e-01,	5.852084e-04	
290	7.943282e+05	1.075981e-01,	5.988397e-04	
291	8.128305e+05	1.075981e-01,	6.127885e-04	
292	8.317638e+05	1.075981e-01,	6.270622e-04	
293	8.511380e+05	1.075981e-01,	6.416684e-04	
294	8.709636e+05	1.075981e-01,	6.566148e-04	
295	8.912509e+05	1.075982e-01,	6.719094e-04	
296	9.120108e+05	1.075982e-01,	6.875602e-04	
297	9.332543e+05	1.075982e-01,	7.035756e-04	
298	9.549926e+05	1.075982e-01,	7.199640e-04	
299	9.772372e+05	1.075982e-01,	7.367342e-04	
300	1.000000e+06	1.075983e-01,	7.538950e-04	
301	1.023293e+06	1.075983e-01,	7.714555e-04	
302	1.047129e+06	1.075983e-01,	7.894251e-04	
303	1.071519e+06	1.075983e-01,	8.078132e-04	
304	1.096478e+06	1.075983e-01,	8.266297e-04	
305	1.122018e+06	1.075984e-01,	8.458844e-04	
306	1.148154e+06	1.075984e-01,	8.655877e-04	
307	1.174898e+06	1.075984e-01,	8.857499e-04	
308	1.202264e+06	1.075985e-01,	9.063818e-04	
309	1.230269e+06	1.075985e-01,	9.274942e-04	
310	1.258925e+06	1.075985e-01,	9.490984e-04	
311	1.288250e+06	1.075986e-01,	9.712059e-04	
312	1.318257e+06	1.075986e-01,	9.938283e-04	
313	1.348963e+06	1.075986e-01,	1.016978e-03	
314	1.380384e+06	1.075987e-01,	1.040666e-03	
315	1.412538e+06	1.075987e-01,	1.064907e-03	
316	1.445440e+06	1.075987e-01,	1.089712e-03	
317	1.479108e+06	1.075988e-01,	1.115094e-03	
318	1.513561e+06	1.075988e-01,	1.141068e-03	
319	1.548817e+06	1.075989e-01,	1.167647e-03	
320	1.584893e+06	1.075989e-01,	1.194846e-03	
321	1.621810e+06	1.075990e-01,	1.222677e-03	
322	1.659587e+06	1.075991e-01,	1.251157e-03	
323	1.698244e+06	1.075991e-01,	1.280301e-03	
324	1.737801e+06	1.075992e-01,	1.310123e-03	
325	1.778279e+06	1.075992e-01,	1.340640e-03	
326	1.819701e+06	1.075993e-01,	1.371868e-03	
327	1.862087e+06	1.075994e-01,	1.403823e-03	
328	1.905461e+06	1.075995e-01,	1.436522e-03	
329	1.949845e+06	1.075995e-01,	1.469983e-03	
330	1.995262e+06	1.075996e-01,	1.504224e-03	
331	2.041738e+06	1.075997e-01,	1.539262e-03	
332	2.089296e+06	1.075998e-01,	1.575117e-03	
333	2.137962e+06	1.075999e-01,	1.611806e-03	
334	2.187762e+06	1.076000e-01,	1.649350e-03	
335	2.238721e+06	1.076001e-01,	1.687769e-03	
336	2.290868e+06	1.076002e-01,	1.727082e-03	
337	2.344229e+06	1.076003e-01,	1.767311e-03	
338	2.398833e+06	1.076004e-01,	1.808478e-03	
339	2.454709e+06	1.076005e-01,	1.850603e-03	
340	2.511886e+06	1.076007e-01,	1.893709e-03	
341	2.570396e+06	1.076008e-01,	1.937820e-03	
342	2.630268e+06	1.076010e-01,	1.982957e-03	
343	2.691535e+06	1.076011e-01,	2.029147e-03	
344	2.754229e+06	1.076013e-01,	2.076412e-03	

Index   frequency       vop                             
--------------------------------------------------------------------------------
345	2.818383e+06	1.076014e-01,	2.124778e-03	
346	2.884032e+06	1.076016e-01,	2.174270e-03	
347	2.951209e+06	1.076018e-01,	2.224916e-03	
348	3.019952e+06	1.076020e-01,	2.276741e-03	
349	3.090295e+06	1.076022e-01,	2.329773e-03	
350	3.162278e+06	1.076024e-01,	2.384040e-03	
351	3.235937e+06	1.076026e-01,	2.439571e-03	
352	3.311311e+06	1.076028e-01,	2.496396e-03	
353	3.388442e+06	1.076030e-01,	2.554544e-03	
354	3.467369e+06	1.076033e-01,	2.614046e-03	
355	3.548134e+06	1.076036e-01,	2.674934e-03	
356	3.630781e+06	1.076038e-01,	2.737241e-03	
357	3.715352e+06	1.076041e-01,	2.800998e-03	
358	3.801894e+06	1.076044e-01,	2.866240e-03	
359	3.890451e+06	1.076047e-01,	2.933002e-03	
360	3.981072e+06	1.076051e-01,	3.001318e-03	
361	4.073803e+06	1.076054e-01,	3.071226e-03	
362	4.168694e+06	1.076058e-01,	3.142761e-03	
363	4.265795e+06	1.076061e-01,	3.215963e-03	
364	4.365158e+06	1.076065e-01,	3.290869e-03	
365	4.466836e+06	1.076069e-01,	3.367520e-03	
366	4.570882e+06	1.076074e-01,	3.445955e-03	
367	4.677351e+06	1.076078e-01,	3.526217e-03	
368	4.786301e+06	1.076083e-01,	3.608348e-03	
369	4.897788e+06	1.076088e-01,	3.692392e-03	
370	5.011872e+06	1.076093e-01,	3.778393e-03	
371	5.128614e+06	1.076099e-01,	3.866396e-03	
372	5.248075e+06	1.076104e-01,	3.956449e-03	
373	5.370318e+06	1.076110e-01,	4.048599e-03	
374	5.495409e+06	1.076116e-01,	4.142895e-03	
375	5.623413e+06	1.076123e-01,	4.239386e-03	
376	5.754399e+06	1.076130e-01,	4.338125e-03	
377	5.888437e+06	1.076137e-01,	4.439163e-03	
378	6.025596e+06	1.076144e-01,	4.542553e-03	
379	6.165950e+06	1.076152e-01,	4.648352e-03	
380	6.309573e+06	1.076160e-01,	4.756614e-03	
381	6.456542e+06	1.076169e-01,	4.867397e-03	
382	6.606934e+06	1.076178e-01,	4.980760e-03	
383	6.760830e+06	1.076187e-01,	5.096763e-03	
384	6.918310e+06	1.076197e-01,	5.215468e-03	
385	7.079458e+06	1.076207e-01,	5.336937e-03	
386	7.244360e+06	1.076218e-01,	5.461235e-03	
387	7.413102e+06	1.076229e-01,	5.588427e-03	
388	7.585776e+06	1.076241e-01,	5.718582e-03	
389	7.762471e+06	1.076253e-01,	5.851767e-03	
390	7.943282e+06	1.076266e-01,	5.988055e-03	
391	8.128305e+06	1.076280e-01,	6.127516e-03	
392	8.317638e+06	1.076294e-01,	6.270225e-03	
393	8.511380e+06	1.076309e-01,	6.416258e-03	
394	8.709636e+06	1.076324e-01,	6.565692e-03	
395	8.912509e+06	1.076340e-01,	6.718606e-03	
396	9.120108e+06	1.076357e-01,	6.875081e-03	
397	9.332543e+06	1.076375e-01,	7.035200e-03	
398	9.549926e+06	1.076394e-01,	7.199048e-03	
399	9.772372e+06	1.076413e-01,	7.366712e-03	
400	1.000000e+07	1.076434e-01,	7.538280e-03	
401	1.023293e+07	1.076455e-01,	7.713844e-03	
402	1.047129e+07	1.076477e-01,	7.893497e-03	

Index   frequency       vop                             
--------------------------------------------------------------------------------
403	1.071519e+07	1.076501e-01,	8.077333e-03	
404	1.096478e+07	1.076525e-01,	8.265450e-03	
405	1.122018e+07	1.076551e-01,	8.457947e-03	
406	1.148154e+07	1.076577e-01,	8.654928e-03	
407	1.174898e+07	1.076606e-01,	8.856495e-03	
408	1.202264e+07	1.076635e-01,	9.062756e-03	
409	1.230269e+07	1.076666e-01,	9.273820e-03	
410	1.258925e+07	1.076698e-01,	9.489799e-03	
411	1.288250e+07	1.076732e-01,	9.710807e-03	
412	1.318257e+07	1.076767e-01,	9.936960e-03	
413	1.348963e+07	1.076804e-01,	1.016838e-02	
414	1.380384e+07	1.076843e-01,	1.040519e-02	
415	1.412538e+07	1.076883e-01,	1.064751e-02	
416	1.445440e+07	1.076926e-01,	1.089547e-02	
