  ** sch_path: /home/andylithia/openmpw/project-reisen-chip1/xschem/ctle_3.sch
  AC Analysis  Mon Oct 31 00:06:33  2022
--------------------------------------------------------------------------------
Index   frequency       vop                             
--------------------------------------------------------------------------------
0	1.000000e+03	1.075958e-01,	7.522876e-07	
1	1.023293e+03	1.075958e-01,	7.698106e-07	
2	1.047129e+03	1.075958e-01,	7.877418e-07	
3	1.071519e+03	1.075958e-01,	8.060906e-07	
4	1.096478e+03	1.075958e-01,	8.248669e-07	
5	1.122018e+03	1.075958e-01,	8.440805e-07	
6	1.148154e+03	1.075958e-01,	8.637417e-07	
7	1.174898e+03	1.075958e-01,	8.838608e-07	
8	1.202264e+03	1.075958e-01,	9.044486e-07	
9	1.230269e+03	1.075958e-01,	9.255159e-07	
10	1.258925e+03	1.075958e-01,	9.470739e-07	
11	1.288250e+03	1.075958e-01,	9.691341e-07	
12	1.318257e+03	1.075958e-01,	9.917081e-07	
13	1.348963e+03	1.075958e-01,	1.014808e-06	
14	1.380384e+03	1.075958e-01,	1.038446e-06	
15	1.412538e+03	1.075958e-01,	1.062634e-06	
16	1.445440e+03	1.075958e-01,	1.087386e-06	
17	1.479108e+03	1.075958e-01,	1.112715e-06	
18	1.513561e+03	1.075958e-01,	1.138633e-06	
19	1.548817e+03	1.075958e-01,	1.165155e-06	
20	1.584893e+03	1.075958e-01,	1.192295e-06	
21	1.621810e+03	1.075958e-01,	1.220068e-06	
22	1.659587e+03	1.075958e-01,	1.248487e-06	
23	1.698244e+03	1.075958e-01,	1.277568e-06	
24	1.737801e+03	1.075958e-01,	1.307326e-06	
25	1.778279e+03	1.075958e-01,	1.337777e-06	
26	1.819701e+03	1.075958e-01,	1.368938e-06	
27	1.862087e+03	1.075958e-01,	1.400825e-06	
28	1.905461e+03	1.075958e-01,	1.433454e-06	
29	1.949845e+03	1.075958e-01,	1.466844e-06	
30	1.995262e+03	1.075958e-01,	1.501011e-06	
31	2.041738e+03	1.075958e-01,	1.535974e-06	
32	2.089296e+03	1.075958e-01,	1.571751e-06	
33	2.137962e+03	1.075958e-01,	1.608362e-06	
34	2.187762e+03	1.075958e-01,	1.645826e-06	
35	2.238721e+03	1.075958e-01,	1.684162e-06	
36	2.290868e+03	1.075958e-01,	1.723391e-06	
37	2.344229e+03	1.075958e-01,	1.763534e-06	
38	2.398833e+03	1.075958e-01,	1.804612e-06	
39	2.454709e+03	1.075958e-01,	1.846647e-06	
40	2.511886e+03	1.075958e-01,	1.889661e-06	
41	2.570396e+03	1.075958e-01,	1.933677e-06	
42	2.630268e+03	1.075958e-01,	1.978718e-06	
43	2.691535e+03	1.075958e-01,	2.024808e-06	
44	2.754229e+03	1.075958e-01,	2.071972e-06	
45	2.818383e+03	1.075958e-01,	2.120234e-06	
46	2.884032e+03	1.075958e-01,	2.169621e-06	
47	2.951209e+03	1.075958e-01,	2.220158e-06	
48	3.019952e+03	1.075958e-01,	2.271872e-06	
49	3.090295e+03	1.075958e-01,	2.324791e-06	
50	3.162278e+03	1.075958e-01,	2.378942e-06	
51	3.235937e+03	1.075958e-01,	2.434355e-06	
52	3.311311e+03	1.075958e-01,	2.491058e-06	
53	3.388442e+03	1.075958e-01,	2.549082e-06	
54	3.467369e+03	1.075958e-01,	2.608458e-06	

Index   frequency       vop                             
--------------------------------------------------------------------------------
55	3.548134e+03	1.075958e-01,	2.669217e-06	
56	3.630781e+03	1.075958e-01,	2.731391e-06	
57	3.715352e+03	1.075958e-01,	2.795013e-06	
58	3.801894e+03	1.075958e-01,	2.860118e-06	
59	3.890451e+03	1.075958e-01,	2.926738e-06	
60	3.981072e+03	1.075958e-01,	2.994911e-06	
61	4.073803e+03	1.075958e-01,	3.064671e-06	
62	4.168694e+03	1.075958e-01,	3.136056e-06	
63	4.265795e+03	1.075958e-01,	3.209105e-06	
64	4.365158e+03	1.075958e-01,	3.283854e-06	
65	4.466836e+03	1.075958e-01,	3.360345e-06	
66	4.570882e+03	1.075958e-01,	3.438618e-06	
67	4.677351e+03	1.075958e-01,	3.518713e-06	
68	4.786301e+03	1.075958e-01,	3.600675e-06	
69	4.897788e+03	1.075958e-01,	3.684545e-06	
70	5.011872e+03	1.075958e-01,	3.770369e-06	
71	5.128614e+03	1.075958e-01,	3.858192e-06	
72	5.248075e+03	1.075958e-01,	3.948061e-06	
73	5.370318e+03	1.075958e-01,	4.040023e-06	
74	5.495409e+03	1.075958e-01,	4.134128e-06	
75	5.623413e+03	1.075958e-01,	4.230424e-06	
76	5.754399e+03	1.075958e-01,	4.328963e-06	
77	5.888437e+03	1.075958e-01,	4.429798e-06	
78	6.025596e+03	1.075958e-01,	4.532981e-06	
79	6.165950e+03	1.075958e-01,	4.638567e-06	
80	6.309573e+03	1.075958e-01,	4.746614e-06	
81	6.456542e+03	1.075958e-01,	4.857176e-06	
82	6.606934e+03	1.075958e-01,	4.970315e-06	
83	6.760830e+03	1.075958e-01,	5.086088e-06	
84	6.918310e+03	1.075958e-01,	5.204558e-06	
85	7.079458e+03	1.075958e-01,	5.325788e-06	
86	7.244360e+03	1.075958e-01,	5.449842e-06	
87	7.413102e+03	1.075958e-01,	5.576785e-06	
88	7.585776e+03	1.075958e-01,	5.706685e-06	
89	7.762471e+03	1.075958e-01,	5.839610e-06	
90	7.943282e+03	1.075958e-01,	5.975632e-06	
91	8.128305e+03	1.075958e-01,	6.114823e-06	
92	8.317638e+03	1.075958e-01,	6.257255e-06	
93	8.511380e+03	1.075958e-01,	6.403006e-06	
94	8.709636e+03	1.075958e-01,	6.552151e-06	
95	8.912509e+03	1.075958e-01,	6.704770e-06	
96	9.120108e+03	1.075958e-01,	6.860944e-06	
97	9.332543e+03	1.075958e-01,	7.020756e-06	
98	9.549926e+03	1.075958e-01,	7.184290e-06	
99	9.772372e+03	1.075958e-01,	7.351634e-06	
100	1.000000e+04	1.075958e-01,	7.522876e-06	
101	1.023293e+04	1.075958e-01,	7.698106e-06	
102	1.047129e+04	1.075958e-01,	7.877418e-06	
103	1.071519e+04	1.075958e-01,	8.060906e-06	
104	1.096478e+04	1.075958e-01,	8.248669e-06	
105	1.122018e+04	1.075958e-01,	8.440805e-06	
106	1.148154e+04	1.075958e-01,	8.637417e-06	
107	1.174898e+04	1.075958e-01,	8.838608e-06	
108	1.202264e+04	1.075958e-01,	9.044486e-06	
109	1.230269e+04	1.075958e-01,	9.255159e-06	
110	1.258925e+04	1.075958e-01,	9.470739e-06	
111	1.288250e+04	1.075958e-01,	9.691341e-06	
112	1.318257e+04	1.075958e-01,	9.917081e-06	

Index   frequency       vop                             
--------------------------------------------------------------------------------
113	1.348963e+04	1.075958e-01,	1.014808e-05	
114	1.380384e+04	1.075958e-01,	1.038446e-05	
115	1.412538e+04	1.075958e-01,	1.062634e-05	
116	1.445440e+04	1.075958e-01,	1.087386e-05	
117	1.479108e+04	1.075958e-01,	1.112715e-05	
118	1.513561e+04	1.075958e-01,	1.138633e-05	
119	1.548817e+04	1.075958e-01,	1.165155e-05	
120	1.584893e+04	1.075958e-01,	1.192295e-05	
121	1.621810e+04	1.075958e-01,	1.220068e-05	
122	1.659587e+04	1.075958e-01,	1.248487e-05	
123	1.698244e+04	1.075958e-01,	1.277568e-05	
124	1.737801e+04	1.075958e-01,	1.307326e-05	
125	1.778279e+04	1.075958e-01,	1.337777e-05	
126	1.819701e+04	1.075958e-01,	1.368938e-05	
127	1.862087e+04	1.075958e-01,	1.400825e-05	
128	1.905461e+04	1.075958e-01,	1.433454e-05	
129	1.949845e+04	1.075958e-01,	1.466844e-05	
130	1.995262e+04	1.075958e-01,	1.501011e-05	
131	2.041738e+04	1.075958e-01,	1.535974e-05	
132	2.089296e+04	1.075958e-01,	1.571751e-05	
133	2.137962e+04	1.075958e-01,	1.608362e-05	
134	2.187762e+04	1.075958e-01,	1.645826e-05	
135	2.238721e+04	1.075958e-01,	1.684162e-05	
136	2.290868e+04	1.075958e-01,	1.723391e-05	
137	2.344229e+04	1.075958e-01,	1.763534e-05	
138	2.398833e+04	1.075958e-01,	1.804612e-05	
139	2.454709e+04	1.075958e-01,	1.846647e-05	
140	2.511886e+04	1.075958e-01,	1.889661e-05	
141	2.570396e+04	1.075958e-01,	1.933677e-05	
142	2.630268e+04	1.075958e-01,	1.978718e-05	
143	2.691535e+04	1.075958e-01,	2.024808e-05	
144	2.754229e+04	1.075958e-01,	2.071972e-05	
145	2.818383e+04	1.075958e-01,	2.120234e-05	
146	2.884032e+04	1.075958e-01,	2.169621e-05	
147	2.951209e+04	1.075958e-01,	2.220158e-05	
148	3.019952e+04	1.075958e-01,	2.271872e-05	
149	3.090295e+04	1.075958e-01,	2.324791e-05	
150	3.162278e+04	1.075958e-01,	2.378942e-05	
151	3.235937e+04	1.075958e-01,	2.434355e-05	
152	3.311311e+04	1.075958e-01,	2.491058e-05	
153	3.388442e+04	1.075958e-01,	2.549082e-05	
154	3.467369e+04	1.075958e-01,	2.608458e-05	
155	3.548134e+04	1.075958e-01,	2.669217e-05	
156	3.630781e+04	1.075958e-01,	2.731391e-05	
157	3.715352e+04	1.075958e-01,	2.795013e-05	
158	3.801894e+04	1.075958e-01,	2.860118e-05	
159	3.890451e+04	1.075958e-01,	2.926738e-05	
160	3.981072e+04	1.075958e-01,	2.994911e-05	
161	4.073803e+04	1.075958e-01,	3.064671e-05	
162	4.168694e+04	1.075958e-01,	3.136056e-05	
163	4.265795e+04	1.075958e-01,	3.209105e-05	
164	4.365158e+04	1.075958e-01,	3.283854e-05	
165	4.466836e+04	1.075958e-01,	3.360345e-05	
166	4.570882e+04	1.075958e-01,	3.438618e-05	
167	4.677351e+04	1.075958e-01,	3.518713e-05	
168	4.786301e+04	1.075958e-01,	3.600675e-05	
169	4.897788e+04	1.075958e-01,	3.684545e-05	
170	5.011872e+04	1.075958e-01,	3.770369e-05	

Index   frequency       vop                             
--------------------------------------------------------------------------------
171	5.128614e+04	1.075958e-01,	3.858192e-05	
172	5.248075e+04	1.075958e-01,	3.948061e-05	
173	5.370318e+04	1.075958e-01,	4.040023e-05	
174	5.495409e+04	1.075958e-01,	4.134128e-05	
175	5.623413e+04	1.075958e-01,	4.230424e-05	
176	5.754399e+04	1.075958e-01,	4.328963e-05	
177	5.888437e+04	1.075958e-01,	4.429798e-05	
178	6.025596e+04	1.075958e-01,	4.532981e-05	
179	6.165950e+04	1.075958e-01,	4.638567e-05	
180	6.309573e+04	1.075958e-01,	4.746614e-05	
181	6.456542e+04	1.075958e-01,	4.857176e-05	
182	6.606934e+04	1.075958e-01,	4.970315e-05	
183	6.760830e+04	1.075958e-01,	5.086088e-05	
184	6.918310e+04	1.075958e-01,	5.204558e-05	
185	7.079458e+04	1.075958e-01,	5.325788e-05	
186	7.244360e+04	1.075958e-01,	5.449842e-05	
187	7.413102e+04	1.075958e-01,	5.576785e-05	
188	7.585776e+04	1.075958e-01,	5.706685e-05	
189	7.762471e+04	1.075958e-01,	5.839610e-05	
190	7.943282e+04	1.075958e-01,	5.975632e-05	
191	8.128305e+04	1.075958e-01,	6.114823e-05	
192	8.317638e+04	1.075958e-01,	6.257255e-05	
193	8.511380e+04	1.075958e-01,	6.403006e-05	
194	8.709636e+04	1.075958e-01,	6.552151e-05	
195	8.912509e+04	1.075958e-01,	6.704770e-05	
196	9.120108e+04	1.075958e-01,	6.860944e-05	
197	9.332543e+04	1.075958e-01,	7.020756e-05	
198	9.549926e+04	1.075958e-01,	7.184290e-05	
199	9.772372e+04	1.075958e-01,	7.351634e-05	
200	1.000000e+05	1.075958e-01,	7.522876e-05	
201	1.023293e+05	1.075958e-01,	7.698106e-05	
202	1.047129e+05	1.075958e-01,	7.877418e-05	
203	1.071519e+05	1.075958e-01,	8.060906e-05	
204	1.096478e+05	1.075958e-01,	8.248669e-05	
205	1.122018e+05	1.075958e-01,	8.440805e-05	
206	1.148154e+05	1.075958e-01,	8.637417e-05	
207	1.174898e+05	1.075958e-01,	8.838608e-05	
208	1.202264e+05	1.075958e-01,	9.044486e-05	
209	1.230269e+05	1.075958e-01,	9.255159e-05	
210	1.258925e+05	1.075958e-01,	9.470739e-05	
211	1.288250e+05	1.075958e-01,	9.691341e-05	
212	1.318257e+05	1.075958e-01,	9.917081e-05	
213	1.348963e+05	1.075958e-01,	1.014808e-04	
214	1.380384e+05	1.075958e-01,	1.038446e-04	
215	1.412538e+05	1.075958e-01,	1.062634e-04	
216	1.445440e+05	1.075958e-01,	1.087386e-04	
217	1.479108e+05	1.075958e-01,	1.112715e-04	
218	1.513561e+05	1.075958e-01,	1.138633e-04	
219	1.548817e+05	1.075958e-01,	1.165155e-04	
220	1.584893e+05	1.075958e-01,	1.192295e-04	
221	1.621810e+05	1.075958e-01,	1.220068e-04	
222	1.659587e+05	1.075958e-01,	1.248487e-04	
223	1.698244e+05	1.075958e-01,	1.277568e-04	
224	1.737801e+05	1.075958e-01,	1.307326e-04	
225	1.778279e+05	1.075958e-01,	1.337777e-04	
226	1.819701e+05	1.075958e-01,	1.368938e-04	
227	1.862087e+05	1.075958e-01,	1.400825e-04	
228	1.905461e+05	1.075958e-01,	1.433454e-04	

Index   frequency       vop                             
--------------------------------------------------------------------------------
229	1.949845e+05	1.075958e-01,	1.466844e-04	
230	1.995262e+05	1.075958e-01,	1.501011e-04	
231	2.041738e+05	1.075958e-01,	1.535974e-04	
232	2.089296e+05	1.075958e-01,	1.571751e-04	
233	2.137962e+05	1.075958e-01,	1.608362e-04	
234	2.187762e+05	1.075958e-01,	1.645826e-04	
235	2.238721e+05	1.075958e-01,	1.684162e-04	
236	2.290868e+05	1.075958e-01,	1.723391e-04	
237	2.344229e+05	1.075958e-01,	1.763534e-04	
238	2.398833e+05	1.075958e-01,	1.804612e-04	
239	2.454709e+05	1.075958e-01,	1.846647e-04	
240	2.511886e+05	1.075958e-01,	1.889661e-04	
241	2.570396e+05	1.075958e-01,	1.933677e-04	
242	2.630268e+05	1.075958e-01,	1.978718e-04	
243	2.691535e+05	1.075959e-01,	2.024808e-04	
244	2.754229e+05	1.075959e-01,	2.071972e-04	
245	2.818383e+05	1.075959e-01,	2.120234e-04	
246	2.884032e+05	1.075959e-01,	2.169621e-04	
247	2.951209e+05	1.075959e-01,	2.220158e-04	
248	3.019952e+05	1.075959e-01,	2.271872e-04	
249	3.090295e+05	1.075959e-01,	2.324791e-04	
250	3.162278e+05	1.075959e-01,	2.378942e-04	
251	3.235937e+05	1.075959e-01,	2.434355e-04	
252	3.311311e+05	1.075959e-01,	2.491058e-04	
253	3.388442e+05	1.075959e-01,	2.549082e-04	
254	3.467369e+05	1.075959e-01,	2.608458e-04	
255	3.548134e+05	1.075959e-01,	2.669217e-04	
256	3.630781e+05	1.075959e-01,	2.731391e-04	
257	3.715352e+05	1.075959e-01,	2.795013e-04	
258	3.801894e+05	1.075959e-01,	2.860118e-04	
259	3.890451e+05	1.075959e-01,	2.926738e-04	
260	3.981072e+05	1.075959e-01,	2.994911e-04	
261	4.073803e+05	1.075959e-01,	3.064671e-04	
262	4.168694e+05	1.075959e-01,	3.136057e-04	
263	4.265795e+05	1.075959e-01,	3.209105e-04	
264	4.365158e+05	1.075959e-01,	3.283854e-04	
265	4.466836e+05	1.075959e-01,	3.360345e-04	
266	4.570882e+05	1.075959e-01,	3.438618e-04	
267	4.677351e+05	1.075959e-01,	3.518713e-04	
268	4.786301e+05	1.075959e-01,	3.600675e-04	
269	4.897788e+05	1.075959e-01,	3.684545e-04	
270	5.011872e+05	1.075959e-01,	3.770369e-04	
271	5.128614e+05	1.075959e-01,	3.858193e-04	
272	5.248075e+05	1.075959e-01,	3.948061e-04	
273	5.370318e+05	1.075959e-01,	4.040024e-04	
274	5.495409e+05	1.075960e-01,	4.134128e-04	
275	5.623413e+05	1.075960e-01,	4.230424e-04	
276	5.754399e+05	1.075960e-01,	4.328963e-04	
277	5.888437e+05	1.075960e-01,	4.429798e-04	
278	6.025596e+05	1.075960e-01,	4.532981e-04	
279	6.165950e+05	1.075960e-01,	4.638568e-04	
280	6.309573e+05	1.075960e-01,	4.746614e-04	
281	6.456542e+05	1.075960e-01,	4.857177e-04	
282	6.606934e+05	1.075960e-01,	4.970315e-04	
283	6.760830e+05	1.075960e-01,	5.086088e-04	
284	6.918310e+05	1.075960e-01,	5.204559e-04	
285	7.079458e+05	1.075960e-01,	5.325788e-04	
286	7.244360e+05	1.075961e-01,	5.449842e-04	

Index   frequency       vop                             
--------------------------------------------------------------------------------
287	7.413102e+05	1.075961e-01,	5.576785e-04	
288	7.585776e+05	1.075961e-01,	5.706685e-04	
289	7.762471e+05	1.075961e-01,	5.839611e-04	
290	7.943282e+05	1.075961e-01,	5.975633e-04	
291	8.128305e+05	1.075961e-01,	6.114823e-04	
292	8.317638e+05	1.075961e-01,	6.257256e-04	
293	8.511380e+05	1.075961e-01,	6.403006e-04	
294	8.709636e+05	1.075962e-01,	6.552151e-04	
295	8.912509e+05	1.075962e-01,	6.704771e-04	
296	9.120108e+05	1.075962e-01,	6.860945e-04	
297	9.332543e+05	1.075962e-01,	7.020757e-04	
298	9.549926e+05	1.075962e-01,	7.184291e-04	
299	9.772372e+05	1.075962e-01,	7.351635e-04	
300	1.000000e+06	1.075963e-01,	7.522876e-04	
301	1.023293e+06	1.075963e-01,	7.698107e-04	
302	1.047129e+06	1.075963e-01,	7.877419e-04	
303	1.071519e+06	1.075963e-01,	8.060907e-04	
304	1.096478e+06	1.075964e-01,	8.248670e-04	
305	1.122018e+06	1.075964e-01,	8.440806e-04	
306	1.148154e+06	1.075964e-01,	8.637418e-04	
307	1.174898e+06	1.075964e-01,	8.838609e-04	
308	1.202264e+06	1.075965e-01,	9.044487e-04	
309	1.230269e+06	1.075965e-01,	9.255160e-04	
310	1.258925e+06	1.075965e-01,	9.470741e-04	
311	1.288250e+06	1.075966e-01,	9.691343e-04	
312	1.318257e+06	1.075966e-01,	9.917083e-04	
313	1.348963e+06	1.075966e-01,	1.014808e-03	
314	1.380384e+06	1.075967e-01,	1.038446e-03	
315	1.412538e+06	1.075967e-01,	1.062635e-03	
316	1.445440e+06	1.075968e-01,	1.087387e-03	
317	1.479108e+06	1.075968e-01,	1.112715e-03	
318	1.513561e+06	1.075969e-01,	1.138634e-03	
319	1.548817e+06	1.075969e-01,	1.165156e-03	
320	1.584893e+06	1.075970e-01,	1.192296e-03	
321	1.621810e+06	1.075970e-01,	1.220068e-03	
322	1.659587e+06	1.075971e-01,	1.248487e-03	
323	1.698244e+06	1.075971e-01,	1.277568e-03	
324	1.737801e+06	1.075972e-01,	1.307326e-03	
325	1.778279e+06	1.075972e-01,	1.337778e-03	
326	1.819701e+06	1.075973e-01,	1.368939e-03	
327	1.862087e+06	1.075974e-01,	1.400825e-03	
328	1.905461e+06	1.075975e-01,	1.433455e-03	
329	1.949845e+06	1.075975e-01,	1.466844e-03	
330	1.995262e+06	1.075976e-01,	1.501011e-03	
331	2.041738e+06	1.075977e-01,	1.535974e-03	
332	2.089296e+06	1.075978e-01,	1.571752e-03	
333	2.137962e+06	1.075979e-01,	1.608362e-03	
334	2.187762e+06	1.075980e-01,	1.645826e-03	
335	2.238721e+06	1.075981e-01,	1.684162e-03	
336	2.290868e+06	1.075982e-01,	1.723391e-03	
337	2.344229e+06	1.075983e-01,	1.763534e-03	
338	2.398833e+06	1.075984e-01,	1.804612e-03	
339	2.454709e+06	1.075985e-01,	1.846647e-03	
340	2.511886e+06	1.075987e-01,	1.889661e-03	
341	2.570396e+06	1.075988e-01,	1.933676e-03	
342	2.630268e+06	1.075989e-01,	1.978717e-03	
343	2.691535e+06	1.075991e-01,	2.024808e-03	
344	2.754229e+06	1.075992e-01,	2.071971e-03	

Index   frequency       vop                             
--------------------------------------------------------------------------------
345	2.818383e+06	1.075994e-01,	2.120233e-03	
346	2.884032e+06	1.075996e-01,	2.169620e-03	
347	2.951209e+06	1.075997e-01,	2.220156e-03	
348	3.019952e+06	1.075999e-01,	2.271870e-03	
349	3.090295e+06	1.076001e-01,	2.324789e-03	
350	3.162278e+06	1.076003e-01,	2.378940e-03	
351	3.235937e+06	1.076005e-01,	2.434352e-03	
352	3.311311e+06	1.076008e-01,	2.491055e-03	
353	3.388442e+06	1.076010e-01,	2.549078e-03	
354	3.467369e+06	1.076012e-01,	2.608453e-03	
355	3.548134e+06	1.076015e-01,	2.669211e-03	
356	3.630781e+06	1.076018e-01,	2.731385e-03	
357	3.715352e+06	1.076021e-01,	2.795006e-03	
358	3.801894e+06	1.076023e-01,	2.860109e-03	
359	3.890451e+06	1.076027e-01,	2.926728e-03	
360	3.981072e+06	1.076030e-01,	2.994900e-03	
361	4.073803e+06	1.076033e-01,	3.064659e-03	
362	4.168694e+06	1.076037e-01,	3.136042e-03	
363	4.265795e+06	1.076040e-01,	3.209089e-03	
364	4.365158e+06	1.076044e-01,	3.283836e-03	
365	4.466836e+06	1.076048e-01,	3.360325e-03	
366	4.570882e+06	1.076053e-01,	3.438595e-03	
367	4.677351e+06	1.076057e-01,	3.518688e-03	
368	4.786301e+06	1.076062e-01,	3.600646e-03	
369	4.897788e+06	1.076067e-01,	3.684513e-03	
370	5.011872e+06	1.076072e-01,	3.770334e-03	
371	5.128614e+06	1.076077e-01,	3.858153e-03	
372	5.248075e+06	1.076083e-01,	3.948018e-03	
373	5.370318e+06	1.076089e-01,	4.039976e-03	
374	5.495409e+06	1.076095e-01,	4.134075e-03	
375	5.623413e+06	1.076101e-01,	4.230366e-03	
376	5.754399e+06	1.076108e-01,	4.328900e-03	
377	5.888437e+06	1.076115e-01,	4.429728e-03	
378	6.025596e+06	1.076122e-01,	4.532905e-03	
379	6.165950e+06	1.076130e-01,	4.638484e-03	
380	6.309573e+06	1.076138e-01,	4.746523e-03	
381	6.456542e+06	1.076147e-01,	4.857078e-03	
382	6.606934e+06	1.076155e-01,	4.970208e-03	
383	6.760830e+06	1.076165e-01,	5.085972e-03	
384	6.918310e+06	1.076174e-01,	5.204433e-03	
385	7.079458e+06	1.076185e-01,	5.325652e-03	
386	7.244360e+06	1.076195e-01,	5.449695e-03	
387	7.413102e+06	1.076206e-01,	5.576626e-03	
388	7.585776e+06	1.076218e-01,	5.706514e-03	
389	7.762471e+06	1.076230e-01,	5.839427e-03	
390	7.943282e+06	1.076243e-01,	5.975435e-03	
391	8.128305e+06	1.076257e-01,	6.114611e-03	
392	8.317638e+06	1.076271e-01,	6.257028e-03	
393	8.511380e+06	1.076285e-01,	6.402761e-03	
394	8.709636e+06	1.076301e-01,	6.551889e-03	
395	8.912509e+06	1.076317e-01,	6.704490e-03	
396	9.120108e+06	1.076334e-01,	6.860644e-03	
397	9.332543e+06	1.076351e-01,	7.020435e-03	
398	9.549926e+06	1.076370e-01,	7.183948e-03	
399	9.772372e+06	1.076389e-01,	7.351268e-03	
400	1.000000e+07	1.076409e-01,	7.522485e-03	
401	1.023293e+07	1.076431e-01,	7.697689e-03	
402	1.047129e+07	1.076453e-01,	7.876973e-03	

Index   frequency       vop                             
--------------------------------------------------------------------------------
403	1.071519e+07	1.076476e-01,	8.060431e-03	
404	1.096478e+07	1.076501e-01,	8.248163e-03	
405	1.122018e+07	1.076526e-01,	8.440265e-03	
406	1.148154e+07	1.076553e-01,	8.636841e-03	
407	1.174898e+07	1.076581e-01,	8.837994e-03	
408	1.202264e+07	1.076610e-01,	9.043832e-03	
409	1.230269e+07	1.076641e-01,	9.254462e-03	
410	1.258925e+07	1.076673e-01,	9.469996e-03	
411	1.288250e+07	1.076706e-01,	9.690550e-03	
412	1.318257e+07	1.076742e-01,	9.916238e-03	
413	1.348963e+07	1.076779e-01,	1.014718e-02	
414	1.380384e+07	1.076817e-01,	1.038350e-02	
415	1.412538e+07	1.076858e-01,	1.062532e-02	
416	1.445440e+07	1.076900e-01,	1.087278e-02	
