  ** sch_path: /home/andylithia/openmpw/project-reisen-chip1/xschem/ctle_3.sch
  AC Analysis  Mon Oct 31 00:06:34  2022
--------------------------------------------------------------------------------
Index   frequency       vop                             
--------------------------------------------------------------------------------
0	1.000000e+03	7.373848e-01,	3.166076e-07	
1	1.023293e+03	7.373848e-01,	3.239823e-07	
2	1.047129e+03	7.373848e-01,	3.315289e-07	
3	1.071519e+03	7.373848e-01,	3.392511e-07	
4	1.096478e+03	7.373848e-01,	3.471533e-07	
5	1.122018e+03	7.373848e-01,	3.552396e-07	
6	1.148154e+03	7.373848e-01,	3.635142e-07	
7	1.174898e+03	7.373848e-01,	3.719815e-07	
8	1.202264e+03	7.373848e-01,	3.806461e-07	
9	1.230269e+03	7.373848e-01,	3.895124e-07	
10	1.258925e+03	7.373848e-01,	3.985853e-07	
11	1.288250e+03	7.373848e-01,	4.078696e-07	
12	1.318257e+03	7.373848e-01,	4.173701e-07	
13	1.348963e+03	7.373848e-01,	4.270919e-07	
14	1.380384e+03	7.373848e-01,	4.370401e-07	
15	1.412538e+03	7.373848e-01,	4.472201e-07	
16	1.445440e+03	7.373848e-01,	4.576372e-07	
17	1.479108e+03	7.373848e-01,	4.682969e-07	
18	1.513561e+03	7.373848e-01,	4.792050e-07	
19	1.548817e+03	7.373848e-01,	4.903671e-07	
20	1.584893e+03	7.373848e-01,	5.017892e-07	
21	1.621810e+03	7.373848e-01,	5.134774e-07	
22	1.659587e+03	7.373848e-01,	5.254378e-07	
23	1.698244e+03	7.373848e-01,	5.376768e-07	
24	1.737801e+03	7.373848e-01,	5.502009e-07	
25	1.778279e+03	7.373848e-01,	5.630168e-07	
26	1.819701e+03	7.373848e-01,	5.761311e-07	
27	1.862087e+03	7.373848e-01,	5.895509e-07	
28	1.905461e+03	7.373848e-01,	6.032833e-07	
29	1.949845e+03	7.373848e-01,	6.173356e-07	
30	1.995262e+03	7.373848e-01,	6.317152e-07	
31	2.041738e+03	7.373848e-01,	6.464297e-07	
32	2.089296e+03	7.373848e-01,	6.614870e-07	
33	2.137962e+03	7.373848e-01,	6.768950e-07	
34	2.187762e+03	7.373848e-01,	6.926619e-07	
35	2.238721e+03	7.373848e-01,	7.087961e-07	
36	2.290868e+03	7.373848e-01,	7.253061e-07	
37	2.344229e+03	7.373848e-01,	7.422006e-07	
38	2.398833e+03	7.373848e-01,	7.594887e-07	
39	2.454709e+03	7.373848e-01,	7.771795e-07	
40	2.511886e+03	7.373848e-01,	7.952823e-07	
41	2.570396e+03	7.373848e-01,	8.138068e-07	
42	2.630268e+03	7.373848e-01,	8.327628e-07	
43	2.691535e+03	7.373848e-01,	8.521604e-07	
44	2.754229e+03	7.373848e-01,	8.720097e-07	
45	2.818383e+03	7.373848e-01,	8.923214e-07	
46	2.884032e+03	7.373848e-01,	9.131063e-07	
47	2.951209e+03	7.373848e-01,	9.343753e-07	
48	3.019952e+03	7.373848e-01,	9.561396e-07	
49	3.090295e+03	7.373848e-01,	9.784110e-07	
50	3.162278e+03	7.373848e-01,	1.001201e-06	
51	3.235937e+03	7.373848e-01,	1.024522e-06	
52	3.311311e+03	7.373848e-01,	1.048386e-06	
53	3.388442e+03	7.373848e-01,	1.072806e-06	
54	3.467369e+03	7.373848e-01,	1.097795e-06	

Index   frequency       vop                             
--------------------------------------------------------------------------------
55	3.548134e+03	7.373848e-01,	1.123366e-06	
56	3.630781e+03	7.373848e-01,	1.149533e-06	
57	3.715352e+03	7.373848e-01,	1.176309e-06	
58	3.801894e+03	7.373848e-01,	1.203709e-06	
59	3.890451e+03	7.373848e-01,	1.231746e-06	
60	3.981072e+03	7.373848e-01,	1.260438e-06	
61	4.073803e+03	7.373848e-01,	1.289797e-06	
62	4.168694e+03	7.373848e-01,	1.319840e-06	
63	4.265795e+03	7.373848e-01,	1.350583e-06	
64	4.365158e+03	7.373848e-01,	1.382042e-06	
65	4.466836e+03	7.373848e-01,	1.414234e-06	
66	4.570882e+03	7.373848e-01,	1.447176e-06	
67	4.677351e+03	7.373848e-01,	1.480885e-06	
68	4.786301e+03	7.373848e-01,	1.515379e-06	
69	4.897788e+03	7.373848e-01,	1.550677e-06	
70	5.011872e+03	7.373848e-01,	1.586797e-06	
71	5.128614e+03	7.373848e-01,	1.623758e-06	
72	5.248075e+03	7.373848e-01,	1.661580e-06	
73	5.370318e+03	7.373848e-01,	1.700283e-06	
74	5.495409e+03	7.373848e-01,	1.739888e-06	
75	5.623413e+03	7.373848e-01,	1.780415e-06	
76	5.754399e+03	7.373848e-01,	1.821887e-06	
77	5.888437e+03	7.373848e-01,	1.864324e-06	
78	6.025596e+03	7.373848e-01,	1.907749e-06	
79	6.165950e+03	7.373848e-01,	1.952187e-06	
80	6.309573e+03	7.373848e-01,	1.997659e-06	
81	6.456542e+03	7.373848e-01,	2.044190e-06	
82	6.606934e+03	7.373848e-01,	2.091806e-06	
83	6.760830e+03	7.373848e-01,	2.140530e-06	
84	6.918310e+03	7.373848e-01,	2.190389e-06	
85	7.079458e+03	7.373848e-01,	2.241410e-06	
86	7.244360e+03	7.373848e-01,	2.293619e-06	
87	7.413102e+03	7.373848e-01,	2.347045e-06	
88	7.585776e+03	7.373848e-01,	2.401714e-06	
89	7.762471e+03	7.373848e-01,	2.457657e-06	
90	7.943282e+03	7.373848e-01,	2.514904e-06	
91	8.128305e+03	7.373848e-01,	2.573483e-06	
92	8.317638e+03	7.373848e-01,	2.633427e-06	
93	8.511380e+03	7.373848e-01,	2.694768e-06	
94	8.709636e+03	7.373848e-01,	2.757537e-06	
95	8.912509e+03	7.373848e-01,	2.821768e-06	
96	9.120108e+03	7.373848e-01,	2.887496e-06	
97	9.332543e+03	7.373848e-01,	2.954754e-06	
98	9.549926e+03	7.373848e-01,	3.023579e-06	
99	9.772372e+03	7.373848e-01,	3.094007e-06	
100	1.000000e+04	7.373848e-01,	3.166076e-06	
101	1.023293e+04	7.373848e-01,	3.239823e-06	
102	1.047129e+04	7.373848e-01,	3.315289e-06	
103	1.071519e+04	7.373848e-01,	3.392511e-06	
104	1.096478e+04	7.373848e-01,	3.471533e-06	
105	1.122018e+04	7.373848e-01,	3.552396e-06	
106	1.148154e+04	7.373848e-01,	3.635142e-06	
107	1.174898e+04	7.373848e-01,	3.719815e-06	
108	1.202264e+04	7.373848e-01,	3.806461e-06	
109	1.230269e+04	7.373848e-01,	3.895124e-06	
110	1.258925e+04	7.373848e-01,	3.985853e-06	
111	1.288250e+04	7.373848e-01,	4.078696e-06	
112	1.318257e+04	7.373848e-01,	4.173701e-06	

Index   frequency       vop                             
--------------------------------------------------------------------------------
113	1.348963e+04	7.373848e-01,	4.270919e-06	
114	1.380384e+04	7.373848e-01,	4.370401e-06	
115	1.412538e+04	7.373848e-01,	4.472201e-06	
116	1.445440e+04	7.373848e-01,	4.576372e-06	
117	1.479108e+04	7.373848e-01,	4.682969e-06	
118	1.513561e+04	7.373848e-01,	4.792050e-06	
119	1.548817e+04	7.373848e-01,	4.903671e-06	
120	1.584893e+04	7.373848e-01,	5.017892e-06	
121	1.621810e+04	7.373848e-01,	5.134774e-06	
122	1.659587e+04	7.373848e-01,	5.254378e-06	
123	1.698244e+04	7.373848e-01,	5.376768e-06	
124	1.737801e+04	7.373848e-01,	5.502009e-06	
125	1.778279e+04	7.373848e-01,	5.630168e-06	
126	1.819701e+04	7.373848e-01,	5.761311e-06	
127	1.862087e+04	7.373848e-01,	5.895509e-06	
128	1.905461e+04	7.373848e-01,	6.032833e-06	
129	1.949845e+04	7.373848e-01,	6.173356e-06	
130	1.995262e+04	7.373848e-01,	6.317152e-06	
131	2.041738e+04	7.373848e-01,	6.464297e-06	
132	2.089296e+04	7.373848e-01,	6.614870e-06	
133	2.137962e+04	7.373848e-01,	6.768950e-06	
134	2.187762e+04	7.373848e-01,	6.926619e-06	
135	2.238721e+04	7.373848e-01,	7.087961e-06	
136	2.290868e+04	7.373848e-01,	7.253061e-06	
137	2.344229e+04	7.373848e-01,	7.422006e-06	
138	2.398833e+04	7.373848e-01,	7.594887e-06	
139	2.454709e+04	7.373848e-01,	7.771795e-06	
140	2.511886e+04	7.373848e-01,	7.952823e-06	
141	2.570396e+04	7.373848e-01,	8.138068e-06	
142	2.630268e+04	7.373848e-01,	8.327628e-06	
143	2.691535e+04	7.373848e-01,	8.521604e-06	
144	2.754229e+04	7.373848e-01,	8.720097e-06	
145	2.818383e+04	7.373848e-01,	8.923214e-06	
146	2.884032e+04	7.373848e-01,	9.131063e-06	
147	2.951209e+04	7.373848e-01,	9.343753e-06	
148	3.019952e+04	7.373848e-01,	9.561397e-06	
149	3.090295e+04	7.373848e-01,	9.784110e-06	
150	3.162278e+04	7.373848e-01,	1.001201e-05	
151	3.235937e+04	7.373848e-01,	1.024522e-05	
152	3.311311e+04	7.373848e-01,	1.048386e-05	
153	3.388442e+04	7.373848e-01,	1.072806e-05	
154	3.467369e+04	7.373848e-01,	1.097795e-05	
155	3.548134e+04	7.373848e-01,	1.123366e-05	
156	3.630781e+04	7.373848e-01,	1.149533e-05	
157	3.715352e+04	7.373848e-01,	1.176309e-05	
158	3.801894e+04	7.373848e-01,	1.203709e-05	
159	3.890451e+04	7.373848e-01,	1.231746e-05	
160	3.981072e+04	7.373848e-01,	1.260438e-05	
161	4.073803e+04	7.373848e-01,	1.289797e-05	
162	4.168694e+04	7.373848e-01,	1.319840e-05	
163	4.265795e+04	7.373848e-01,	1.350583e-05	
164	4.365158e+04	7.373848e-01,	1.382042e-05	
165	4.466836e+04	7.373848e-01,	1.414234e-05	
166	4.570882e+04	7.373848e-01,	1.447176e-05	
167	4.677351e+04	7.373848e-01,	1.480885e-05	
168	4.786301e+04	7.373848e-01,	1.515379e-05	
169	4.897788e+04	7.373848e-01,	1.550677e-05	
170	5.011872e+04	7.373848e-01,	1.586797e-05	

Index   frequency       vop                             
--------------------------------------------------------------------------------
171	5.128614e+04	7.373848e-01,	1.623758e-05	
172	5.248075e+04	7.373848e-01,	1.661580e-05	
173	5.370318e+04	7.373848e-01,	1.700283e-05	
174	5.495409e+04	7.373848e-01,	1.739888e-05	
175	5.623413e+04	7.373848e-01,	1.780415e-05	
176	5.754399e+04	7.373848e-01,	1.821887e-05	
177	5.888437e+04	7.373848e-01,	1.864324e-05	
178	6.025596e+04	7.373848e-01,	1.907749e-05	
179	6.165950e+04	7.373848e-01,	1.952187e-05	
180	6.309573e+04	7.373848e-01,	1.997659e-05	
181	6.456542e+04	7.373848e-01,	2.044190e-05	
182	6.606934e+04	7.373848e-01,	2.091806e-05	
183	6.760830e+04	7.373848e-01,	2.140530e-05	
184	6.918310e+04	7.373848e-01,	2.190389e-05	
185	7.079458e+04	7.373848e-01,	2.241410e-05	
186	7.244360e+04	7.373848e-01,	2.293619e-05	
187	7.413102e+04	7.373848e-01,	2.347045e-05	
188	7.585776e+04	7.373848e-01,	2.401714e-05	
189	7.762471e+04	7.373848e-01,	2.457657e-05	
190	7.943282e+04	7.373848e-01,	2.514904e-05	
191	8.128305e+04	7.373848e-01,	2.573483e-05	
192	8.317638e+04	7.373848e-01,	2.633427e-05	
193	8.511380e+04	7.373848e-01,	2.694768e-05	
194	8.709636e+04	7.373848e-01,	2.757537e-05	
195	8.912509e+04	7.373848e-01,	2.821768e-05	
196	9.120108e+04	7.373848e-01,	2.887496e-05	
197	9.332543e+04	7.373848e-01,	2.954754e-05	
198	9.549926e+04	7.373848e-01,	3.023579e-05	
199	9.772372e+04	7.373848e-01,	3.094007e-05	
200	1.000000e+05	7.373848e-01,	3.166076e-05	
201	1.023293e+05	7.373848e-01,	3.239823e-05	
202	1.047129e+05	7.373848e-01,	3.315289e-05	
203	1.071519e+05	7.373848e-01,	3.392512e-05	
204	1.096478e+05	7.373848e-01,	3.471533e-05	
205	1.122018e+05	7.373848e-01,	3.552396e-05	
206	1.148154e+05	7.373848e-01,	3.635142e-05	
207	1.174898e+05	7.373848e-01,	3.719815e-05	
208	1.202264e+05	7.373848e-01,	3.806461e-05	
209	1.230269e+05	7.373848e-01,	3.895125e-05	
210	1.258925e+05	7.373848e-01,	3.985854e-05	
211	1.288250e+05	7.373848e-01,	4.078696e-05	
212	1.318257e+05	7.373848e-01,	4.173701e-05	
213	1.348963e+05	7.373848e-01,	4.270919e-05	
214	1.380384e+05	7.373848e-01,	4.370402e-05	
215	1.412538e+05	7.373848e-01,	4.472201e-05	
216	1.445440e+05	7.373848e-01,	4.576372e-05	
217	1.479108e+05	7.373848e-01,	4.682970e-05	
218	1.513561e+05	7.373848e-01,	4.792050e-05	
219	1.548817e+05	7.373848e-01,	4.903671e-05	
220	1.584893e+05	7.373848e-01,	5.017893e-05	
221	1.621810e+05	7.373848e-01,	5.134774e-05	
222	1.659587e+05	7.373848e-01,	5.254379e-05	
223	1.698244e+05	7.373848e-01,	5.376769e-05	
224	1.737801e+05	7.373848e-01,	5.502010e-05	
225	1.778279e+05	7.373848e-01,	5.630168e-05	
226	1.819701e+05	7.373848e-01,	5.761312e-05	
227	1.862087e+05	7.373848e-01,	5.895510e-05	
228	1.905461e+05	7.373848e-01,	6.032834e-05	

Index   frequency       vop                             
--------------------------------------------------------------------------------
229	1.949845e+05	7.373848e-01,	6.173357e-05	
230	1.995262e+05	7.373848e-01,	6.317153e-05	
231	2.041738e+05	7.373848e-01,	6.464298e-05	
232	2.089296e+05	7.373848e-01,	6.614871e-05	
233	2.137962e+05	7.373848e-01,	6.768951e-05	
234	2.187762e+05	7.373848e-01,	6.926621e-05	
235	2.238721e+05	7.373848e-01,	7.087962e-05	
236	2.290868e+05	7.373848e-01,	7.253062e-05	
237	2.344229e+05	7.373848e-01,	7.422008e-05	
238	2.398833e+05	7.373848e-01,	7.594889e-05	
239	2.454709e+05	7.373848e-01,	7.771796e-05	
240	2.511886e+05	7.373848e-01,	7.952825e-05	
241	2.570396e+05	7.373848e-01,	8.138070e-05	
242	2.630268e+05	7.373848e-01,	8.327630e-05	
243	2.691535e+05	7.373848e-01,	8.521606e-05	
244	2.754229e+05	7.373848e-01,	8.720099e-05	
245	2.818383e+05	7.373848e-01,	8.923217e-05	
246	2.884032e+05	7.373848e-01,	9.131065e-05	
247	2.951209e+05	7.373848e-01,	9.343755e-05	
248	3.019952e+05	7.373848e-01,	9.561399e-05	
249	3.090295e+05	7.373848e-01,	9.784113e-05	
250	3.162278e+05	7.373848e-01,	1.001201e-04	
251	3.235937e+05	7.373848e-01,	1.024522e-04	
252	3.311311e+05	7.373848e-01,	1.048387e-04	
253	3.388442e+05	7.373848e-01,	1.072807e-04	
254	3.467369e+05	7.373848e-01,	1.097796e-04	
255	3.548134e+05	7.373848e-01,	1.123367e-04	
256	3.630781e+05	7.373848e-01,	1.149533e-04	
257	3.715352e+05	7.373848e-01,	1.176309e-04	
258	3.801894e+05	7.373848e-01,	1.203709e-04	
259	3.890451e+05	7.373848e-01,	1.231747e-04	
260	3.981072e+05	7.373848e-01,	1.260438e-04	
261	4.073803e+05	7.373848e-01,	1.289798e-04	
262	4.168694e+05	7.373848e-01,	1.319841e-04	
263	4.265795e+05	7.373848e-01,	1.350584e-04	
264	4.365158e+05	7.373848e-01,	1.382043e-04	
265	4.466836e+05	7.373848e-01,	1.414235e-04	
266	4.570882e+05	7.373848e-01,	1.447177e-04	
267	4.677351e+05	7.373848e-01,	1.480886e-04	
268	4.786301e+05	7.373848e-01,	1.515380e-04	
269	4.897788e+05	7.373848e-01,	1.550678e-04	
270	5.011872e+05	7.373848e-01,	1.586798e-04	
271	5.128614e+05	7.373848e-01,	1.623759e-04	
272	5.248075e+05	7.373848e-01,	1.661582e-04	
273	5.370318e+05	7.373848e-01,	1.700285e-04	
274	5.495409e+05	7.373848e-01,	1.739890e-04	
275	5.623413e+05	7.373848e-01,	1.780417e-04	
276	5.754399e+05	7.373848e-01,	1.821888e-04	
277	5.888437e+05	7.373848e-01,	1.864326e-04	
278	6.025596e+05	7.373848e-01,	1.907752e-04	
279	6.165950e+05	7.373848e-01,	1.952189e-04	
280	6.309573e+05	7.373848e-01,	1.997661e-04	
281	6.456542e+05	7.373848e-01,	2.044193e-04	
282	6.606934e+05	7.373848e-01,	2.091809e-04	
283	6.760830e+05	7.373848e-01,	2.140533e-04	
284	6.918310e+05	7.373849e-01,	2.190393e-04	
285	7.079458e+05	7.373849e-01,	2.241414e-04	
286	7.244360e+05	7.373849e-01,	2.293623e-04	

Index   frequency       vop                             
--------------------------------------------------------------------------------
287	7.413102e+05	7.373849e-01,	2.347049e-04	
288	7.585776e+05	7.373849e-01,	2.401719e-04	
289	7.762471e+05	7.373849e-01,	2.457662e-04	
290	7.943282e+05	7.373849e-01,	2.514909e-04	
291	8.128305e+05	7.373849e-01,	2.573488e-04	
292	8.317638e+05	7.373849e-01,	2.633433e-04	
293	8.511380e+05	7.373849e-01,	2.694774e-04	
294	8.709636e+05	7.373849e-01,	2.757543e-04	
295	8.912509e+05	7.373849e-01,	2.821775e-04	
296	9.120108e+05	7.373849e-01,	2.887503e-04	
297	9.332543e+05	7.373849e-01,	2.954762e-04	
298	9.549926e+05	7.373849e-01,	3.023588e-04	
299	9.772372e+05	7.373849e-01,	3.094016e-04	
300	1.000000e+06	7.373850e-01,	3.166086e-04	
301	1.023293e+06	7.373850e-01,	3.239834e-04	
302	1.047129e+06	7.373850e-01,	3.315300e-04	
303	1.071519e+06	7.373850e-01,	3.392523e-04	
304	1.096478e+06	7.373850e-01,	3.471546e-04	
305	1.122018e+06	7.373850e-01,	3.552409e-04	
306	1.148154e+06	7.373850e-01,	3.635156e-04	
307	1.174898e+06	7.373850e-01,	3.719830e-04	
308	1.202264e+06	7.373850e-01,	3.806477e-04	
309	1.230269e+06	7.373850e-01,	3.895142e-04	
310	1.258925e+06	7.373851e-01,	3.985872e-04	
311	1.288250e+06	7.373851e-01,	4.078716e-04	
312	1.318257e+06	7.373851e-01,	4.173722e-04	
313	1.348963e+06	7.373851e-01,	4.270942e-04	
314	1.380384e+06	7.373851e-01,	4.370426e-04	
315	1.412538e+06	7.373851e-01,	4.472227e-04	
316	1.445440e+06	7.373852e-01,	4.576400e-04	
317	1.479108e+06	7.373852e-01,	4.682999e-04	
318	1.513561e+06	7.373852e-01,	4.792081e-04	
319	1.548817e+06	7.373852e-01,	4.903705e-04	
320	1.584893e+06	7.373852e-01,	5.017928e-04	
321	1.621810e+06	7.373853e-01,	5.134812e-04	
322	1.659587e+06	7.373853e-01,	5.254419e-04	
323	1.698244e+06	7.373853e-01,	5.376811e-04	
324	1.737801e+06	7.373853e-01,	5.502055e-04	
325	1.778279e+06	7.373854e-01,	5.630216e-04	
326	1.819701e+06	7.373854e-01,	5.761362e-04	
327	1.862087e+06	7.373854e-01,	5.895564e-04	
328	1.905461e+06	7.373855e-01,	6.032891e-04	
329	1.949845e+06	7.373855e-01,	6.173417e-04	
330	1.995262e+06	7.373855e-01,	6.317217e-04	
331	2.041738e+06	7.373856e-01,	6.464366e-04	
332	2.089296e+06	7.373856e-01,	6.614943e-04	
333	2.137962e+06	7.373856e-01,	6.769027e-04	
334	2.187762e+06	7.373857e-01,	6.926700e-04	
335	2.238721e+06	7.373857e-01,	7.088046e-04	
336	2.290868e+06	7.373858e-01,	7.253151e-04	
337	2.344229e+06	7.373858e-01,	7.422101e-04	
338	2.398833e+06	7.373859e-01,	7.594986e-04	
339	2.454709e+06	7.373859e-01,	7.771899e-04	
340	2.511886e+06	7.373860e-01,	7.952932e-04	
341	2.570396e+06	7.373860e-01,	8.138183e-04	
342	2.630268e+06	7.373861e-01,	8.327748e-04	
343	2.691535e+06	7.373861e-01,	8.521728e-04	
344	2.754229e+06	7.373862e-01,	8.720227e-04	

Index   frequency       vop                             
--------------------------------------------------------------------------------
345	2.818383e+06	7.373863e-01,	8.923349e-04	
346	2.884032e+06	7.373863e-01,	9.131203e-04	
347	2.951209e+06	7.373864e-01,	9.343897e-04	
348	3.019952e+06	7.373865e-01,	9.561546e-04	
349	3.090295e+06	7.373866e-01,	9.784264e-04	
350	3.162278e+06	7.373867e-01,	1.001217e-03	
351	3.235937e+06	7.373868e-01,	1.024538e-03	
352	3.311311e+06	7.373869e-01,	1.048403e-03	
353	3.388442e+06	7.373870e-01,	1.072823e-03	
354	3.467369e+06	7.373871e-01,	1.097812e-03	
355	3.548134e+06	7.373872e-01,	1.123383e-03	
356	3.630781e+06	7.373873e-01,	1.149549e-03	
357	3.715352e+06	7.373874e-01,	1.176325e-03	
358	3.801894e+06	7.373875e-01,	1.203725e-03	
359	3.890451e+06	7.373877e-01,	1.231762e-03	
360	3.981072e+06	7.373878e-01,	1.260452e-03	
361	4.073803e+06	7.373879e-01,	1.289811e-03	
362	4.168694e+06	7.373881e-01,	1.319853e-03	
363	4.265795e+06	7.373883e-01,	1.350595e-03	
364	4.365158e+06	7.373884e-01,	1.382052e-03	
365	4.466836e+06	7.373886e-01,	1.414242e-03	
366	4.570882e+06	7.373888e-01,	1.447182e-03	
367	4.677351e+06	7.373890e-01,	1.480888e-03	
368	4.786301e+06	7.373892e-01,	1.515379e-03	
369	4.897788e+06	7.373894e-01,	1.550674e-03	
370	5.011872e+06	7.373896e-01,	1.586790e-03	
371	5.128614e+06	7.373898e-01,	1.623747e-03	
372	5.248075e+06	7.373901e-01,	1.661565e-03	
373	5.370318e+06	7.373903e-01,	1.700263e-03	
374	5.495409e+06	7.373906e-01,	1.739862e-03	
375	5.623413e+06	7.373909e-01,	1.780383e-03	
376	5.754399e+06	7.373911e-01,	1.821848e-03	
377	5.888437e+06	7.373914e-01,	1.864278e-03	
378	6.025596e+06	7.373917e-01,	1.907696e-03	
379	6.165950e+06	7.373921e-01,	1.952125e-03	
380	6.309573e+06	7.373924e-01,	1.997589e-03	
381	6.456542e+06	7.373928e-01,	2.044111e-03	
382	6.606934e+06	7.373932e-01,	2.091716e-03	
383	6.760830e+06	7.373935e-01,	2.140431e-03	
384	6.918310e+06	7.373940e-01,	2.190279e-03	
385	7.079458e+06	7.373944e-01,	2.241288e-03	
386	7.244360e+06	7.373948e-01,	2.293485e-03	
387	7.413102e+06	7.373953e-01,	2.346898e-03	
388	7.585776e+06	7.373958e-01,	2.401555e-03	
389	7.762471e+06	7.373963e-01,	2.457484e-03	
390	7.943282e+06	7.373969e-01,	2.514716e-03	
391	8.128305e+06	7.373974e-01,	2.573281e-03	
392	8.317638e+06	7.373980e-01,	2.633209e-03	
393	8.511380e+06	7.373986e-01,	2.694534e-03	
394	8.709636e+06	7.373993e-01,	2.757286e-03	
395	8.912509e+06	7.373999e-01,	2.821500e-03	
396	9.120108e+06	7.374006e-01,	2.887209e-03	
397	9.332543e+06	7.374014e-01,	2.954449e-03	
398	9.549926e+06	7.374022e-01,	3.023255e-03	
399	9.772372e+06	7.374030e-01,	3.093663e-03	
400	1.000000e+07	7.374038e-01,	3.165711e-03	
401	1.023293e+07	7.374047e-01,	3.239436e-03	
402	1.047129e+07	7.374056e-01,	3.314879e-03	

Index   frequency       vop                             
--------------------------------------------------------------------------------
403	1.071519e+07	7.374066e-01,	3.392079e-03	
404	1.096478e+07	7.374076e-01,	3.471076e-03	
405	1.122018e+07	7.374087e-01,	3.551913e-03	
406	1.148154e+07	7.374098e-01,	3.634633e-03	
407	1.174898e+07	7.374110e-01,	3.719279e-03	
408	1.202264e+07	7.374122e-01,	3.805896e-03	
409	1.230269e+07	7.374135e-01,	3.894530e-03	
410	1.258925e+07	7.374148e-01,	3.985228e-03	
411	1.288250e+07	7.374162e-01,	4.078038e-03	
412	1.318257e+07	7.374177e-01,	4.173009e-03	
413	1.348963e+07	7.374192e-01,	4.270192e-03	
414	1.380384e+07	7.374208e-01,	4.369637e-03	
415	1.412538e+07	7.374225e-01,	4.471398e-03	
416	1.445440e+07	7.374243e-01,	4.575528e-03	
