  ** sch_path: /home/andylithia/openmpw/project-reisen-chip1/xschem/ctle_3.sch
  AC Analysis  Mon Oct 31 00:06:33  2022
--------------------------------------------------------------------------------
Index   frequency       vop                             
--------------------------------------------------------------------------------
0	1.000000e+03	1.116689e-01,	7.479475e-07	
1	1.023293e+03	1.116689e-01,	7.653694e-07	
2	1.047129e+03	1.116689e-01,	7.831971e-07	
3	1.071519e+03	1.116689e-01,	8.014401e-07	
4	1.096478e+03	1.116689e-01,	8.201081e-07	
5	1.122018e+03	1.116689e-01,	8.392109e-07	
6	1.148154e+03	1.116689e-01,	8.587586e-07	
7	1.174898e+03	1.116689e-01,	8.787616e-07	
8	1.202264e+03	1.116689e-01,	8.992306e-07	
9	1.230269e+03	1.116689e-01,	9.201764e-07	
10	1.258925e+03	1.116689e-01,	9.416101e-07	
11	1.288250e+03	1.116689e-01,	9.635430e-07	
12	1.318257e+03	1.116689e-01,	9.859868e-07	
13	1.348963e+03	1.116689e-01,	1.008953e-06	
14	1.380384e+03	1.116689e-01,	1.032455e-06	
15	1.412538e+03	1.116689e-01,	1.056504e-06	
16	1.445440e+03	1.116689e-01,	1.081113e-06	
17	1.479108e+03	1.116689e-01,	1.106295e-06	
18	1.513561e+03	1.116689e-01,	1.132064e-06	
19	1.548817e+03	1.116689e-01,	1.158433e-06	
20	1.584893e+03	1.116689e-01,	1.185417e-06	
21	1.621810e+03	1.116689e-01,	1.213029e-06	
22	1.659587e+03	1.116689e-01,	1.241284e-06	
23	1.698244e+03	1.116689e-01,	1.270197e-06	
24	1.737801e+03	1.116689e-01,	1.299784e-06	
25	1.778279e+03	1.116689e-01,	1.330060e-06	
26	1.819701e+03	1.116689e-01,	1.361041e-06	
27	1.862087e+03	1.116689e-01,	1.392743e-06	
28	1.905461e+03	1.116689e-01,	1.425185e-06	
29	1.949845e+03	1.116689e-01,	1.458381e-06	
30	1.995262e+03	1.116689e-01,	1.492351e-06	
31	2.041738e+03	1.116689e-01,	1.527113e-06	
32	2.089296e+03	1.116689e-01,	1.562684e-06	
33	2.137962e+03	1.116689e-01,	1.599083e-06	
34	2.187762e+03	1.116689e-01,	1.636331e-06	
35	2.238721e+03	1.116689e-01,	1.674446e-06	
36	2.290868e+03	1.116689e-01,	1.713449e-06	
37	2.344229e+03	1.116689e-01,	1.753360e-06	
38	2.398833e+03	1.116689e-01,	1.794201e-06	
39	2.454709e+03	1.116689e-01,	1.835993e-06	
40	2.511886e+03	1.116689e-01,	1.878759e-06	
41	2.570396e+03	1.116689e-01,	1.922521e-06	
42	2.630268e+03	1.116689e-01,	1.967302e-06	
43	2.691535e+03	1.116689e-01,	2.013127e-06	
44	2.754229e+03	1.116689e-01,	2.060018e-06	
45	2.818383e+03	1.116689e-01,	2.108002e-06	
46	2.884032e+03	1.116689e-01,	2.157104e-06	
47	2.951209e+03	1.116689e-01,	2.207349e-06	
48	3.019952e+03	1.116689e-01,	2.258765e-06	
49	3.090295e+03	1.116689e-01,	2.311379e-06	
50	3.162278e+03	1.116689e-01,	2.365218e-06	
51	3.235937e+03	1.116689e-01,	2.420311e-06	
52	3.311311e+03	1.116689e-01,	2.476687e-06	
53	3.388442e+03	1.116689e-01,	2.534376e-06	
54	3.467369e+03	1.116689e-01,	2.593409e-06	

Index   frequency       vop                             
--------------------------------------------------------------------------------
55	3.548134e+03	1.116689e-01,	2.653818e-06	
56	3.630781e+03	1.116689e-01,	2.715633e-06	
57	3.715352e+03	1.116689e-01,	2.778888e-06	
58	3.801894e+03	1.116689e-01,	2.843617e-06	
59	3.890451e+03	1.116689e-01,	2.909853e-06	
60	3.981072e+03	1.116689e-01,	2.977632e-06	
61	4.073803e+03	1.116689e-01,	3.046990e-06	
62	4.168694e+03	1.116689e-01,	3.117964e-06	
63	4.265795e+03	1.116689e-01,	3.190591e-06	
64	4.365158e+03	1.116689e-01,	3.264909e-06	
65	4.466836e+03	1.116689e-01,	3.340959e-06	
66	4.570882e+03	1.116689e-01,	3.418779e-06	
67	4.677351e+03	1.116689e-01,	3.498413e-06	
68	4.786301e+03	1.116689e-01,	3.579902e-06	
69	4.897788e+03	1.116689e-01,	3.663288e-06	
70	5.011872e+03	1.116689e-01,	3.748617e-06	
71	5.128614e+03	1.116689e-01,	3.835934e-06	
72	5.248075e+03	1.116689e-01,	3.925284e-06	
73	5.370318e+03	1.116689e-01,	4.016716e-06	
74	5.495409e+03	1.116689e-01,	4.110277e-06	
75	5.623413e+03	1.116689e-01,	4.206018e-06	
76	5.754399e+03	1.116689e-01,	4.303988e-06	
77	5.888437e+03	1.116689e-01,	4.404241e-06	
78	6.025596e+03	1.116689e-01,	4.506829e-06	
79	6.165950e+03	1.116689e-01,	4.611807e-06	
80	6.309573e+03	1.116689e-01,	4.719229e-06	
81	6.456542e+03	1.116689e-01,	4.829154e-06	
82	6.606934e+03	1.116689e-01,	4.941640e-06	
83	6.760830e+03	1.116689e-01,	5.056745e-06	
84	6.918310e+03	1.116689e-01,	5.174532e-06	
85	7.079458e+03	1.116689e-01,	5.295063e-06	
86	7.244360e+03	1.116689e-01,	5.418400e-06	
87	7.413102e+03	1.116689e-01,	5.544611e-06	
88	7.585776e+03	1.116689e-01,	5.673762e-06	
89	7.762471e+03	1.116689e-01,	5.805921e-06	
90	7.943282e+03	1.116689e-01,	5.941158e-06	
91	8.128305e+03	1.116689e-01,	6.079545e-06	
92	8.317638e+03	1.116689e-01,	6.221156e-06	
93	8.511380e+03	1.116689e-01,	6.366065e-06	
94	8.709636e+03	1.116689e-01,	6.514350e-06	
95	8.912509e+03	1.116689e-01,	6.666089e-06	
96	9.120108e+03	1.116689e-01,	6.821362e-06	
97	9.332543e+03	1.116689e-01,	6.980252e-06	
98	9.549926e+03	1.116689e-01,	7.142843e-06	
99	9.772372e+03	1.116689e-01,	7.309221e-06	
100	1.000000e+04	1.116689e-01,	7.479475e-06	
101	1.023293e+04	1.116689e-01,	7.653694e-06	
102	1.047129e+04	1.116689e-01,	7.831971e-06	
103	1.071519e+04	1.116689e-01,	8.014401e-06	
104	1.096478e+04	1.116689e-01,	8.201081e-06	
105	1.122018e+04	1.116689e-01,	8.392109e-06	
106	1.148154e+04	1.116689e-01,	8.587586e-06	
107	1.174898e+04	1.116689e-01,	8.787616e-06	
108	1.202264e+04	1.116689e-01,	8.992306e-06	
109	1.230269e+04	1.116689e-01,	9.201764e-06	
110	1.258925e+04	1.116689e-01,	9.416101e-06	
111	1.288250e+04	1.116689e-01,	9.635430e-06	
112	1.318257e+04	1.116689e-01,	9.859868e-06	

Index   frequency       vop                             
--------------------------------------------------------------------------------
113	1.348963e+04	1.116689e-01,	1.008953e-05	
114	1.380384e+04	1.116689e-01,	1.032455e-05	
115	1.412538e+04	1.116689e-01,	1.056504e-05	
116	1.445440e+04	1.116689e-01,	1.081113e-05	
117	1.479108e+04	1.116689e-01,	1.106295e-05	
118	1.513561e+04	1.116689e-01,	1.132064e-05	
119	1.548817e+04	1.116689e-01,	1.158433e-05	
120	1.584893e+04	1.116689e-01,	1.185417e-05	
121	1.621810e+04	1.116689e-01,	1.213029e-05	
122	1.659587e+04	1.116689e-01,	1.241284e-05	
123	1.698244e+04	1.116689e-01,	1.270197e-05	
124	1.737801e+04	1.116689e-01,	1.299784e-05	
125	1.778279e+04	1.116689e-01,	1.330060e-05	
126	1.819701e+04	1.116689e-01,	1.361041e-05	
127	1.862087e+04	1.116689e-01,	1.392743e-05	
128	1.905461e+04	1.116689e-01,	1.425184e-05	
129	1.949845e+04	1.116689e-01,	1.458381e-05	
130	1.995262e+04	1.116689e-01,	1.492351e-05	
131	2.041738e+04	1.116689e-01,	1.527113e-05	
132	2.089296e+04	1.116689e-01,	1.562684e-05	
133	2.137962e+04	1.116689e-01,	1.599083e-05	
134	2.187762e+04	1.116689e-01,	1.636331e-05	
135	2.238721e+04	1.116689e-01,	1.674446e-05	
136	2.290868e+04	1.116689e-01,	1.713449e-05	
137	2.344229e+04	1.116689e-01,	1.753360e-05	
138	2.398833e+04	1.116689e-01,	1.794201e-05	
139	2.454709e+04	1.116689e-01,	1.835993e-05	
140	2.511886e+04	1.116689e-01,	1.878759e-05	
141	2.570396e+04	1.116689e-01,	1.922521e-05	
142	2.630268e+04	1.116689e-01,	1.967302e-05	
143	2.691535e+04	1.116689e-01,	2.013127e-05	
144	2.754229e+04	1.116689e-01,	2.060018e-05	
145	2.818383e+04	1.116689e-01,	2.108002e-05	
146	2.884032e+04	1.116689e-01,	2.157104e-05	
147	2.951209e+04	1.116689e-01,	2.207349e-05	
148	3.019952e+04	1.116689e-01,	2.258765e-05	
149	3.090295e+04	1.116689e-01,	2.311379e-05	
150	3.162278e+04	1.116689e-01,	2.365218e-05	
151	3.235937e+04	1.116689e-01,	2.420311e-05	
152	3.311311e+04	1.116689e-01,	2.476687e-05	
153	3.388442e+04	1.116689e-01,	2.534376e-05	
154	3.467369e+04	1.116689e-01,	2.593409e-05	
155	3.548134e+04	1.116689e-01,	2.653818e-05	
156	3.630781e+04	1.116689e-01,	2.715633e-05	
157	3.715352e+04	1.116689e-01,	2.778888e-05	
158	3.801894e+04	1.116689e-01,	2.843617e-05	
159	3.890451e+04	1.116689e-01,	2.909853e-05	
160	3.981072e+04	1.116689e-01,	2.977632e-05	
161	4.073803e+04	1.116689e-01,	3.046990e-05	
162	4.168694e+04	1.116689e-01,	3.117964e-05	
163	4.265795e+04	1.116689e-01,	3.190591e-05	
164	4.365158e+04	1.116689e-01,	3.264909e-05	
165	4.466836e+04	1.116689e-01,	3.340959e-05	
166	4.570882e+04	1.116689e-01,	3.418779e-05	
167	4.677351e+04	1.116689e-01,	3.498413e-05	
168	4.786301e+04	1.116689e-01,	3.579902e-05	
169	4.897788e+04	1.116689e-01,	3.663288e-05	
170	5.011872e+04	1.116689e-01,	3.748617e-05	

Index   frequency       vop                             
--------------------------------------------------------------------------------
171	5.128614e+04	1.116689e-01,	3.835934e-05	
172	5.248075e+04	1.116689e-01,	3.925284e-05	
173	5.370318e+04	1.116689e-01,	4.016716e-05	
174	5.495409e+04	1.116689e-01,	4.110277e-05	
175	5.623413e+04	1.116689e-01,	4.206018e-05	
176	5.754399e+04	1.116689e-01,	4.303988e-05	
177	5.888437e+04	1.116689e-01,	4.404241e-05	
178	6.025596e+04	1.116689e-01,	4.506829e-05	
179	6.165950e+04	1.116689e-01,	4.611807e-05	
180	6.309573e+04	1.116689e-01,	4.719229e-05	
181	6.456542e+04	1.116689e-01,	4.829154e-05	
182	6.606934e+04	1.116689e-01,	4.941640e-05	
183	6.760830e+04	1.116689e-01,	5.056745e-05	
184	6.918310e+04	1.116689e-01,	5.174532e-05	
185	7.079458e+04	1.116689e-01,	5.295062e-05	
186	7.244360e+04	1.116689e-01,	5.418400e-05	
187	7.413102e+04	1.116689e-01,	5.544611e-05	
188	7.585776e+04	1.116689e-01,	5.673762e-05	
189	7.762471e+04	1.116689e-01,	5.805920e-05	
190	7.943282e+04	1.116689e-01,	5.941158e-05	
191	8.128305e+04	1.116689e-01,	6.079545e-05	
192	8.317638e+04	1.116689e-01,	6.221156e-05	
193	8.511380e+04	1.116689e-01,	6.366065e-05	
194	8.709636e+04	1.116689e-01,	6.514350e-05	
195	8.912509e+04	1.116689e-01,	6.666089e-05	
196	9.120108e+04	1.116689e-01,	6.821362e-05	
197	9.332543e+04	1.116689e-01,	6.980252e-05	
198	9.549926e+04	1.116689e-01,	7.142843e-05	
199	9.772372e+04	1.116689e-01,	7.309221e-05	
200	1.000000e+05	1.116689e-01,	7.479474e-05	
201	1.023293e+05	1.116689e-01,	7.653694e-05	
202	1.047129e+05	1.116689e-01,	7.831971e-05	
203	1.071519e+05	1.116689e-01,	8.014401e-05	
204	1.096478e+05	1.116689e-01,	8.201080e-05	
205	1.122018e+05	1.116689e-01,	8.392108e-05	
206	1.148154e+05	1.116689e-01,	8.587585e-05	
207	1.174898e+05	1.116689e-01,	8.787616e-05	
208	1.202264e+05	1.116689e-01,	8.992306e-05	
209	1.230269e+05	1.116689e-01,	9.201764e-05	
210	1.258925e+05	1.116689e-01,	9.416100e-05	
211	1.288250e+05	1.116689e-01,	9.635429e-05	
212	1.318257e+05	1.116689e-01,	9.859867e-05	
213	1.348963e+05	1.116689e-01,	1.008953e-04	
214	1.380384e+05	1.116689e-01,	1.032455e-04	
215	1.412538e+05	1.116689e-01,	1.056504e-04	
216	1.445440e+05	1.116689e-01,	1.081113e-04	
217	1.479108e+05	1.116689e-01,	1.106295e-04	
218	1.513561e+05	1.116689e-01,	1.132064e-04	
219	1.548817e+05	1.116689e-01,	1.158433e-04	
220	1.584893e+05	1.116689e-01,	1.185417e-04	
221	1.621810e+05	1.116689e-01,	1.213029e-04	
222	1.659587e+05	1.116689e-01,	1.241284e-04	
223	1.698244e+05	1.116689e-01,	1.270197e-04	
224	1.737801e+05	1.116689e-01,	1.299784e-04	
225	1.778279e+05	1.116689e-01,	1.330059e-04	
226	1.819701e+05	1.116689e-01,	1.361040e-04	
227	1.862087e+05	1.116689e-01,	1.392743e-04	
228	1.905461e+05	1.116689e-01,	1.425184e-04	

Index   frequency       vop                             
--------------------------------------------------------------------------------
229	1.949845e+05	1.116689e-01,	1.458381e-04	
230	1.995262e+05	1.116689e-01,	1.492351e-04	
231	2.041738e+05	1.116689e-01,	1.527112e-04	
232	2.089296e+05	1.116689e-01,	1.562684e-04	
233	2.137962e+05	1.116689e-01,	1.599083e-04	
234	2.187762e+05	1.116689e-01,	1.636330e-04	
235	2.238721e+05	1.116689e-01,	1.674446e-04	
236	2.290868e+05	1.116689e-01,	1.713448e-04	
237	2.344229e+05	1.116689e-01,	1.753360e-04	
238	2.398833e+05	1.116689e-01,	1.794201e-04	
239	2.454709e+05	1.116689e-01,	1.835993e-04	
240	2.511886e+05	1.116689e-01,	1.878759e-04	
241	2.570396e+05	1.116689e-01,	1.922521e-04	
242	2.630268e+05	1.116689e-01,	1.967302e-04	
243	2.691535e+05	1.116689e-01,	2.013126e-04	
244	2.754229e+05	1.116689e-01,	2.060018e-04	
245	2.818383e+05	1.116689e-01,	2.108002e-04	
246	2.884032e+05	1.116689e-01,	2.157103e-04	
247	2.951209e+05	1.116689e-01,	2.207349e-04	
248	3.019952e+05	1.116689e-01,	2.258765e-04	
249	3.090295e+05	1.116689e-01,	2.311378e-04	
250	3.162278e+05	1.116689e-01,	2.365217e-04	
251	3.235937e+05	1.116689e-01,	2.420310e-04	
252	3.311311e+05	1.116689e-01,	2.476686e-04	
253	3.388442e+05	1.116689e-01,	2.534375e-04	
254	3.467369e+05	1.116689e-01,	2.593408e-04	
255	3.548134e+05	1.116689e-01,	2.653817e-04	
256	3.630781e+05	1.116689e-01,	2.715632e-04	
257	3.715352e+05	1.116689e-01,	2.778887e-04	
258	3.801894e+05	1.116689e-01,	2.843616e-04	
259	3.890451e+05	1.116689e-01,	2.909852e-04	
260	3.981072e+05	1.116690e-01,	2.977631e-04	
261	4.073803e+05	1.116690e-01,	3.046989e-04	
262	4.168694e+05	1.116690e-01,	3.117962e-04	
263	4.265795e+05	1.116690e-01,	3.190589e-04	
264	4.365158e+05	1.116690e-01,	3.264907e-04	
265	4.466836e+05	1.116690e-01,	3.340956e-04	
266	4.570882e+05	1.116690e-01,	3.418777e-04	
267	4.677351e+05	1.116690e-01,	3.498411e-04	
268	4.786301e+05	1.116690e-01,	3.579899e-04	
269	4.897788e+05	1.116690e-01,	3.663285e-04	
270	5.011872e+05	1.116690e-01,	3.748614e-04	
271	5.128614e+05	1.116690e-01,	3.835930e-04	
272	5.248075e+05	1.116690e-01,	3.925281e-04	
273	5.370318e+05	1.116690e-01,	4.016712e-04	
274	5.495409e+05	1.116690e-01,	4.110273e-04	
275	5.623413e+05	1.116690e-01,	4.206013e-04	
276	5.754399e+05	1.116690e-01,	4.303984e-04	
277	5.888437e+05	1.116690e-01,	4.404236e-04	
278	6.025596e+05	1.116690e-01,	4.506824e-04	
279	6.165950e+05	1.116690e-01,	4.611801e-04	
280	6.309573e+05	1.116691e-01,	4.719223e-04	
281	6.456542e+05	1.116691e-01,	4.829148e-04	
282	6.606934e+05	1.116691e-01,	4.941633e-04	
283	6.760830e+05	1.116691e-01,	5.056738e-04	
284	6.918310e+05	1.116691e-01,	5.174524e-04	
285	7.079458e+05	1.116691e-01,	5.295054e-04	
286	7.244360e+05	1.116691e-01,	5.418391e-04	

Index   frequency       vop                             
--------------------------------------------------------------------------------
287	7.413102e+05	1.116691e-01,	5.544601e-04	
288	7.585776e+05	1.116691e-01,	5.673751e-04	
289	7.762471e+05	1.116691e-01,	5.805909e-04	
290	7.943282e+05	1.116692e-01,	5.941146e-04	
291	8.128305e+05	1.116692e-01,	6.079532e-04	
292	8.317638e+05	1.116692e-01,	6.221142e-04	
293	8.511380e+05	1.116692e-01,	6.366051e-04	
294	8.709636e+05	1.116692e-01,	6.514334e-04	
295	8.912509e+05	1.116692e-01,	6.666072e-04	
296	9.120108e+05	1.116693e-01,	6.821344e-04	
297	9.332543e+05	1.116693e-01,	6.980233e-04	
298	9.549926e+05	1.116693e-01,	7.142822e-04	
299	9.772372e+05	1.116693e-01,	7.309199e-04	
300	1.000000e+06	1.116693e-01,	7.479451e-04	
301	1.023293e+06	1.116693e-01,	7.653669e-04	
302	1.047129e+06	1.116694e-01,	7.831945e-04	
303	1.071519e+06	1.116694e-01,	8.014373e-04	
304	1.096478e+06	1.116694e-01,	8.201050e-04	
305	1.122018e+06	1.116694e-01,	8.392076e-04	
306	1.148154e+06	1.116695e-01,	8.587551e-04	
307	1.174898e+06	1.116695e-01,	8.787579e-04	
308	1.202264e+06	1.116695e-01,	8.992266e-04	
309	1.230269e+06	1.116696e-01,	9.201721e-04	
310	1.258925e+06	1.116696e-01,	9.416055e-04	
311	1.288250e+06	1.116696e-01,	9.635381e-04	
312	1.318257e+06	1.116697e-01,	9.859816e-04	
313	1.348963e+06	1.116697e-01,	1.008948e-03	
314	1.380384e+06	1.116697e-01,	1.032449e-03	
315	1.412538e+06	1.116698e-01,	1.056498e-03	
316	1.445440e+06	1.116698e-01,	1.081106e-03	
317	1.479108e+06	1.116699e-01,	1.106288e-03	
318	1.513561e+06	1.116699e-01,	1.132057e-03	
319	1.548817e+06	1.116699e-01,	1.158425e-03	
320	1.584893e+06	1.116700e-01,	1.185408e-03	
321	1.621810e+06	1.116701e-01,	1.213019e-03	
322	1.659587e+06	1.116701e-01,	1.241274e-03	
323	1.698244e+06	1.116702e-01,	1.270186e-03	
324	1.737801e+06	1.116702e-01,	1.299772e-03	
325	1.778279e+06	1.116703e-01,	1.330048e-03	
326	1.819701e+06	1.116704e-01,	1.361028e-03	
327	1.862087e+06	1.116704e-01,	1.392730e-03	
328	1.905461e+06	1.116705e-01,	1.425170e-03	
329	1.949845e+06	1.116706e-01,	1.458366e-03	
330	1.995262e+06	1.116706e-01,	1.492335e-03	
331	2.041738e+06	1.116707e-01,	1.527095e-03	
332	2.089296e+06	1.116708e-01,	1.562665e-03	
333	2.137962e+06	1.116709e-01,	1.599064e-03	
334	2.187762e+06	1.116710e-01,	1.636310e-03	
335	2.238721e+06	1.116711e-01,	1.674424e-03	
336	2.290868e+06	1.116712e-01,	1.713426e-03	
337	2.344229e+06	1.116713e-01,	1.753336e-03	
338	2.398833e+06	1.116714e-01,	1.794175e-03	
339	2.454709e+06	1.116716e-01,	1.835966e-03	
340	2.511886e+06	1.116717e-01,	1.878730e-03	
341	2.570396e+06	1.116718e-01,	1.922491e-03	
342	2.630268e+06	1.116719e-01,	1.967270e-03	
343	2.691535e+06	1.116721e-01,	2.013093e-03	
344	2.754229e+06	1.116722e-01,	2.059983e-03	

Index   frequency       vop                             
--------------------------------------------------------------------------------
345	2.818383e+06	1.116724e-01,	2.107965e-03	
346	2.884032e+06	1.116726e-01,	2.157065e-03	
347	2.951209e+06	1.116727e-01,	2.207309e-03	
348	3.019952e+06	1.116729e-01,	2.258723e-03	
349	3.090295e+06	1.116731e-01,	2.311334e-03	
350	3.162278e+06	1.116733e-01,	2.365172e-03	
351	3.235937e+06	1.116735e-01,	2.420263e-03	
352	3.311311e+06	1.116737e-01,	2.476637e-03	
353	3.388442e+06	1.116739e-01,	2.534325e-03	
354	3.467369e+06	1.116742e-01,	2.593356e-03	
355	3.548134e+06	1.116744e-01,	2.653763e-03	
356	3.630781e+06	1.116747e-01,	2.715577e-03	
357	3.715352e+06	1.116750e-01,	2.778831e-03	
358	3.801894e+06	1.116752e-01,	2.843558e-03	
359	3.890451e+06	1.116755e-01,	2.909793e-03	
360	3.981072e+06	1.116758e-01,	2.977571e-03	
361	4.073803e+06	1.116762e-01,	3.046929e-03	
362	4.168694e+06	1.116765e-01,	3.117902e-03	
363	4.265795e+06	1.116769e-01,	3.190528e-03	
364	4.365158e+06	1.116772e-01,	3.264847e-03	
365	4.466836e+06	1.116776e-01,	3.340897e-03	
366	4.570882e+06	1.116781e-01,	3.418718e-03	
367	4.677351e+06	1.116785e-01,	3.498353e-03	
368	4.786301e+06	1.116789e-01,	3.579843e-03	
369	4.897788e+06	1.116794e-01,	3.663232e-03	
370	5.011872e+06	1.116799e-01,	3.748563e-03	
371	5.128614e+06	1.116804e-01,	3.835883e-03	
372	5.248075e+06	1.116810e-01,	3.925237e-03	
373	5.370318e+06	1.116815e-01,	4.016672e-03	
374	5.495409e+06	1.116821e-01,	4.110238e-03	
375	5.623413e+06	1.116827e-01,	4.205984e-03	
376	5.754399e+06	1.116834e-01,	4.303960e-03	
377	5.888437e+06	1.116841e-01,	4.404218e-03	
378	6.025596e+06	1.116848e-01,	4.506813e-03	
379	6.165950e+06	1.116856e-01,	4.611797e-03	
380	6.309573e+06	1.116863e-01,	4.719227e-03	
381	6.456542e+06	1.116872e-01,	4.829160e-03	
382	6.606934e+06	1.116880e-01,	4.941653e-03	
383	6.760830e+06	1.116890e-01,	5.056767e-03	
384	6.918310e+06	1.116899e-01,	5.174562e-03	
385	7.079458e+06	1.116909e-01,	5.295102e-03	
386	7.244360e+06	1.116919e-01,	5.418448e-03	
387	7.413102e+06	1.116930e-01,	5.544668e-03	
388	7.585776e+06	1.116942e-01,	5.673828e-03	
389	7.762471e+06	1.116954e-01,	5.805996e-03	
390	7.943282e+06	1.116967e-01,	5.941242e-03	
391	8.128305e+06	1.116980e-01,	6.079638e-03	
392	8.317638e+06	1.116994e-01,	6.221257e-03	
393	8.511380e+06	1.117008e-01,	6.366175e-03	
394	8.709636e+06	1.117023e-01,	6.514467e-03	
395	8.912509e+06	1.117039e-01,	6.666213e-03	
396	9.120108e+06	1.117056e-01,	6.821493e-03	
397	9.332543e+06	1.117073e-01,	6.980389e-03	
398	9.549926e+06	1.117092e-01,	7.142985e-03	
399	9.772372e+06	1.117111e-01,	7.309368e-03	
400	1.000000e+07	1.117131e-01,	7.479625e-03	
401	1.023293e+07	1.117152e-01,	7.653847e-03	
402	1.047129e+07	1.117174e-01,	7.832126e-03	

Index   frequency       vop                             
--------------------------------------------------------------------------------
403	1.071519e+07	1.117197e-01,	8.014556e-03	
404	1.096478e+07	1.117221e-01,	8.201234e-03	
405	1.122018e+07	1.117246e-01,	8.392259e-03	
406	1.148154e+07	1.117273e-01,	8.587731e-03	
407	1.174898e+07	1.117301e-01,	8.787756e-03	
408	1.202264e+07	1.117330e-01,	8.992437e-03	
409	1.230269e+07	1.117360e-01,	9.201884e-03	
410	1.258925e+07	1.117392e-01,	9.416208e-03	
411	1.288250e+07	1.117425e-01,	9.635522e-03	
412	1.318257e+07	1.117460e-01,	9.859942e-03	
413	1.348963e+07	1.117497e-01,	1.008959e-02	
414	1.380384e+07	1.117535e-01,	1.032458e-02	
415	1.412538e+07	1.117575e-01,	1.056504e-02	
416	1.445440e+07	1.117618e-01,	1.081110e-02	
