  ** sch_path: /home/andylithia/openmpw/project-reisen-chip1/xschem/ctle_3.sch
  AC Analysis  Mon Oct 31 00:06:33  2022
--------------------------------------------------------------------------------
Index   frequency       vop                             
--------------------------------------------------------------------------------
0	1.000000e+03	1.075960e-01,	7.532301e-07	
1	1.023293e+03	1.075960e-01,	7.707751e-07	
2	1.047129e+03	1.075960e-01,	7.887287e-07	
3	1.071519e+03	1.075960e-01,	8.071006e-07	
4	1.096478e+03	1.075960e-01,	8.259004e-07	
5	1.122018e+03	1.075960e-01,	8.451381e-07	
6	1.148154e+03	1.075960e-01,	8.648239e-07	
7	1.174898e+03	1.075960e-01,	8.849682e-07	
8	1.202264e+03	1.075960e-01,	9.055818e-07	
9	1.230269e+03	1.075960e-01,	9.266755e-07	
10	1.258925e+03	1.075960e-01,	9.482605e-07	
11	1.288250e+03	1.075960e-01,	9.703483e-07	
12	1.318257e+03	1.075960e-01,	9.929507e-07	
13	1.348963e+03	1.075960e-01,	1.016079e-06	
14	1.380384e+03	1.075960e-01,	1.039747e-06	
15	1.412538e+03	1.075960e-01,	1.063966e-06	
16	1.445440e+03	1.075960e-01,	1.088749e-06	
17	1.479108e+03	1.075960e-01,	1.114109e-06	
18	1.513561e+03	1.075960e-01,	1.140060e-06	
19	1.548817e+03	1.075960e-01,	1.166615e-06	
20	1.584893e+03	1.075960e-01,	1.193789e-06	
21	1.621810e+03	1.075960e-01,	1.221596e-06	
22	1.659587e+03	1.075960e-01,	1.250051e-06	
23	1.698244e+03	1.075960e-01,	1.279168e-06	
24	1.737801e+03	1.075960e-01,	1.308964e-06	
25	1.778279e+03	1.075960e-01,	1.339454e-06	
26	1.819701e+03	1.075960e-01,	1.370653e-06	
27	1.862087e+03	1.075960e-01,	1.402580e-06	
28	1.905461e+03	1.075960e-01,	1.435250e-06	
29	1.949845e+03	1.075960e-01,	1.468682e-06	
30	1.995262e+03	1.075960e-01,	1.502892e-06	
31	2.041738e+03	1.075960e-01,	1.537898e-06	
32	2.089296e+03	1.075960e-01,	1.573721e-06	
33	2.137962e+03	1.075960e-01,	1.610377e-06	
34	2.187762e+03	1.075960e-01,	1.647888e-06	
35	2.238721e+03	1.075960e-01,	1.686272e-06	
36	2.290868e+03	1.075960e-01,	1.725550e-06	
37	2.344229e+03	1.075960e-01,	1.765744e-06	
38	2.398833e+03	1.075960e-01,	1.806873e-06	
39	2.454709e+03	1.075960e-01,	1.848961e-06	
40	2.511886e+03	1.075960e-01,	1.892028e-06	
41	2.570396e+03	1.075960e-01,	1.936099e-06	
42	2.630268e+03	1.075960e-01,	1.981197e-06	
43	2.691535e+03	1.075960e-01,	2.027345e-06	
44	2.754229e+03	1.075960e-01,	2.074568e-06	
45	2.818383e+03	1.075960e-01,	2.122891e-06	
46	2.884032e+03	1.075960e-01,	2.172339e-06	
47	2.951209e+03	1.075960e-01,	2.222940e-06	
48	3.019952e+03	1.075960e-01,	2.274719e-06	
49	3.090295e+03	1.075960e-01,	2.327704e-06	
50	3.162278e+03	1.075960e-01,	2.381923e-06	
51	3.235937e+03	1.075960e-01,	2.437405e-06	
52	3.311311e+03	1.075960e-01,	2.494179e-06	
53	3.388442e+03	1.075960e-01,	2.552276e-06	
54	3.467369e+03	1.075960e-01,	2.611726e-06	

Index   frequency       vop                             
--------------------------------------------------------------------------------
55	3.548134e+03	1.075960e-01,	2.672561e-06	
56	3.630781e+03	1.075960e-01,	2.734813e-06	
57	3.715352e+03	1.075960e-01,	2.798515e-06	
58	3.801894e+03	1.075960e-01,	2.863701e-06	
59	3.890451e+03	1.075960e-01,	2.930405e-06	
60	3.981072e+03	1.075960e-01,	2.998663e-06	
61	4.073803e+03	1.075960e-01,	3.068511e-06	
62	4.168694e+03	1.075960e-01,	3.139986e-06	
63	4.265795e+03	1.075960e-01,	3.213125e-06	
64	4.365158e+03	1.075960e-01,	3.287969e-06	
65	4.466836e+03	1.075960e-01,	3.364555e-06	
66	4.570882e+03	1.075960e-01,	3.442926e-06	
67	4.677351e+03	1.075960e-01,	3.523122e-06	
68	4.786301e+03	1.075960e-01,	3.605186e-06	
69	4.897788e+03	1.075960e-01,	3.689162e-06	
70	5.011872e+03	1.075960e-01,	3.775093e-06	
71	5.128614e+03	1.075960e-01,	3.863026e-06	
72	5.248075e+03	1.075960e-01,	3.953008e-06	
73	5.370318e+03	1.075960e-01,	4.045085e-06	
74	5.495409e+03	1.075960e-01,	4.139307e-06	
75	5.623413e+03	1.075960e-01,	4.235724e-06	
76	5.754399e+03	1.075960e-01,	4.334387e-06	
77	5.888437e+03	1.075960e-01,	4.435348e-06	
78	6.025596e+03	1.075960e-01,	4.538660e-06	
79	6.165950e+03	1.075960e-01,	4.644379e-06	
80	6.309573e+03	1.075960e-01,	4.752561e-06	
81	6.456542e+03	1.075960e-01,	4.863262e-06	
82	6.606934e+03	1.075960e-01,	4.976542e-06	
83	6.760830e+03	1.075960e-01,	5.092460e-06	
84	6.918310e+03	1.075960e-01,	5.211079e-06	
85	7.079458e+03	1.075960e-01,	5.332461e-06	
86	7.244360e+03	1.075960e-01,	5.456670e-06	
87	7.413102e+03	1.075960e-01,	5.583772e-06	
88	7.585776e+03	1.075960e-01,	5.713835e-06	
89	7.762471e+03	1.075960e-01,	5.846927e-06	
90	7.943282e+03	1.075960e-01,	5.983119e-06	
91	8.128305e+03	1.075960e-01,	6.122484e-06	
92	8.317638e+03	1.075960e-01,	6.265095e-06	
93	8.511380e+03	1.075960e-01,	6.411028e-06	
94	8.709636e+03	1.075960e-01,	6.560360e-06	
95	8.912509e+03	1.075960e-01,	6.713170e-06	
96	9.120108e+03	1.075960e-01,	6.869540e-06	
97	9.332543e+03	1.075960e-01,	7.029552e-06	
98	9.549926e+03	1.075960e-01,	7.193292e-06	
99	9.772372e+03	1.075960e-01,	7.360845e-06	
100	1.000000e+04	1.075960e-01,	7.532301e-06	
101	1.023293e+04	1.075960e-01,	7.707751e-06	
102	1.047129e+04	1.075960e-01,	7.887287e-06	
103	1.071519e+04	1.075960e-01,	8.071006e-06	
104	1.096478e+04	1.075960e-01,	8.259004e-06	
105	1.122018e+04	1.075960e-01,	8.451381e-06	
106	1.148154e+04	1.075960e-01,	8.648239e-06	
107	1.174898e+04	1.075960e-01,	8.849682e-06	
108	1.202264e+04	1.075960e-01,	9.055818e-06	
109	1.230269e+04	1.075960e-01,	9.266755e-06	
110	1.258925e+04	1.075960e-01,	9.482605e-06	
111	1.288250e+04	1.075960e-01,	9.703483e-06	
112	1.318257e+04	1.075960e-01,	9.929507e-06	

Index   frequency       vop                             
--------------------------------------------------------------------------------
113	1.348963e+04	1.075960e-01,	1.016079e-05	
114	1.380384e+04	1.075960e-01,	1.039747e-05	
115	1.412538e+04	1.075960e-01,	1.063966e-05	
116	1.445440e+04	1.075960e-01,	1.088749e-05	
117	1.479108e+04	1.075960e-01,	1.114109e-05	
118	1.513561e+04	1.075960e-01,	1.140060e-05	
119	1.548817e+04	1.075960e-01,	1.166615e-05	
120	1.584893e+04	1.075960e-01,	1.193789e-05	
121	1.621810e+04	1.075960e-01,	1.221596e-05	
122	1.659587e+04	1.075960e-01,	1.250051e-05	
123	1.698244e+04	1.075960e-01,	1.279168e-05	
124	1.737801e+04	1.075960e-01,	1.308964e-05	
125	1.778279e+04	1.075960e-01,	1.339454e-05	
126	1.819701e+04	1.075960e-01,	1.370653e-05	
127	1.862087e+04	1.075960e-01,	1.402580e-05	
128	1.905461e+04	1.075960e-01,	1.435250e-05	
129	1.949845e+04	1.075960e-01,	1.468682e-05	
130	1.995262e+04	1.075960e-01,	1.502892e-05	
131	2.041738e+04	1.075960e-01,	1.537898e-05	
132	2.089296e+04	1.075960e-01,	1.573721e-05	
133	2.137962e+04	1.075960e-01,	1.610377e-05	
134	2.187762e+04	1.075960e-01,	1.647888e-05	
135	2.238721e+04	1.075960e-01,	1.686272e-05	
136	2.290868e+04	1.075960e-01,	1.725550e-05	
137	2.344229e+04	1.075960e-01,	1.765744e-05	
138	2.398833e+04	1.075960e-01,	1.806873e-05	
139	2.454709e+04	1.075960e-01,	1.848961e-05	
140	2.511886e+04	1.075960e-01,	1.892028e-05	
141	2.570396e+04	1.075960e-01,	1.936099e-05	
142	2.630268e+04	1.075960e-01,	1.981197e-05	
143	2.691535e+04	1.075960e-01,	2.027345e-05	
144	2.754229e+04	1.075960e-01,	2.074568e-05	
145	2.818383e+04	1.075960e-01,	2.122891e-05	
146	2.884032e+04	1.075960e-01,	2.172339e-05	
147	2.951209e+04	1.075960e-01,	2.222940e-05	
148	3.019952e+04	1.075960e-01,	2.274719e-05	
149	3.090295e+04	1.075960e-01,	2.327704e-05	
150	3.162278e+04	1.075960e-01,	2.381923e-05	
151	3.235937e+04	1.075960e-01,	2.437405e-05	
152	3.311311e+04	1.075960e-01,	2.494179e-05	
153	3.388442e+04	1.075960e-01,	2.552276e-05	
154	3.467369e+04	1.075960e-01,	2.611726e-05	
155	3.548134e+04	1.075960e-01,	2.672561e-05	
156	3.630781e+04	1.075960e-01,	2.734813e-05	
157	3.715352e+04	1.075960e-01,	2.798515e-05	
158	3.801894e+04	1.075960e-01,	2.863701e-05	
159	3.890451e+04	1.075960e-01,	2.930405e-05	
160	3.981072e+04	1.075960e-01,	2.998663e-05	
161	4.073803e+04	1.075960e-01,	3.068511e-05	
162	4.168694e+04	1.075960e-01,	3.139986e-05	
163	4.265795e+04	1.075960e-01,	3.213125e-05	
164	4.365158e+04	1.075960e-01,	3.287969e-05	
165	4.466836e+04	1.075960e-01,	3.364555e-05	
166	4.570882e+04	1.075960e-01,	3.442926e-05	
167	4.677351e+04	1.075960e-01,	3.523122e-05	
168	4.786301e+04	1.075960e-01,	3.605186e-05	
169	4.897788e+04	1.075960e-01,	3.689162e-05	
170	5.011872e+04	1.075960e-01,	3.775093e-05	

Index   frequency       vop                             
--------------------------------------------------------------------------------
171	5.128614e+04	1.075960e-01,	3.863026e-05	
172	5.248075e+04	1.075960e-01,	3.953008e-05	
173	5.370318e+04	1.075960e-01,	4.045085e-05	
174	5.495409e+04	1.075960e-01,	4.139307e-05	
175	5.623413e+04	1.075960e-01,	4.235724e-05	
176	5.754399e+04	1.075960e-01,	4.334387e-05	
177	5.888437e+04	1.075960e-01,	4.435348e-05	
178	6.025596e+04	1.075960e-01,	4.538660e-05	
179	6.165950e+04	1.075960e-01,	4.644379e-05	
180	6.309573e+04	1.075960e-01,	4.752561e-05	
181	6.456542e+04	1.075960e-01,	4.863262e-05	
182	6.606934e+04	1.075960e-01,	4.976542e-05	
183	6.760830e+04	1.075960e-01,	5.092461e-05	
184	6.918310e+04	1.075960e-01,	5.211079e-05	
185	7.079458e+04	1.075960e-01,	5.332461e-05	
186	7.244360e+04	1.075960e-01,	5.456670e-05	
187	7.413102e+04	1.075960e-01,	5.583772e-05	
188	7.585776e+04	1.075960e-01,	5.713835e-05	
189	7.762471e+04	1.075960e-01,	5.846927e-05	
190	7.943282e+04	1.075960e-01,	5.983119e-05	
191	8.128305e+04	1.075960e-01,	6.122484e-05	
192	8.317638e+04	1.075960e-01,	6.265095e-05	
193	8.511380e+04	1.075960e-01,	6.411028e-05	
194	8.709636e+04	1.075960e-01,	6.560360e-05	
195	8.912509e+04	1.075960e-01,	6.713170e-05	
196	9.120108e+04	1.075960e-01,	6.869540e-05	
197	9.332543e+04	1.075960e-01,	7.029552e-05	
198	9.549926e+04	1.075960e-01,	7.193292e-05	
199	9.772372e+04	1.075960e-01,	7.360845e-05	
200	1.000000e+05	1.075960e-01,	7.532301e-05	
201	1.023293e+05	1.075960e-01,	7.707751e-05	
202	1.047129e+05	1.075960e-01,	7.887288e-05	
203	1.071519e+05	1.075960e-01,	8.071006e-05	
204	1.096478e+05	1.075960e-01,	8.259004e-05	
205	1.122018e+05	1.075960e-01,	8.451381e-05	
206	1.148154e+05	1.075960e-01,	8.648239e-05	
207	1.174898e+05	1.075960e-01,	8.849682e-05	
208	1.202264e+05	1.075960e-01,	9.055818e-05	
209	1.230269e+05	1.075960e-01,	9.266755e-05	
210	1.258925e+05	1.075960e-01,	9.482605e-05	
211	1.288250e+05	1.075960e-01,	9.703484e-05	
212	1.318257e+05	1.075960e-01,	9.929507e-05	
213	1.348963e+05	1.075960e-01,	1.016079e-04	
214	1.380384e+05	1.075960e-01,	1.039747e-04	
215	1.412538e+05	1.075960e-01,	1.063966e-04	
216	1.445440e+05	1.075960e-01,	1.088749e-04	
217	1.479108e+05	1.075960e-01,	1.114109e-04	
218	1.513561e+05	1.075960e-01,	1.140060e-04	
219	1.548817e+05	1.075960e-01,	1.166615e-04	
220	1.584893e+05	1.075960e-01,	1.193789e-04	
221	1.621810e+05	1.075960e-01,	1.221596e-04	
222	1.659587e+05	1.075960e-01,	1.250051e-04	
223	1.698244e+05	1.075960e-01,	1.279168e-04	
224	1.737801e+05	1.075960e-01,	1.308964e-04	
225	1.778279e+05	1.075960e-01,	1.339454e-04	
226	1.819701e+05	1.075960e-01,	1.370654e-04	
227	1.862087e+05	1.075960e-01,	1.402580e-04	
228	1.905461e+05	1.075960e-01,	1.435250e-04	

Index   frequency       vop                             
--------------------------------------------------------------------------------
229	1.949845e+05	1.075960e-01,	1.468682e-04	
230	1.995262e+05	1.075960e-01,	1.502892e-04	
231	2.041738e+05	1.075960e-01,	1.537899e-04	
232	2.089296e+05	1.075960e-01,	1.573721e-04	
233	2.137962e+05	1.075960e-01,	1.610377e-04	
234	2.187762e+05	1.075960e-01,	1.647888e-04	
235	2.238721e+05	1.075960e-01,	1.686272e-04	
236	2.290868e+05	1.075960e-01,	1.725551e-04	
237	2.344229e+05	1.075960e-01,	1.765744e-04	
238	2.398833e+05	1.075960e-01,	1.806873e-04	
239	2.454709e+05	1.075960e-01,	1.848961e-04	
240	2.511886e+05	1.075960e-01,	1.892029e-04	
241	2.570396e+05	1.075960e-01,	1.936100e-04	
242	2.630268e+05	1.075960e-01,	1.981197e-04	
243	2.691535e+05	1.075960e-01,	2.027345e-04	
244	2.754229e+05	1.075960e-01,	2.074568e-04	
245	2.818383e+05	1.075960e-01,	2.122891e-04	
246	2.884032e+05	1.075960e-01,	2.172340e-04	
247	2.951209e+05	1.075960e-01,	2.222940e-04	
248	3.019952e+05	1.075960e-01,	2.274719e-04	
249	3.090295e+05	1.075960e-01,	2.327704e-04	
250	3.162278e+05	1.075960e-01,	2.381923e-04	
251	3.235937e+05	1.075960e-01,	2.437405e-04	
252	3.311311e+05	1.075960e-01,	2.494180e-04	
253	3.388442e+05	1.075960e-01,	2.552277e-04	
254	3.467369e+05	1.075960e-01,	2.611727e-04	
255	3.548134e+05	1.075960e-01,	2.672562e-04	
256	3.630781e+05	1.075960e-01,	2.734814e-04	
257	3.715352e+05	1.075960e-01,	2.798516e-04	
258	3.801894e+05	1.075960e-01,	2.863701e-04	
259	3.890451e+05	1.075960e-01,	2.930406e-04	
260	3.981072e+05	1.075960e-01,	2.998664e-04	
261	4.073803e+05	1.075960e-01,	3.068511e-04	
262	4.168694e+05	1.075960e-01,	3.139986e-04	
263	4.265795e+05	1.075960e-01,	3.213126e-04	
264	4.365158e+05	1.075960e-01,	3.287969e-04	
265	4.466836e+05	1.075961e-01,	3.364556e-04	
266	4.570882e+05	1.075961e-01,	3.442927e-04	
267	4.677351e+05	1.075961e-01,	3.523123e-04	
268	4.786301e+05	1.075961e-01,	3.605187e-04	
269	4.897788e+05	1.075961e-01,	3.689163e-04	
270	5.011872e+05	1.075961e-01,	3.775094e-04	
271	5.128614e+05	1.075961e-01,	3.863027e-04	
272	5.248075e+05	1.075961e-01,	3.953009e-04	
273	5.370318e+05	1.075961e-01,	4.045086e-04	
274	5.495409e+05	1.075961e-01,	4.139309e-04	
275	5.623413e+05	1.075961e-01,	4.235726e-04	
276	5.754399e+05	1.075961e-01,	4.334388e-04	
277	5.888437e+05	1.075961e-01,	4.435349e-04	
278	6.025596e+05	1.075961e-01,	4.538662e-04	
279	6.165950e+05	1.075961e-01,	4.644381e-04	
280	6.309573e+05	1.075961e-01,	4.752563e-04	
281	6.456542e+05	1.075962e-01,	4.863264e-04	
282	6.606934e+05	1.075962e-01,	4.976544e-04	
283	6.760830e+05	1.075962e-01,	5.092463e-04	
284	6.918310e+05	1.075962e-01,	5.211082e-04	
285	7.079458e+05	1.075962e-01,	5.332464e-04	
286	7.244360e+05	1.075962e-01,	5.456673e-04	

Index   frequency       vop                             
--------------------------------------------------------------------------------
287	7.413102e+05	1.075962e-01,	5.583775e-04	
288	7.585776e+05	1.075962e-01,	5.713838e-04	
289	7.762471e+05	1.075962e-01,	5.846931e-04	
290	7.943282e+05	1.075962e-01,	5.983124e-04	
291	8.128305e+05	1.075963e-01,	6.122489e-04	
292	8.317638e+05	1.075963e-01,	6.265100e-04	
293	8.511380e+05	1.075963e-01,	6.411033e-04	
294	8.709636e+05	1.075963e-01,	6.560365e-04	
295	8.912509e+05	1.075963e-01,	6.713176e-04	
296	9.120108e+05	1.075963e-01,	6.869546e-04	
297	9.332543e+05	1.075964e-01,	7.029559e-04	
298	9.549926e+05	1.075964e-01,	7.193299e-04	
299	9.772372e+05	1.075964e-01,	7.360852e-04	
300	1.000000e+06	1.075964e-01,	7.532309e-04	
301	1.023293e+06	1.075964e-01,	7.707759e-04	
302	1.047129e+06	1.075965e-01,	7.887297e-04	
303	1.071519e+06	1.075965e-01,	8.071016e-04	
304	1.096478e+06	1.075965e-01,	8.259014e-04	
305	1.122018e+06	1.075965e-01,	8.451392e-04	
306	1.148154e+06	1.075966e-01,	8.648251e-04	
307	1.174898e+06	1.075966e-01,	8.849695e-04	
308	1.202264e+06	1.075966e-01,	9.055831e-04	
309	1.230269e+06	1.075966e-01,	9.266769e-04	
310	1.258925e+06	1.075967e-01,	9.482621e-04	
311	1.288250e+06	1.075967e-01,	9.703500e-04	
312	1.318257e+06	1.075967e-01,	9.929524e-04	
313	1.348963e+06	1.075968e-01,	1.016081e-03	
314	1.380384e+06	1.075968e-01,	1.039749e-03	
315	1.412538e+06	1.075969e-01,	1.063968e-03	
316	1.445440e+06	1.075969e-01,	1.088751e-03	
317	1.479108e+06	1.075970e-01,	1.114111e-03	
318	1.513561e+06	1.075970e-01,	1.140062e-03	
319	1.548817e+06	1.075970e-01,	1.166618e-03	
320	1.584893e+06	1.075971e-01,	1.193792e-03	
321	1.621810e+06	1.075972e-01,	1.221599e-03	
322	1.659587e+06	1.075972e-01,	1.250054e-03	
323	1.698244e+06	1.075973e-01,	1.279172e-03	
324	1.737801e+06	1.075973e-01,	1.308968e-03	
325	1.778279e+06	1.075974e-01,	1.339457e-03	
326	1.819701e+06	1.075975e-01,	1.370658e-03	
327	1.862087e+06	1.075975e-01,	1.402584e-03	
328	1.905461e+06	1.075976e-01,	1.435255e-03	
329	1.949845e+06	1.075977e-01,	1.468686e-03	
330	1.995262e+06	1.075978e-01,	1.502897e-03	
331	2.041738e+06	1.075979e-01,	1.537904e-03	
332	2.089296e+06	1.075979e-01,	1.573726e-03	
333	2.137962e+06	1.075980e-01,	1.610383e-03	
334	2.187762e+06	1.075981e-01,	1.647894e-03	
335	2.238721e+06	1.075982e-01,	1.686279e-03	
336	2.290868e+06	1.075983e-01,	1.725557e-03	
337	2.344229e+06	1.075985e-01,	1.765751e-03	
338	2.398833e+06	1.075986e-01,	1.806881e-03	
339	2.454709e+06	1.075987e-01,	1.848968e-03	
340	2.511886e+06	1.075988e-01,	1.892037e-03	
341	2.570396e+06	1.075990e-01,	1.936108e-03	
342	2.630268e+06	1.075991e-01,	1.981206e-03	
343	2.691535e+06	1.075992e-01,	2.027354e-03	
344	2.754229e+06	1.075994e-01,	2.074577e-03	

Index   frequency       vop                             
--------------------------------------------------------------------------------
345	2.818383e+06	1.075996e-01,	2.122900e-03	
346	2.884032e+06	1.075997e-01,	2.172349e-03	
347	2.951209e+06	1.075999e-01,	2.222950e-03	
348	3.019952e+06	1.076001e-01,	2.274729e-03	
349	3.090295e+06	1.076003e-01,	2.327714e-03	
350	3.162278e+06	1.076005e-01,	2.381933e-03	
351	3.235937e+06	1.076007e-01,	2.437415e-03	
352	3.311311e+06	1.076009e-01,	2.494189e-03	
353	3.388442e+06	1.076012e-01,	2.552286e-03	
354	3.467369e+06	1.076014e-01,	2.611736e-03	
355	3.548134e+06	1.076017e-01,	2.672570e-03	
356	3.630781e+06	1.076020e-01,	2.734821e-03	
357	3.715352e+06	1.076022e-01,	2.798522e-03	
358	3.801894e+06	1.076025e-01,	2.863707e-03	
359	3.890451e+06	1.076029e-01,	2.930410e-03	
360	3.981072e+06	1.076032e-01,	2.998667e-03	
361	4.073803e+06	1.076035e-01,	3.068513e-03	
362	4.168694e+06	1.076039e-01,	3.139985e-03	
363	4.265795e+06	1.076042e-01,	3.213123e-03	
364	4.365158e+06	1.076046e-01,	3.287963e-03	
365	4.466836e+06	1.076051e-01,	3.364547e-03	
366	4.570882e+06	1.076055e-01,	3.442914e-03	
367	4.677351e+06	1.076059e-01,	3.523106e-03	
368	4.786301e+06	1.076064e-01,	3.605166e-03	
369	4.897788e+06	1.076069e-01,	3.689137e-03	
370	5.011872e+06	1.076074e-01,	3.775063e-03	
371	5.128614e+06	1.076080e-01,	3.862991e-03	
372	5.248075e+06	1.076085e-01,	3.952966e-03	
373	5.370318e+06	1.076091e-01,	4.045036e-03	
374	5.495409e+06	1.076097e-01,	4.139251e-03	
375	5.623413e+06	1.076104e-01,	4.235659e-03	
376	5.754399e+06	1.076111e-01,	4.334313e-03	
377	5.888437e+06	1.076118e-01,	4.435265e-03	
378	6.025596e+06	1.076125e-01,	4.538567e-03	
379	6.165950e+06	1.076133e-01,	4.644275e-03	
380	6.309573e+06	1.076141e-01,	4.752444e-03	
381	6.456542e+06	1.076150e-01,	4.863133e-03	
382	6.606934e+06	1.076158e-01,	4.976400e-03	
383	6.760830e+06	1.076168e-01,	5.092304e-03	
384	6.918310e+06	1.076178e-01,	5.210908e-03	
385	7.079458e+06	1.076188e-01,	5.332274e-03	
386	7.244360e+06	1.076199e-01,	5.456466e-03	
387	7.413102e+06	1.076210e-01,	5.583551e-03	
388	7.585776e+06	1.076221e-01,	5.713595e-03	
389	7.762471e+06	1.076234e-01,	5.846668e-03	
390	7.943282e+06	1.076247e-01,	5.982840e-03	
391	8.128305e+06	1.076260e-01,	6.122183e-03	
392	8.317638e+06	1.076274e-01,	6.264771e-03	
393	8.511380e+06	1.076289e-01,	6.410680e-03	
394	8.709636e+06	1.076304e-01,	6.559988e-03	
395	8.912509e+06	1.076320e-01,	6.712772e-03	
396	9.120108e+06	1.076337e-01,	6.869115e-03	
397	9.332543e+06	1.076355e-01,	7.029098e-03	
398	9.549926e+06	1.076374e-01,	7.192807e-03	
399	9.772372e+06	1.076393e-01,	7.360329e-03	
400	1.000000e+07	1.076413e-01,	7.531752e-03	
401	1.023293e+07	1.076435e-01,	7.707167e-03	
402	1.047129e+07	1.076457e-01,	7.886667e-03	

Index   frequency       vop                             
--------------------------------------------------------------------------------
403	1.071519e+07	1.076480e-01,	8.070347e-03	
404	1.096478e+07	1.076505e-01,	8.258305e-03	
405	1.122018e+07	1.076530e-01,	8.450639e-03	
406	1.148154e+07	1.076557e-01,	8.647452e-03	
407	1.174898e+07	1.076585e-01,	8.848849e-03	
408	1.202264e+07	1.076614e-01,	9.054934e-03	
409	1.230269e+07	1.076645e-01,	9.265819e-03	
410	1.258925e+07	1.076677e-01,	9.481614e-03	
411	1.288250e+07	1.076711e-01,	9.702434e-03	
412	1.318257e+07	1.076746e-01,	9.928395e-03	
413	1.348963e+07	1.076783e-01,	1.015962e-02	
414	1.380384e+07	1.076822e-01,	1.039622e-02	
415	1.412538e+07	1.076862e-01,	1.063834e-02	
416	1.445440e+07	1.076905e-01,	1.088609e-02	
