  ** sch_path: /home/andylithia/openmpw/project-reisen-chip1/xschem/ctle_3.sch
  AC Analysis  Mon Oct 31 00:06:34  2022
--------------------------------------------------------------------------------
Index   frequency       vop                             
--------------------------------------------------------------------------------
0	1.000000e+03	9.094273e-01,	2.185512e-07	
1	1.023293e+03	9.094273e-01,	2.236419e-07	
2	1.047129e+03	9.094273e-01,	2.288512e-07	
3	1.071519e+03	9.094273e-01,	2.341819e-07	
4	1.096478e+03	9.094273e-01,	2.396366e-07	
5	1.122018e+03	9.094273e-01,	2.452185e-07	
6	1.148154e+03	9.094273e-01,	2.509304e-07	
7	1.174898e+03	9.094273e-01,	2.567753e-07	
8	1.202264e+03	9.094273e-01,	2.627564e-07	
9	1.230269e+03	9.094273e-01,	2.688767e-07	
10	1.258925e+03	9.094273e-01,	2.751397e-07	
11	1.288250e+03	9.094273e-01,	2.815485e-07	
12	1.318257e+03	9.094273e-01,	2.881066e-07	
13	1.348963e+03	9.094273e-01,	2.948175e-07	
14	1.380384e+03	9.094273e-01,	3.016847e-07	
15	1.412538e+03	9.094273e-01,	3.087118e-07	
16	1.445440e+03	9.094273e-01,	3.159026e-07	
17	1.479108e+03	9.094273e-01,	3.232609e-07	
18	1.513561e+03	9.094273e-01,	3.307907e-07	
19	1.548817e+03	9.094273e-01,	3.384958e-07	
20	1.584893e+03	9.094273e-01,	3.463803e-07	
21	1.621810e+03	9.094273e-01,	3.544486e-07	
22	1.659587e+03	9.094273e-01,	3.627047e-07	
23	1.698244e+03	9.094273e-01,	3.711532e-07	
24	1.737801e+03	9.094273e-01,	3.797985e-07	
25	1.778279e+03	9.094273e-01,	3.886451e-07	
26	1.819701e+03	9.094273e-01,	3.976978e-07	
27	1.862087e+03	9.094273e-01,	4.069614e-07	
28	1.905461e+03	9.094273e-01,	4.164408e-07	
29	1.949845e+03	9.094273e-01,	4.261409e-07	
30	1.995262e+03	9.094273e-01,	4.360670e-07	
31	2.041738e+03	9.094273e-01,	4.462243e-07	
32	2.089296e+03	9.094273e-01,	4.566182e-07	
33	2.137962e+03	9.094273e-01,	4.672542e-07	
34	2.187762e+03	9.094273e-01,	4.781380e-07	
35	2.238721e+03	9.094273e-01,	4.892752e-07	
36	2.290868e+03	9.094273e-01,	5.006719e-07	
37	2.344229e+03	9.094273e-01,	5.123341e-07	
38	2.398833e+03	9.094273e-01,	5.242679e-07	
39	2.454709e+03	9.094273e-01,	5.364796e-07	
40	2.511886e+03	9.094273e-01,	5.489758e-07	
41	2.570396e+03	9.094273e-01,	5.617631e-07	
42	2.630268e+03	9.094273e-01,	5.748483e-07	
43	2.691535e+03	9.094273e-01,	5.882382e-07	
44	2.754229e+03	9.094273e-01,	6.019400e-07	
45	2.818383e+03	9.094273e-01,	6.159610e-07	
46	2.884032e+03	9.094273e-01,	6.303086e-07	
47	2.951209e+03	9.094273e-01,	6.449904e-07	
48	3.019952e+03	9.094273e-01,	6.600141e-07	
49	3.090295e+03	9.094273e-01,	6.753878e-07	
50	3.162278e+03	9.094273e-01,	6.911196e-07	
51	3.235937e+03	9.094273e-01,	7.072179e-07	
52	3.311311e+03	9.094273e-01,	7.236911e-07	
53	3.388442e+03	9.094273e-01,	7.405480e-07	
54	3.467369e+03	9.094273e-01,	7.577976e-07	

Index   frequency       vop                             
--------------------------------------------------------------------------------
55	3.548134e+03	9.094273e-01,	7.754490e-07	
56	3.630781e+03	9.094273e-01,	7.935115e-07	
57	3.715352e+03	9.094273e-01,	8.119948e-07	
58	3.801894e+03	9.094273e-01,	8.309086e-07	
59	3.890451e+03	9.094273e-01,	8.502629e-07	
60	3.981072e+03	9.094273e-01,	8.700681e-07	
61	4.073803e+03	9.094273e-01,	8.903346e-07	
62	4.168694e+03	9.094273e-01,	9.110731e-07	
63	4.265795e+03	9.094273e-01,	9.322947e-07	
64	4.365158e+03	9.094273e-01,	9.540107e-07	
65	4.466836e+03	9.094273e-01,	9.762324e-07	
66	4.570882e+03	9.094273e-01,	9.989718e-07	
67	4.677351e+03	9.094273e-01,	1.022241e-06	
68	4.786301e+03	9.094273e-01,	1.046052e-06	
69	4.897788e+03	9.094273e-01,	1.070418e-06	
70	5.011872e+03	9.094273e-01,	1.095351e-06	
71	5.128614e+03	9.094273e-01,	1.120865e-06	
72	5.248075e+03	9.094273e-01,	1.146973e-06	
73	5.370318e+03	9.094273e-01,	1.173690e-06	
74	5.495409e+03	9.094273e-01,	1.201028e-06	
75	5.623413e+03	9.094273e-01,	1.229004e-06	
76	5.754399e+03	9.094273e-01,	1.257631e-06	
77	5.888437e+03	9.094273e-01,	1.286925e-06	
78	6.025596e+03	9.094273e-01,	1.316901e-06	
79	6.165950e+03	9.094273e-01,	1.347576e-06	
80	6.309573e+03	9.094273e-01,	1.378965e-06	
81	6.456542e+03	9.094273e-01,	1.411085e-06	
82	6.606934e+03	9.094273e-01,	1.443954e-06	
83	6.760830e+03	9.094273e-01,	1.477588e-06	
84	6.918310e+03	9.094273e-01,	1.512005e-06	
85	7.079458e+03	9.094273e-01,	1.547224e-06	
86	7.244360e+03	9.094273e-01,	1.583264e-06	
87	7.413102e+03	9.094273e-01,	1.620143e-06	
88	7.585776e+03	9.094273e-01,	1.657881e-06	
89	7.762471e+03	9.094273e-01,	1.696498e-06	
90	7.943282e+03	9.094273e-01,	1.736014e-06	
91	8.128305e+03	9.094273e-01,	1.776451e-06	
92	8.317638e+03	9.094273e-01,	1.817830e-06	
93	8.511380e+03	9.094273e-01,	1.860173e-06	
94	8.709636e+03	9.094273e-01,	1.903502e-06	
95	8.912509e+03	9.094273e-01,	1.947840e-06	
96	9.120108e+03	9.094273e-01,	1.993211e-06	
97	9.332543e+03	9.094273e-01,	2.039639e-06	
98	9.549926e+03	9.094273e-01,	2.087148e-06	
99	9.772372e+03	9.094273e-01,	2.135764e-06	
100	1.000000e+04	9.094273e-01,	2.185512e-06	
101	1.023293e+04	9.094273e-01,	2.236419e-06	
102	1.047129e+04	9.094273e-01,	2.288512e-06	
103	1.071519e+04	9.094273e-01,	2.341819e-06	
104	1.096478e+04	9.094273e-01,	2.396366e-06	
105	1.122018e+04	9.094273e-01,	2.452185e-06	
106	1.148154e+04	9.094273e-01,	2.509304e-06	
107	1.174898e+04	9.094273e-01,	2.567753e-06	
108	1.202264e+04	9.094273e-01,	2.627564e-06	
109	1.230269e+04	9.094273e-01,	2.688767e-06	
110	1.258925e+04	9.094273e-01,	2.751397e-06	
111	1.288250e+04	9.094273e-01,	2.815485e-06	
112	1.318257e+04	9.094273e-01,	2.881066e-06	

Index   frequency       vop                             
--------------------------------------------------------------------------------
113	1.348963e+04	9.094273e-01,	2.948175e-06	
114	1.380384e+04	9.094273e-01,	3.016847e-06	
115	1.412538e+04	9.094273e-01,	3.087118e-06	
116	1.445440e+04	9.094273e-01,	3.159026e-06	
117	1.479108e+04	9.094273e-01,	3.232609e-06	
118	1.513561e+04	9.094273e-01,	3.307907e-06	
119	1.548817e+04	9.094273e-01,	3.384958e-06	
120	1.584893e+04	9.094273e-01,	3.463803e-06	
121	1.621810e+04	9.094273e-01,	3.544486e-06	
122	1.659587e+04	9.094273e-01,	3.627047e-06	
123	1.698244e+04	9.094273e-01,	3.711532e-06	
124	1.737801e+04	9.094273e-01,	3.797985e-06	
125	1.778279e+04	9.094273e-01,	3.886451e-06	
126	1.819701e+04	9.094273e-01,	3.976978e-06	
127	1.862087e+04	9.094273e-01,	4.069614e-06	
128	1.905461e+04	9.094273e-01,	4.164408e-06	
129	1.949845e+04	9.094273e-01,	4.261409e-06	
130	1.995262e+04	9.094273e-01,	4.360670e-06	
131	2.041738e+04	9.094273e-01,	4.462243e-06	
132	2.089296e+04	9.094273e-01,	4.566182e-06	
133	2.137962e+04	9.094273e-01,	4.672542e-06	
134	2.187762e+04	9.094273e-01,	4.781380e-06	
135	2.238721e+04	9.094273e-01,	4.892752e-06	
136	2.290868e+04	9.094273e-01,	5.006719e-06	
137	2.344229e+04	9.094273e-01,	5.123341e-06	
138	2.398833e+04	9.094273e-01,	5.242679e-06	
139	2.454709e+04	9.094273e-01,	5.364796e-06	
140	2.511886e+04	9.094273e-01,	5.489758e-06	
141	2.570396e+04	9.094273e-01,	5.617631e-06	
142	2.630268e+04	9.094273e-01,	5.748483e-06	
143	2.691535e+04	9.094273e-01,	5.882382e-06	
144	2.754229e+04	9.094273e-01,	6.019400e-06	
145	2.818383e+04	9.094273e-01,	6.159610e-06	
146	2.884032e+04	9.094273e-01,	6.303086e-06	
147	2.951209e+04	9.094273e-01,	6.449904e-06	
148	3.019952e+04	9.094273e-01,	6.600141e-06	
149	3.090295e+04	9.094273e-01,	6.753878e-06	
150	3.162278e+04	9.094273e-01,	6.911196e-06	
151	3.235937e+04	9.094273e-01,	7.072179e-06	
152	3.311311e+04	9.094273e-01,	7.236911e-06	
153	3.388442e+04	9.094273e-01,	7.405480e-06	
154	3.467369e+04	9.094273e-01,	7.577976e-06	
155	3.548134e+04	9.094273e-01,	7.754490e-06	
156	3.630781e+04	9.094273e-01,	7.935115e-06	
157	3.715352e+04	9.094273e-01,	8.119948e-06	
158	3.801894e+04	9.094273e-01,	8.309086e-06	
159	3.890451e+04	9.094273e-01,	8.502629e-06	
160	3.981072e+04	9.094273e-01,	8.700681e-06	
161	4.073803e+04	9.094273e-01,	8.903346e-06	
162	4.168694e+04	9.094273e-01,	9.110731e-06	
163	4.265795e+04	9.094273e-01,	9.322948e-06	
164	4.365158e+04	9.094273e-01,	9.540107e-06	
165	4.466836e+04	9.094273e-01,	9.762324e-06	
166	4.570882e+04	9.094273e-01,	9.989718e-06	
167	4.677351e+04	9.094273e-01,	1.022241e-05	
168	4.786301e+04	9.094273e-01,	1.046052e-05	
169	4.897788e+04	9.094273e-01,	1.070418e-05	
170	5.011872e+04	9.094273e-01,	1.095351e-05	

Index   frequency       vop                             
--------------------------------------------------------------------------------
171	5.128614e+04	9.094273e-01,	1.120865e-05	
172	5.248075e+04	9.094273e-01,	1.146973e-05	
173	5.370318e+04	9.094273e-01,	1.173690e-05	
174	5.495409e+04	9.094273e-01,	1.201028e-05	
175	5.623413e+04	9.094273e-01,	1.229004e-05	
176	5.754399e+04	9.094273e-01,	1.257631e-05	
177	5.888437e+04	9.094273e-01,	1.286925e-05	
178	6.025596e+04	9.094273e-01,	1.316901e-05	
179	6.165950e+04	9.094273e-01,	1.347576e-05	
180	6.309573e+04	9.094273e-01,	1.378965e-05	
181	6.456542e+04	9.094273e-01,	1.411085e-05	
182	6.606934e+04	9.094273e-01,	1.443954e-05	
183	6.760830e+04	9.094273e-01,	1.477588e-05	
184	6.918310e+04	9.094273e-01,	1.512005e-05	
185	7.079458e+04	9.094273e-01,	1.547224e-05	
186	7.244360e+04	9.094273e-01,	1.583264e-05	
187	7.413102e+04	9.094273e-01,	1.620143e-05	
188	7.585776e+04	9.094273e-01,	1.657881e-05	
189	7.762471e+04	9.094273e-01,	1.696498e-05	
190	7.943282e+04	9.094273e-01,	1.736014e-05	
191	8.128305e+04	9.094273e-01,	1.776451e-05	
192	8.317638e+04	9.094273e-01,	1.817830e-05	
193	8.511380e+04	9.094273e-01,	1.860173e-05	
194	8.709636e+04	9.094273e-01,	1.903502e-05	
195	8.912509e+04	9.094273e-01,	1.947840e-05	
196	9.120108e+04	9.094273e-01,	1.993211e-05	
197	9.332543e+04	9.094273e-01,	2.039639e-05	
198	9.549926e+04	9.094273e-01,	2.087148e-05	
199	9.772372e+04	9.094273e-01,	2.135764e-05	
200	1.000000e+05	9.094273e-01,	2.185512e-05	
201	1.023293e+05	9.094273e-01,	2.236419e-05	
202	1.047129e+05	9.094273e-01,	2.288512e-05	
203	1.071519e+05	9.094273e-01,	2.341819e-05	
204	1.096478e+05	9.094273e-01,	2.396367e-05	
205	1.122018e+05	9.094273e-01,	2.452185e-05	
206	1.148154e+05	9.094273e-01,	2.509304e-05	
207	1.174898e+05	9.094273e-01,	2.567753e-05	
208	1.202264e+05	9.094273e-01,	2.627564e-05	
209	1.230269e+05	9.094273e-01,	2.688768e-05	
210	1.258925e+05	9.094273e-01,	2.751397e-05	
211	1.288250e+05	9.094273e-01,	2.815485e-05	
212	1.318257e+05	9.094273e-01,	2.881066e-05	
213	1.348963e+05	9.094273e-01,	2.948175e-05	
214	1.380384e+05	9.094273e-01,	3.016847e-05	
215	1.412538e+05	9.094273e-01,	3.087118e-05	
216	1.445440e+05	9.094273e-01,	3.159027e-05	
217	1.479108e+05	9.094273e-01,	3.232610e-05	
218	1.513561e+05	9.094273e-01,	3.307907e-05	
219	1.548817e+05	9.094273e-01,	3.384958e-05	
220	1.584893e+05	9.094273e-01,	3.463804e-05	
221	1.621810e+05	9.094273e-01,	3.544486e-05	
222	1.659587e+05	9.094273e-01,	3.627048e-05	
223	1.698244e+05	9.094273e-01,	3.711533e-05	
224	1.737801e+05	9.094273e-01,	3.797985e-05	
225	1.778279e+05	9.094273e-01,	3.886452e-05	
226	1.819701e+05	9.094273e-01,	3.976979e-05	
227	1.862087e+05	9.094273e-01,	4.069615e-05	
228	1.905461e+05	9.094273e-01,	4.164408e-05	

Index   frequency       vop                             
--------------------------------------------------------------------------------
229	1.949845e+05	9.094273e-01,	4.261410e-05	
230	1.995262e+05	9.094273e-01,	4.360671e-05	
231	2.041738e+05	9.094273e-01,	4.462244e-05	
232	2.089296e+05	9.094273e-01,	4.566183e-05	
233	2.137962e+05	9.094273e-01,	4.672543e-05	
234	2.187762e+05	9.094273e-01,	4.781381e-05	
235	2.238721e+05	9.094273e-01,	4.892753e-05	
236	2.290868e+05	9.094273e-01,	5.006720e-05	
237	2.344229e+05	9.094273e-01,	5.123342e-05	
238	2.398833e+05	9.094273e-01,	5.242680e-05	
239	2.454709e+05	9.094273e-01,	5.364798e-05	
240	2.511886e+05	9.094273e-01,	5.489760e-05	
241	2.570396e+05	9.094273e-01,	5.617633e-05	
242	2.630268e+05	9.094273e-01,	5.748484e-05	
243	2.691535e+05	9.094273e-01,	5.882384e-05	
244	2.754229e+05	9.094273e-01,	6.019402e-05	
245	2.818383e+05	9.094273e-01,	6.159612e-05	
246	2.884032e+05	9.094273e-01,	6.303088e-05	
247	2.951209e+05	9.094273e-01,	6.449906e-05	
248	3.019952e+05	9.094273e-01,	6.600144e-05	
249	3.090295e+05	9.094273e-01,	6.753881e-05	
250	3.162278e+05	9.094273e-01,	6.911199e-05	
251	3.235937e+05	9.094273e-01,	7.072182e-05	
252	3.311311e+05	9.094273e-01,	7.236914e-05	
253	3.388442e+05	9.094273e-01,	7.405484e-05	
254	3.467369e+05	9.094273e-01,	7.577980e-05	
255	3.548134e+05	9.094273e-01,	7.754494e-05	
256	3.630781e+05	9.094273e-01,	7.935120e-05	
257	3.715352e+05	9.094273e-01,	8.119953e-05	
258	3.801894e+05	9.094273e-01,	8.309091e-05	
259	3.890451e+05	9.094273e-01,	8.502635e-05	
260	3.981072e+05	9.094274e-01,	8.700687e-05	
261	4.073803e+05	9.094274e-01,	8.903352e-05	
262	4.168694e+05	9.094274e-01,	9.110738e-05	
263	4.265795e+05	9.094274e-01,	9.322955e-05	
264	4.365158e+05	9.094274e-01,	9.540115e-05	
265	4.466836e+05	9.094274e-01,	9.762333e-05	
266	4.570882e+05	9.094274e-01,	9.989727e-05	
267	4.677351e+05	9.094274e-01,	1.022242e-04	
268	4.786301e+05	9.094274e-01,	1.046053e-04	
269	4.897788e+05	9.094274e-01,	1.070419e-04	
270	5.011872e+05	9.094274e-01,	1.095352e-04	
271	5.128614e+05	9.094274e-01,	1.120866e-04	
272	5.248075e+05	9.094274e-01,	1.146974e-04	
273	5.370318e+05	9.094274e-01,	1.173691e-04	
274	5.495409e+05	9.094274e-01,	1.201030e-04	
275	5.623413e+05	9.094274e-01,	1.229005e-04	
276	5.754399e+05	9.094274e-01,	1.257633e-04	
277	5.888437e+05	9.094274e-01,	1.286927e-04	
278	6.025596e+05	9.094274e-01,	1.316903e-04	
279	6.165950e+05	9.094274e-01,	1.347578e-04	
280	6.309573e+05	9.094274e-01,	1.378967e-04	
281	6.456542e+05	9.094274e-01,	1.411088e-04	
282	6.606934e+05	9.094274e-01,	1.443956e-04	
283	6.760830e+05	9.094274e-01,	1.477590e-04	
284	6.918310e+05	9.094274e-01,	1.512008e-04	
285	7.079458e+05	9.094274e-01,	1.547227e-04	
286	7.244360e+05	9.094274e-01,	1.583267e-04	

Index   frequency       vop                             
--------------------------------------------------------------------------------
287	7.413102e+05	9.094274e-01,	1.620146e-04	
288	7.585776e+05	9.094274e-01,	1.657885e-04	
289	7.762471e+05	9.094274e-01,	1.696502e-04	
290	7.943282e+05	9.094274e-01,	1.736019e-04	
291	8.128305e+05	9.094274e-01,	1.776456e-04	
292	8.317638e+05	9.094274e-01,	1.817835e-04	
293	8.511380e+05	9.094274e-01,	1.860178e-04	
294	8.709636e+05	9.094274e-01,	1.903508e-04	
295	8.912509e+05	9.094274e-01,	1.947846e-04	
296	9.120108e+05	9.094274e-01,	1.993218e-04	
297	9.332543e+05	9.094274e-01,	2.039646e-04	
298	9.549926e+05	9.094275e-01,	2.087156e-04	
299	9.772372e+05	9.094275e-01,	2.135772e-04	
300	1.000000e+06	9.094275e-01,	2.185521e-04	
301	1.023293e+06	9.094275e-01,	2.236429e-04	
302	1.047129e+06	9.094275e-01,	2.288522e-04	
303	1.071519e+06	9.094275e-01,	2.341829e-04	
304	1.096478e+06	9.094275e-01,	2.396378e-04	
305	1.122018e+06	9.094275e-01,	2.452197e-04	
306	1.148154e+06	9.094275e-01,	2.509317e-04	
307	1.174898e+06	9.094275e-01,	2.567767e-04	
308	1.202264e+06	9.094275e-01,	2.627579e-04	
309	1.230269e+06	9.094275e-01,	2.688784e-04	
310	1.258925e+06	9.094275e-01,	2.751414e-04	
311	1.288250e+06	9.094276e-01,	2.815504e-04	
312	1.318257e+06	9.094276e-01,	2.881086e-04	
313	1.348963e+06	9.094276e-01,	2.948196e-04	
314	1.380384e+06	9.094276e-01,	3.016869e-04	
315	1.412538e+06	9.094276e-01,	3.087142e-04	
316	1.445440e+06	9.094276e-01,	3.159052e-04	
317	1.479108e+06	9.094276e-01,	3.232636e-04	
318	1.513561e+06	9.094276e-01,	3.307935e-04	
319	1.548817e+06	9.094277e-01,	3.384988e-04	
320	1.584893e+06	9.094277e-01,	3.463836e-04	
321	1.621810e+06	9.094277e-01,	3.544520e-04	
322	1.659587e+06	9.094277e-01,	3.627084e-04	
323	1.698244e+06	9.094277e-01,	3.711571e-04	
324	1.737801e+06	9.094277e-01,	3.798027e-04	
325	1.778279e+06	9.094278e-01,	3.886496e-04	
326	1.819701e+06	9.094278e-01,	3.977025e-04	
327	1.862087e+06	9.094278e-01,	4.069664e-04	
328	1.905461e+06	9.094278e-01,	4.164460e-04	
329	1.949845e+06	9.094279e-01,	4.261465e-04	
330	1.995262e+06	9.094279e-01,	4.360729e-04	
331	2.041738e+06	9.094279e-01,	4.462306e-04	
332	2.089296e+06	9.094279e-01,	4.566249e-04	
333	2.137962e+06	9.094280e-01,	4.672612e-04	
334	2.187762e+06	9.094280e-01,	4.781454e-04	
335	2.238721e+06	9.094280e-01,	4.892831e-04	
336	2.290868e+06	9.094281e-01,	5.006802e-04	
337	2.344229e+06	9.094281e-01,	5.123427e-04	
338	2.398833e+06	9.094281e-01,	5.242770e-04	
339	2.454709e+06	9.094282e-01,	5.364892e-04	
340	2.511886e+06	9.094282e-01,	5.489859e-04	
341	2.570396e+06	9.094283e-01,	5.617737e-04	
342	2.630268e+06	9.094283e-01,	5.748593e-04	
343	2.691535e+06	9.094283e-01,	5.882497e-04	
344	2.754229e+06	9.094284e-01,	6.019520e-04	

Index   frequency       vop                             
--------------------------------------------------------------------------------
345	2.818383e+06	9.094284e-01,	6.159735e-04	
346	2.884032e+06	9.094285e-01,	6.303215e-04	
347	2.951209e+06	9.094286e-01,	6.450038e-04	
348	3.019952e+06	9.094286e-01,	6.600280e-04	
349	3.090295e+06	9.094287e-01,	6.754021e-04	
350	3.162278e+06	9.094287e-01,	6.911343e-04	
351	3.235937e+06	9.094288e-01,	7.072329e-04	
352	3.311311e+06	9.094289e-01,	7.237064e-04	
353	3.388442e+06	9.094290e-01,	7.405635e-04	
354	3.467369e+06	9.094290e-01,	7.578133e-04	
355	3.548134e+06	9.094291e-01,	7.754648e-04	
356	3.630781e+06	9.094292e-01,	7.935273e-04	
357	3.715352e+06	9.094293e-01,	8.120104e-04	
358	3.801894e+06	9.094294e-01,	8.309240e-04	
359	3.890451e+06	9.094295e-01,	8.502779e-04	
360	3.981072e+06	9.094296e-01,	8.700825e-04	
361	4.073803e+06	9.094297e-01,	8.903483e-04	
362	4.168694e+06	9.094298e-01,	9.110860e-04	
363	4.265795e+06	9.094299e-01,	9.323065e-04	
364	4.365158e+06	9.094300e-01,	9.540210e-04	
365	4.466836e+06	9.094302e-01,	9.762412e-04	
366	4.570882e+06	9.094303e-01,	9.989787e-04	
367	4.677351e+06	9.094304e-01,	1.022246e-03	
368	4.786301e+06	9.094306e-01,	1.046054e-03	
369	4.897788e+06	9.094307e-01,	1.070417e-03	
370	5.011872e+06	9.094309e-01,	1.095347e-03	
371	5.128614e+06	9.094311e-01,	1.120857e-03	
372	5.248075e+06	9.094313e-01,	1.146962e-03	
373	5.370318e+06	9.094314e-01,	1.173674e-03	
374	5.495409e+06	9.094316e-01,	1.201008e-03	
375	5.623413e+06	9.094318e-01,	1.228978e-03	
376	5.754399e+06	9.094320e-01,	1.257600e-03	
377	5.888437e+06	9.094323e-01,	1.286888e-03	
378	6.025596e+06	9.094325e-01,	1.316858e-03	
379	6.165950e+06	9.094327e-01,	1.347525e-03	
380	6.309573e+06	9.094330e-01,	1.378907e-03	
381	6.456542e+06	9.094333e-01,	1.411019e-03	
382	6.606934e+06	9.094335e-01,	1.443879e-03	
383	6.760830e+06	9.094338e-01,	1.477504e-03	
384	6.918310e+06	9.094341e-01,	1.511912e-03	
385	7.079458e+06	9.094345e-01,	1.547122e-03	
386	7.244360e+06	9.094348e-01,	1.583151e-03	
387	7.413102e+06	9.094351e-01,	1.620019e-03	
388	7.585776e+06	9.094355e-01,	1.657746e-03	
389	7.762471e+06	9.094359e-01,	1.696351e-03	
390	7.943282e+06	9.094363e-01,	1.735856e-03	
391	8.128305e+06	9.094367e-01,	1.776280e-03	
392	8.317638e+06	9.094371e-01,	1.817646e-03	
393	8.511380e+06	9.094376e-01,	1.859975e-03	
394	8.709636e+06	9.094381e-01,	1.903289e-03	
395	8.912509e+06	9.094385e-01,	1.947613e-03	
396	9.120108e+06	9.094391e-01,	1.992969e-03	
397	9.332543e+06	9.094396e-01,	2.039381e-03	
398	9.549926e+06	9.094402e-01,	2.086874e-03	
399	9.772372e+06	9.094408e-01,	2.135473e-03	
400	1.000000e+07	9.094414e-01,	2.185204e-03	
401	1.023293e+07	9.094421e-01,	2.236093e-03	
402	1.047129e+07	9.094427e-01,	2.288167e-03	

Index   frequency       vop                             
--------------------------------------------------------------------------------
403	1.071519e+07	9.094435e-01,	2.341454e-03	
404	1.096478e+07	9.094442e-01,	2.395982e-03	
405	1.122018e+07	9.094450e-01,	2.451780e-03	
406	1.148154e+07	9.094458e-01,	2.508877e-03	
407	1.174898e+07	9.094467e-01,	2.567303e-03	
408	1.202264e+07	9.094476e-01,	2.627091e-03	
409	1.230269e+07	9.094485e-01,	2.688270e-03	
410	1.258925e+07	9.094495e-01,	2.750874e-03	
411	1.288250e+07	9.094506e-01,	2.814936e-03	
412	1.318257e+07	9.094516e-01,	2.880490e-03	
413	1.348963e+07	9.094528e-01,	2.947570e-03	
414	1.380384e+07	9.094540e-01,	3.016211e-03	
415	1.412538e+07	9.094552e-01,	3.086451e-03	
416	1.445440e+07	9.094565e-01,	3.158327e-03	
