  ** sch_path: /home/andylithia/openmpw/project-reisen-chip1/xschem/ctle_3.sch
  AC Analysis  Mon Oct 31 00:06:34  2022
--------------------------------------------------------------------------------
Index   frequency       vop                             
--------------------------------------------------------------------------------
0	1.000000e+03	1.153128e+00,	9.400081e-08	
1	1.023293e+03	1.153128e+00,	9.619037e-08	
2	1.047129e+03	1.153128e+00,	9.843093e-08	
3	1.071519e+03	1.153128e+00,	1.007237e-07	
4	1.096478e+03	1.153128e+00,	1.030698e-07	
5	1.122018e+03	1.153128e+00,	1.054706e-07	
6	1.148154e+03	1.153128e+00,	1.079274e-07	
7	1.174898e+03	1.153128e+00,	1.104413e-07	
8	1.202264e+03	1.153128e+00,	1.130138e-07	
9	1.230269e+03	1.153128e+00,	1.156463e-07	
10	1.258925e+03	1.153128e+00,	1.183400e-07	
11	1.288250e+03	1.153128e+00,	1.210965e-07	
12	1.318257e+03	1.153128e+00,	1.239172e-07	
13	1.348963e+03	1.153128e+00,	1.268036e-07	
14	1.380384e+03	1.153128e+00,	1.297572e-07	
15	1.412538e+03	1.153128e+00,	1.327797e-07	
16	1.445440e+03	1.153128e+00,	1.358725e-07	
17	1.479108e+03	1.153128e+00,	1.390374e-07	
18	1.513561e+03	1.153128e+00,	1.422760e-07	
19	1.548817e+03	1.153128e+00,	1.455900e-07	
20	1.584893e+03	1.153128e+00,	1.489812e-07	
21	1.621810e+03	1.153128e+00,	1.524515e-07	
22	1.659587e+03	1.153128e+00,	1.560025e-07	
23	1.698244e+03	1.153128e+00,	1.596363e-07	
24	1.737801e+03	1.153128e+00,	1.633547e-07	
25	1.778279e+03	1.153128e+00,	1.671597e-07	
26	1.819701e+03	1.153128e+00,	1.710533e-07	
27	1.862087e+03	1.153128e+00,	1.750377e-07	
28	1.905461e+03	1.153128e+00,	1.791148e-07	
29	1.949845e+03	1.153128e+00,	1.832870e-07	
30	1.995262e+03	1.153128e+00,	1.875563e-07	
31	2.041738e+03	1.153128e+00,	1.919250e-07	
32	2.089296e+03	1.153128e+00,	1.963955e-07	
33	2.137962e+03	1.153128e+00,	2.009702e-07	
34	2.187762e+03	1.153128e+00,	2.056514e-07	
35	2.238721e+03	1.153128e+00,	2.104416e-07	
36	2.290868e+03	1.153128e+00,	2.153434e-07	
37	2.344229e+03	1.153128e+00,	2.203594e-07	
38	2.398833e+03	1.153128e+00,	2.254922e-07	
39	2.454709e+03	1.153128e+00,	2.307446e-07	
40	2.511886e+03	1.153128e+00,	2.361194e-07	
41	2.570396e+03	1.153128e+00,	2.416193e-07	
42	2.630268e+03	1.153128e+00,	2.472473e-07	
43	2.691535e+03	1.153128e+00,	2.530064e-07	
44	2.754229e+03	1.153128e+00,	2.588997e-07	
45	2.818383e+03	1.153128e+00,	2.649303e-07	
46	2.884032e+03	1.153128e+00,	2.711013e-07	
47	2.951209e+03	1.153128e+00,	2.774160e-07	
48	3.019952e+03	1.153128e+00,	2.838779e-07	
49	3.090295e+03	1.153128e+00,	2.904903e-07	
50	3.162278e+03	1.153128e+00,	2.972567e-07	
51	3.235937e+03	1.153128e+00,	3.041806e-07	
52	3.311311e+03	1.153128e+00,	3.112659e-07	
53	3.388442e+03	1.153128e+00,	3.185162e-07	
54	3.467369e+03	1.153128e+00,	3.259354e-07	

Index   frequency       vop                             
--------------------------------------------------------------------------------
55	3.548134e+03	1.153128e+00,	3.335275e-07	
56	3.630781e+03	1.153128e+00,	3.412963e-07	
57	3.715352e+03	1.153128e+00,	3.492461e-07	
58	3.801894e+03	1.153128e+00,	3.573811e-07	
59	3.890451e+03	1.153128e+00,	3.657056e-07	
60	3.981072e+03	1.153128e+00,	3.742240e-07	
61	4.073803e+03	1.153128e+00,	3.829407e-07	
62	4.168694e+03	1.153128e+00,	3.918606e-07	
63	4.265795e+03	1.153128e+00,	4.009882e-07	
64	4.365158e+03	1.153128e+00,	4.103284e-07	
65	4.466836e+03	1.153128e+00,	4.198862e-07	
66	4.570882e+03	1.153128e+00,	4.296666e-07	
67	4.677351e+03	1.153128e+00,	4.396748e-07	
68	4.786301e+03	1.153128e+00,	4.499162e-07	
69	4.897788e+03	1.153128e+00,	4.603960e-07	
70	5.011872e+03	1.153128e+00,	4.711200e-07	
71	5.128614e+03	1.153128e+00,	4.820938e-07	
72	5.248075e+03	1.153128e+00,	4.933232e-07	
73	5.370318e+03	1.153128e+00,	5.048142e-07	
74	5.495409e+03	1.153128e+00,	5.165729e-07	
75	5.623413e+03	1.153128e+00,	5.286054e-07	
76	5.754399e+03	1.153128e+00,	5.409182e-07	
77	5.888437e+03	1.153128e+00,	5.535178e-07	
78	6.025596e+03	1.153128e+00,	5.664109e-07	
79	6.165950e+03	1.153128e+00,	5.796043e-07	
80	6.309573e+03	1.153128e+00,	5.931050e-07	
81	6.456542e+03	1.153128e+00,	6.069202e-07	
82	6.606934e+03	1.153128e+00,	6.210572e-07	
83	6.760830e+03	1.153128e+00,	6.355235e-07	
84	6.918310e+03	1.153128e+00,	6.503267e-07	
85	7.079458e+03	1.153128e+00,	6.654748e-07	
86	7.244360e+03	1.153128e+00,	6.809757e-07	
87	7.413102e+03	1.153128e+00,	6.968376e-07	
88	7.585776e+03	1.153128e+00,	7.130690e-07	
89	7.762471e+03	1.153128e+00,	7.296786e-07	
90	7.943282e+03	1.153128e+00,	7.466750e-07	
91	8.128305e+03	1.153128e+00,	7.640672e-07	
92	8.317638e+03	1.153128e+00,	7.818647e-07	
93	8.511380e+03	1.153128e+00,	8.000766e-07	
94	8.709636e+03	1.153128e+00,	8.187128e-07	
95	8.912509e+03	1.153128e+00,	8.377831e-07	
96	9.120108e+03	1.153128e+00,	8.572976e-07	
97	9.332543e+03	1.153128e+00,	8.772666e-07	
98	9.549926e+03	1.153128e+00,	8.977007e-07	
99	9.772372e+03	1.153128e+00,	9.186109e-07	
100	1.000000e+04	1.153128e+00,	9.400081e-07	
101	1.023293e+04	1.153128e+00,	9.619037e-07	
102	1.047129e+04	1.153128e+00,	9.843093e-07	
103	1.071519e+04	1.153128e+00,	1.007237e-06	
104	1.096478e+04	1.153128e+00,	1.030698e-06	
105	1.122018e+04	1.153128e+00,	1.054706e-06	
106	1.148154e+04	1.153128e+00,	1.079274e-06	
107	1.174898e+04	1.153128e+00,	1.104413e-06	
108	1.202264e+04	1.153128e+00,	1.130138e-06	
109	1.230269e+04	1.153128e+00,	1.156463e-06	
110	1.258925e+04	1.153128e+00,	1.183400e-06	
111	1.288250e+04	1.153128e+00,	1.210965e-06	
112	1.318257e+04	1.153128e+00,	1.239172e-06	

Index   frequency       vop                             
--------------------------------------------------------------------------------
113	1.348963e+04	1.153128e+00,	1.268036e-06	
114	1.380384e+04	1.153128e+00,	1.297572e-06	
115	1.412538e+04	1.153128e+00,	1.327797e-06	
116	1.445440e+04	1.153128e+00,	1.358725e-06	
117	1.479108e+04	1.153128e+00,	1.390374e-06	
118	1.513561e+04	1.153128e+00,	1.422760e-06	
119	1.548817e+04	1.153128e+00,	1.455900e-06	
120	1.584893e+04	1.153128e+00,	1.489812e-06	
121	1.621810e+04	1.153128e+00,	1.524515e-06	
122	1.659587e+04	1.153128e+00,	1.560025e-06	
123	1.698244e+04	1.153128e+00,	1.596363e-06	
124	1.737801e+04	1.153128e+00,	1.633547e-06	
125	1.778279e+04	1.153128e+00,	1.671597e-06	
126	1.819701e+04	1.153128e+00,	1.710533e-06	
127	1.862087e+04	1.153128e+00,	1.750377e-06	
128	1.905461e+04	1.153128e+00,	1.791148e-06	
129	1.949845e+04	1.153128e+00,	1.832870e-06	
130	1.995262e+04	1.153128e+00,	1.875563e-06	
131	2.041738e+04	1.153128e+00,	1.919250e-06	
132	2.089296e+04	1.153128e+00,	1.963955e-06	
133	2.137962e+04	1.153128e+00,	2.009702e-06	
134	2.187762e+04	1.153128e+00,	2.056514e-06	
135	2.238721e+04	1.153128e+00,	2.104416e-06	
136	2.290868e+04	1.153128e+00,	2.153434e-06	
137	2.344229e+04	1.153128e+00,	2.203594e-06	
138	2.398833e+04	1.153128e+00,	2.254922e-06	
139	2.454709e+04	1.153128e+00,	2.307446e-06	
140	2.511886e+04	1.153128e+00,	2.361194e-06	
141	2.570396e+04	1.153128e+00,	2.416193e-06	
142	2.630268e+04	1.153128e+00,	2.472473e-06	
143	2.691535e+04	1.153128e+00,	2.530064e-06	
144	2.754229e+04	1.153128e+00,	2.588997e-06	
145	2.818383e+04	1.153128e+00,	2.649303e-06	
146	2.884032e+04	1.153128e+00,	2.711013e-06	
147	2.951209e+04	1.153128e+00,	2.774160e-06	
148	3.019952e+04	1.153128e+00,	2.838779e-06	
149	3.090295e+04	1.153128e+00,	2.904903e-06	
150	3.162278e+04	1.153128e+00,	2.972567e-06	
151	3.235937e+04	1.153128e+00,	3.041806e-06	
152	3.311311e+04	1.153128e+00,	3.112659e-06	
153	3.388442e+04	1.153128e+00,	3.185162e-06	
154	3.467369e+04	1.153128e+00,	3.259354e-06	
155	3.548134e+04	1.153128e+00,	3.335274e-06	
156	3.630781e+04	1.153128e+00,	3.412963e-06	
157	3.715352e+04	1.153128e+00,	3.492461e-06	
158	3.801894e+04	1.153128e+00,	3.573811e-06	
159	3.890451e+04	1.153128e+00,	3.657056e-06	
160	3.981072e+04	1.153128e+00,	3.742239e-06	
161	4.073803e+04	1.153128e+00,	3.829407e-06	
162	4.168694e+04	1.153128e+00,	3.918606e-06	
163	4.265795e+04	1.153128e+00,	4.009882e-06	
164	4.365158e+04	1.153128e+00,	4.103284e-06	
165	4.466836e+04	1.153128e+00,	4.198862e-06	
166	4.570882e+04	1.153128e+00,	4.296666e-06	
167	4.677351e+04	1.153128e+00,	4.396748e-06	
168	4.786301e+04	1.153128e+00,	4.499161e-06	
169	4.897788e+04	1.153128e+00,	4.603960e-06	
170	5.011872e+04	1.153128e+00,	4.711200e-06	

Index   frequency       vop                             
--------------------------------------------------------------------------------
171	5.128614e+04	1.153128e+00,	4.820938e-06	
172	5.248075e+04	1.153128e+00,	4.933232e-06	
173	5.370318e+04	1.153128e+00,	5.048142e-06	
174	5.495409e+04	1.153128e+00,	5.165728e-06	
175	5.623413e+04	1.153128e+00,	5.286054e-06	
176	5.754399e+04	1.153128e+00,	5.409182e-06	
177	5.888437e+04	1.153128e+00,	5.535178e-06	
178	6.025596e+04	1.153128e+00,	5.664109e-06	
179	6.165950e+04	1.153128e+00,	5.796043e-06	
180	6.309573e+04	1.153128e+00,	5.931050e-06	
181	6.456542e+04	1.153128e+00,	6.069202e-06	
182	6.606934e+04	1.153128e+00,	6.210571e-06	
183	6.760830e+04	1.153128e+00,	6.355234e-06	
184	6.918310e+04	1.153128e+00,	6.503267e-06	
185	7.079458e+04	1.153128e+00,	6.654747e-06	
186	7.244360e+04	1.153128e+00,	6.809756e-06	
187	7.413102e+04	1.153128e+00,	6.968376e-06	
188	7.585776e+04	1.153128e+00,	7.130690e-06	
189	7.762471e+04	1.153128e+00,	7.296785e-06	
190	7.943282e+04	1.153128e+00,	7.466749e-06	
191	8.128305e+04	1.153128e+00,	7.640672e-06	
192	8.317638e+04	1.153128e+00,	7.818646e-06	
193	8.511380e+04	1.153128e+00,	8.000766e-06	
194	8.709636e+04	1.153128e+00,	8.187127e-06	
195	8.912509e+04	1.153128e+00,	8.377830e-06	
196	9.120108e+04	1.153128e+00,	8.572975e-06	
197	9.332543e+04	1.153128e+00,	8.772665e-06	
198	9.549926e+04	1.153128e+00,	8.977007e-06	
199	9.772372e+04	1.153128e+00,	9.186108e-06	
200	1.000000e+05	1.153128e+00,	9.400080e-06	
201	1.023293e+05	1.153128e+00,	9.619036e-06	
202	1.047129e+05	1.153128e+00,	9.843092e-06	
203	1.071519e+05	1.153128e+00,	1.007237e-05	
204	1.096478e+05	1.153128e+00,	1.030698e-05	
205	1.122018e+05	1.153128e+00,	1.054706e-05	
206	1.148154e+05	1.153128e+00,	1.079274e-05	
207	1.174898e+05	1.153128e+00,	1.104413e-05	
208	1.202264e+05	1.153128e+00,	1.130138e-05	
209	1.230269e+05	1.153128e+00,	1.156462e-05	
210	1.258925e+05	1.153128e+00,	1.183400e-05	
211	1.288250e+05	1.153128e+00,	1.210965e-05	
212	1.318257e+05	1.153128e+00,	1.239172e-05	
213	1.348963e+05	1.153128e+00,	1.268036e-05	
214	1.380384e+05	1.153128e+00,	1.297572e-05	
215	1.412538e+05	1.153128e+00,	1.327796e-05	
216	1.445440e+05	1.153128e+00,	1.358725e-05	
217	1.479108e+05	1.153128e+00,	1.390374e-05	
218	1.513561e+05	1.153128e+00,	1.422759e-05	
219	1.548817e+05	1.153128e+00,	1.455900e-05	
220	1.584893e+05	1.153128e+00,	1.489812e-05	
221	1.621810e+05	1.153128e+00,	1.524514e-05	
222	1.659587e+05	1.153128e+00,	1.560025e-05	
223	1.698244e+05	1.153128e+00,	1.596362e-05	
224	1.737801e+05	1.153128e+00,	1.633546e-05	
225	1.778279e+05	1.153128e+00,	1.671596e-05	
226	1.819701e+05	1.153128e+00,	1.710533e-05	
227	1.862087e+05	1.153128e+00,	1.750376e-05	
228	1.905461e+05	1.153128e+00,	1.791148e-05	

Index   frequency       vop                             
--------------------------------------------------------------------------------
229	1.949845e+05	1.153128e+00,	1.832869e-05	
230	1.995262e+05	1.153128e+00,	1.875562e-05	
231	2.041738e+05	1.153128e+00,	1.919249e-05	
232	2.089296e+05	1.153128e+00,	1.963954e-05	
233	2.137962e+05	1.153128e+00,	2.009701e-05	
234	2.187762e+05	1.153128e+00,	2.056513e-05	
235	2.238721e+05	1.153128e+00,	2.104415e-05	
236	2.290868e+05	1.153128e+00,	2.153433e-05	
237	2.344229e+05	1.153128e+00,	2.203593e-05	
238	2.398833e+05	1.153128e+00,	2.254921e-05	
239	2.454709e+05	1.153128e+00,	2.307445e-05	
240	2.511886e+05	1.153128e+00,	2.361192e-05	
241	2.570396e+05	1.153128e+00,	2.416191e-05	
242	2.630268e+05	1.153128e+00,	2.472471e-05	
243	2.691535e+05	1.153128e+00,	2.530063e-05	
244	2.754229e+05	1.153128e+00,	2.588995e-05	
245	2.818383e+05	1.153128e+00,	2.649301e-05	
246	2.884032e+05	1.153128e+00,	2.711011e-05	
247	2.951209e+05	1.153128e+00,	2.774158e-05	
248	3.019952e+05	1.153128e+00,	2.838776e-05	
249	3.090295e+05	1.153128e+00,	2.904900e-05	
250	3.162278e+05	1.153128e+00,	2.972564e-05	
251	3.235937e+05	1.153128e+00,	3.041803e-05	
252	3.311311e+05	1.153128e+00,	3.112656e-05	
253	3.388442e+05	1.153128e+00,	3.185159e-05	
254	3.467369e+05	1.153128e+00,	3.259350e-05	
255	3.548134e+05	1.153128e+00,	3.335270e-05	
256	3.630781e+05	1.153128e+00,	3.412959e-05	
257	3.715352e+05	1.153128e+00,	3.492456e-05	
258	3.801894e+05	1.153128e+00,	3.573806e-05	
259	3.890451e+05	1.153128e+00,	3.657050e-05	
260	3.981072e+05	1.153128e+00,	3.742234e-05	
261	4.073803e+05	1.153128e+00,	3.829401e-05	
262	4.168694e+05	1.153128e+00,	3.918599e-05	
263	4.265795e+05	1.153128e+00,	4.009875e-05	
264	4.365158e+05	1.153128e+00,	4.103276e-05	
265	4.466836e+05	1.153128e+00,	4.198854e-05	
266	4.570882e+05	1.153128e+00,	4.296657e-05	
267	4.677351e+05	1.153128e+00,	4.396739e-05	
268	4.786301e+05	1.153128e+00,	4.499151e-05	
269	4.897788e+05	1.153128e+00,	4.603949e-05	
270	5.011872e+05	1.153128e+00,	4.711189e-05	
271	5.128614e+05	1.153128e+00,	4.820926e-05	
272	5.248075e+05	1.153128e+00,	4.933219e-05	
273	5.370318e+05	1.153128e+00,	5.048128e-05	
274	5.495409e+05	1.153128e+00,	5.165713e-05	
275	5.623413e+05	1.153128e+00,	5.286037e-05	
276	5.754399e+05	1.153128e+00,	5.409164e-05	
277	5.888437e+05	1.153128e+00,	5.535159e-05	
278	6.025596e+05	1.153128e+00,	5.664088e-05	
279	6.165950e+05	1.153128e+00,	5.796021e-05	
280	6.309573e+05	1.153128e+00,	5.931027e-05	
281	6.456542e+05	1.153128e+00,	6.069177e-05	
282	6.606934e+05	1.153128e+00,	6.210545e-05	
283	6.760830e+05	1.153128e+00,	6.355206e-05	
284	6.918310e+05	1.153128e+00,	6.503236e-05	
285	7.079458e+05	1.153128e+00,	6.654715e-05	
286	7.244360e+05	1.153128e+00,	6.809722e-05	

Index   frequency       vop                             
--------------------------------------------------------------------------------
287	7.413102e+05	1.153128e+00,	6.968339e-05	
288	7.585776e+05	1.153128e+00,	7.130650e-05	
289	7.762471e+05	1.153128e+00,	7.296743e-05	
290	7.943282e+05	1.153128e+00,	7.466704e-05	
291	8.128305e+05	1.153128e+00,	7.640623e-05	
292	8.317638e+05	1.153128e+00,	7.818594e-05	
293	8.511380e+05	1.153128e+00,	8.000710e-05	
294	8.709636e+05	1.153128e+00,	8.187068e-05	
295	8.912509e+05	1.153128e+00,	8.377766e-05	
296	9.120108e+05	1.153128e+00,	8.572907e-05	
297	9.332543e+05	1.153128e+00,	8.772592e-05	
298	9.549926e+05	1.153128e+00,	8.976929e-05	
299	9.772372e+05	1.153128e+00,	9.186025e-05	
300	1.000000e+06	1.153128e+00,	9.399991e-05	
301	1.023293e+06	1.153128e+00,	9.618940e-05	
302	1.047129e+06	1.153128e+00,	9.842990e-05	
303	1.071519e+06	1.153128e+00,	1.007226e-04	
304	1.096478e+06	1.153128e+00,	1.030687e-04	
305	1.122018e+06	1.153128e+00,	1.054694e-04	
306	1.148154e+06	1.153128e+00,	1.079260e-04	
307	1.174898e+06	1.153128e+00,	1.104399e-04	
308	1.202264e+06	1.153128e+00,	1.130123e-04	
309	1.230269e+06	1.153128e+00,	1.156446e-04	
310	1.258925e+06	1.153128e+00,	1.183383e-04	
311	1.288250e+06	1.153128e+00,	1.210946e-04	
312	1.318257e+06	1.153128e+00,	1.239152e-04	
313	1.348963e+06	1.153128e+00,	1.268015e-04	
314	1.380384e+06	1.153128e+00,	1.297550e-04	
315	1.412538e+06	1.153128e+00,	1.327772e-04	
316	1.445440e+06	1.153128e+00,	1.358699e-04	
317	1.479108e+06	1.153128e+00,	1.390346e-04	
318	1.513561e+06	1.153128e+00,	1.422730e-04	
319	1.548817e+06	1.153128e+00,	1.455869e-04	
320	1.584893e+06	1.153128e+00,	1.489779e-04	
321	1.621810e+06	1.153128e+00,	1.524479e-04	
322	1.659587e+06	1.153128e+00,	1.559987e-04	
323	1.698244e+06	1.153128e+00,	1.596322e-04	
324	1.737801e+06	1.153128e+00,	1.633504e-04	
325	1.778279e+06	1.153128e+00,	1.671551e-04	
326	1.819701e+06	1.153128e+00,	1.710485e-04	
327	1.862087e+06	1.153129e+00,	1.750325e-04	
328	1.905461e+06	1.153129e+00,	1.791094e-04	
329	1.949845e+06	1.153129e+00,	1.832812e-04	
330	1.995262e+06	1.153129e+00,	1.875501e-04	
331	2.041738e+06	1.153129e+00,	1.919185e-04	
332	2.089296e+06	1.153129e+00,	1.963886e-04	
333	2.137962e+06	1.153129e+00,	2.009628e-04	
334	2.187762e+06	1.153129e+00,	2.056436e-04	
335	2.238721e+06	1.153129e+00,	2.104334e-04	
336	2.290868e+06	1.153129e+00,	2.153347e-04	
337	2.344229e+06	1.153129e+00,	2.203502e-04	
338	2.398833e+06	1.153129e+00,	2.254825e-04	
339	2.454709e+06	1.153129e+00,	2.307344e-04	
340	2.511886e+06	1.153129e+00,	2.361086e-04	
341	2.570396e+06	1.153129e+00,	2.416079e-04	
342	2.630268e+06	1.153129e+00,	2.472354e-04	
343	2.691535e+06	1.153129e+00,	2.529939e-04	
344	2.754229e+06	1.153129e+00,	2.588866e-04	

Index   frequency       vop                             
--------------------------------------------------------------------------------
345	2.818383e+06	1.153129e+00,	2.649165e-04	
346	2.884032e+06	1.153129e+00,	2.710869e-04	
347	2.951209e+06	1.153129e+00,	2.774011e-04	
348	3.019952e+06	1.153129e+00,	2.838623e-04	
349	3.090295e+06	1.153129e+00,	2.904740e-04	
350	3.162278e+06	1.153129e+00,	2.972398e-04	
351	3.235937e+06	1.153129e+00,	3.041632e-04	
352	3.311311e+06	1.153129e+00,	3.112479e-04	
353	3.388442e+06	1.153129e+00,	3.184977e-04	
354	3.467369e+06	1.153129e+00,	3.259163e-04	
355	3.548134e+06	1.153129e+00,	3.335079e-04	
356	3.630781e+06	1.153129e+00,	3.412763e-04	
357	3.715352e+06	1.153129e+00,	3.492257e-04	
358	3.801894e+06	1.153129e+00,	3.573604e-04	
359	3.890451e+06	1.153129e+00,	3.656847e-04	
360	3.981072e+06	1.153129e+00,	3.742030e-04	
361	4.073803e+06	1.153130e+00,	3.829198e-04	
362	4.168694e+06	1.153130e+00,	3.918397e-04	
363	4.265795e+06	1.153130e+00,	4.009676e-04	
364	4.365158e+06	1.153130e+00,	4.103082e-04	
365	4.466836e+06	1.153130e+00,	4.198666e-04	
366	4.570882e+06	1.153130e+00,	4.296477e-04	
367	4.677351e+06	1.153130e+00,	4.396569e-04	
368	4.786301e+06	1.153130e+00,	4.498994e-04	
369	4.897788e+06	1.153130e+00,	4.603806e-04	
370	5.011872e+06	1.153130e+00,	4.711062e-04	
371	5.128614e+06	1.153130e+00,	4.820819e-04	
372	5.248075e+06	1.153130e+00,	4.933133e-04	
373	5.370318e+06	1.153130e+00,	5.048066e-04	
374	5.495409e+06	1.153131e+00,	5.165678e-04	
375	5.623413e+06	1.153131e+00,	5.286032e-04	
376	5.754399e+06	1.153131e+00,	5.409191e-04	
377	5.888437e+06	1.153131e+00,	5.535220e-04	
378	6.025596e+06	1.153131e+00,	5.664187e-04	
379	6.165950e+06	1.153131e+00,	5.796160e-04	
380	6.309573e+06	1.153131e+00,	5.931208e-04	
381	6.456542e+06	1.153131e+00,	6.069404e-04	
382	6.606934e+06	1.153132e+00,	6.210819e-04	
383	6.760830e+06	1.153132e+00,	6.355530e-04	
384	6.918310e+06	1.153132e+00,	6.503613e-04	
385	7.079458e+06	1.153132e+00,	6.655145e-04	
386	7.244360e+06	1.153132e+00,	6.810208e-04	
387	7.413102e+06	1.153133e+00,	6.968883e-04	
388	7.585776e+06	1.153133e+00,	7.131254e-04	
389	7.762471e+06	1.153133e+00,	7.297408e-04	
390	7.943282e+06	1.153133e+00,	7.467431e-04	
391	8.128305e+06	1.153133e+00,	7.641414e-04	
392	8.317638e+06	1.153134e+00,	7.819449e-04	
393	8.511380e+06	1.153134e+00,	8.001630e-04	
394	8.709636e+06	1.153134e+00,	8.188053e-04	
395	8.912509e+06	1.153134e+00,	8.378818e-04	
396	9.120108e+06	1.153135e+00,	8.574024e-04	
397	9.332543e+06	1.153135e+00,	8.773775e-04	
398	9.549926e+06	1.153135e+00,	8.978178e-04	
399	9.772372e+06	1.153136e+00,	9.187340e-04	
400	1.000000e+07	1.153136e+00,	9.401371e-04	
401	1.023293e+07	1.153137e+00,	9.620385e-04	
402	1.047129e+07	1.153137e+00,	9.844498e-04	

Index   frequency       vop                             
--------------------------------------------------------------------------------
403	1.071519e+07	1.153137e+00,	1.007383e-03	
404	1.096478e+07	1.153138e+00,	1.030850e-03	
405	1.122018e+07	1.153138e+00,	1.054863e-03	
406	1.148154e+07	1.153139e+00,	1.079435e-03	
407	1.174898e+07	1.153139e+00,	1.104579e-03	
408	1.202264e+07	1.153140e+00,	1.130309e-03	
409	1.230269e+07	1.153140e+00,	1.156637e-03	
410	1.258925e+07	1.153141e+00,	1.183578e-03	
411	1.288250e+07	1.153142e+00,	1.211147e-03	
412	1.318257e+07	1.153142e+00,	1.239356e-03	
413	1.348963e+07	1.153143e+00,	1.268223e-03	
414	1.380384e+07	1.153144e+00,	1.297761e-03	
415	1.412538e+07	1.153144e+00,	1.327987e-03	
416	1.445440e+07	1.153145e+00,	1.358916e-03	
