  ** sch_path: /home/andylithia/openmpw/project-reisen-chip1/xschem/ctle_3.sch
  AC Analysis  Mon Oct 31 00:06:33  2022
--------------------------------------------------------------------------------
Index   frequency       vop                             
--------------------------------------------------------------------------------
0	1.000000e+03	1.432904e-01,	7.233679e-07	
1	1.023293e+03	1.432904e-01,	7.402173e-07	
2	1.047129e+03	1.432904e-01,	7.574592e-07	
3	1.071519e+03	1.432904e-01,	7.751027e-07	
4	1.096478e+03	1.432904e-01,	7.931572e-07	
5	1.122018e+03	1.432904e-01,	8.116322e-07	
6	1.148154e+03	1.432904e-01,	8.305375e-07	
7	1.174898e+03	1.432904e-01,	8.498832e-07	
8	1.202264e+03	1.432904e-01,	8.696795e-07	
9	1.230269e+03	1.432904e-01,	8.899370e-07	
10	1.258925e+03	1.432904e-01,	9.106663e-07	
11	1.288250e+03	1.432904e-01,	9.318784e-07	
12	1.318257e+03	1.432904e-01,	9.535847e-07	
13	1.348963e+03	1.432904e-01,	9.757965e-07	
14	1.380384e+03	1.432904e-01,	9.985257e-07	
15	1.412538e+03	1.432904e-01,	1.021784e-06	
16	1.445440e+03	1.432904e-01,	1.045585e-06	
17	1.479108e+03	1.432904e-01,	1.069940e-06	
18	1.513561e+03	1.432904e-01,	1.094862e-06	
19	1.548817e+03	1.432904e-01,	1.120364e-06	
20	1.584893e+03	1.432904e-01,	1.146461e-06	
21	1.621810e+03	1.432904e-01,	1.173165e-06	
22	1.659587e+03	1.432904e-01,	1.200492e-06	
23	1.698244e+03	1.432904e-01,	1.228455e-06	
24	1.737801e+03	1.432904e-01,	1.257069e-06	
25	1.778279e+03	1.432904e-01,	1.286350e-06	
26	1.819701e+03	1.432904e-01,	1.316313e-06	
27	1.862087e+03	1.432904e-01,	1.346974e-06	
28	1.905461e+03	1.432904e-01,	1.378349e-06	
29	1.949845e+03	1.432904e-01,	1.410455e-06	
30	1.995262e+03	1.432904e-01,	1.443309e-06	
31	2.041738e+03	1.432904e-01,	1.476928e-06	
32	2.089296e+03	1.432904e-01,	1.511330e-06	
33	2.137962e+03	1.432904e-01,	1.546533e-06	
34	2.187762e+03	1.432904e-01,	1.582557e-06	
35	2.238721e+03	1.432904e-01,	1.619419e-06	
36	2.290868e+03	1.432904e-01,	1.657140e-06	
37	2.344229e+03	1.432904e-01,	1.695740e-06	
38	2.398833e+03	1.432904e-01,	1.735239e-06	
39	2.454709e+03	1.432904e-01,	1.775658e-06	
40	2.511886e+03	1.432904e-01,	1.817018e-06	
41	2.570396e+03	1.432904e-01,	1.859342e-06	
42	2.630268e+03	1.432904e-01,	1.902652e-06	
43	2.691535e+03	1.432904e-01,	1.946970e-06	
44	2.754229e+03	1.432904e-01,	1.992321e-06	
45	2.818383e+03	1.432904e-01,	2.038728e-06	
46	2.884032e+03	1.432904e-01,	2.086216e-06	
47	2.951209e+03	1.432904e-01,	2.134810e-06	
48	3.019952e+03	1.432904e-01,	2.184536e-06	
49	3.090295e+03	1.432904e-01,	2.235421e-06	
50	3.162278e+03	1.432904e-01,	2.287490e-06	
51	3.235937e+03	1.432904e-01,	2.340773e-06	
52	3.311311e+03	1.432904e-01,	2.395296e-06	
53	3.388442e+03	1.432904e-01,	2.451090e-06	
54	3.467369e+03	1.432904e-01,	2.508183e-06	

Index   frequency       vop                             
--------------------------------------------------------------------------------
55	3.548134e+03	1.432904e-01,	2.566606e-06	
56	3.630781e+03	1.432904e-01,	2.626390e-06	
57	3.715352e+03	1.432904e-01,	2.687567e-06	
58	3.801894e+03	1.432904e-01,	2.750168e-06	
59	3.890451e+03	1.432904e-01,	2.814228e-06	
60	3.981072e+03	1.432904e-01,	2.879780e-06	
61	4.073803e+03	1.432904e-01,	2.946858e-06	
62	4.168694e+03	1.432904e-01,	3.015499e-06	
63	4.265795e+03	1.432904e-01,	3.085739e-06	
64	4.365158e+03	1.432904e-01,	3.157616e-06	
65	4.466836e+03	1.432904e-01,	3.231166e-06	
66	4.570882e+03	1.432904e-01,	3.306429e-06	
67	4.677351e+03	1.432904e-01,	3.383446e-06	
68	4.786301e+03	1.432904e-01,	3.462257e-06	
69	4.897788e+03	1.432904e-01,	3.542903e-06	
70	5.011872e+03	1.432904e-01,	3.625428e-06	
71	5.128614e+03	1.432904e-01,	3.709875e-06	
72	5.248075e+03	1.432904e-01,	3.796289e-06	
73	5.370318e+03	1.432904e-01,	3.884716e-06	
74	5.495409e+03	1.432904e-01,	3.975203e-06	
75	5.623413e+03	1.432904e-01,	4.067797e-06	
76	5.754399e+03	1.432904e-01,	4.162548e-06	
77	5.888437e+03	1.432904e-01,	4.259506e-06	
78	6.025596e+03	1.432904e-01,	4.358723e-06	
79	6.165950e+03	1.432904e-01,	4.460251e-06	
80	6.309573e+03	1.432904e-01,	4.564143e-06	
81	6.456542e+03	1.432904e-01,	4.670456e-06	
82	6.606934e+03	1.432904e-01,	4.779245e-06	
83	6.760830e+03	1.432904e-01,	4.890568e-06	
84	6.918310e+03	1.432904e-01,	5.004483e-06	
85	7.079458e+03	1.432904e-01,	5.121053e-06	
86	7.244360e+03	1.432904e-01,	5.240337e-06	
87	7.413102e+03	1.432904e-01,	5.362401e-06	
88	7.585776e+03	1.432904e-01,	5.487307e-06	
89	7.762471e+03	1.432904e-01,	5.615123e-06	
90	7.943282e+03	1.432904e-01,	5.745916e-06	
91	8.128305e+03	1.432904e-01,	5.879755e-06	
92	8.317638e+03	1.432904e-01,	6.016712e-06	
93	8.511380e+03	1.432904e-01,	6.156860e-06	
94	8.709636e+03	1.432904e-01,	6.300271e-06	
95	8.912509e+03	1.432904e-01,	6.447024e-06	
96	9.120108e+03	1.432904e-01,	6.597194e-06	
97	9.332543e+03	1.432904e-01,	6.750862e-06	
98	9.549926e+03	1.432904e-01,	6.908110e-06	
99	9.772372e+03	1.432904e-01,	7.069021e-06	
100	1.000000e+04	1.432904e-01,	7.233679e-06	
101	1.023293e+04	1.432904e-01,	7.402173e-06	
102	1.047129e+04	1.432904e-01,	7.574592e-06	
103	1.071519e+04	1.432904e-01,	7.751027e-06	
104	1.096478e+04	1.432904e-01,	7.931572e-06	
105	1.122018e+04	1.432904e-01,	8.116322e-06	
106	1.148154e+04	1.432904e-01,	8.305375e-06	
107	1.174898e+04	1.432904e-01,	8.498832e-06	
108	1.202264e+04	1.432904e-01,	8.696795e-06	
109	1.230269e+04	1.432904e-01,	8.899370e-06	
110	1.258925e+04	1.432904e-01,	9.106663e-06	
111	1.288250e+04	1.432904e-01,	9.318784e-06	
112	1.318257e+04	1.432904e-01,	9.535847e-06	

Index   frequency       vop                             
--------------------------------------------------------------------------------
113	1.348963e+04	1.432904e-01,	9.757965e-06	
114	1.380384e+04	1.432904e-01,	9.985257e-06	
115	1.412538e+04	1.432904e-01,	1.021784e-05	
116	1.445440e+04	1.432904e-01,	1.045585e-05	
117	1.479108e+04	1.432904e-01,	1.069940e-05	
118	1.513561e+04	1.432904e-01,	1.094862e-05	
119	1.548817e+04	1.432904e-01,	1.120364e-05	
120	1.584893e+04	1.432904e-01,	1.146461e-05	
121	1.621810e+04	1.432904e-01,	1.173165e-05	
122	1.659587e+04	1.432904e-01,	1.200492e-05	
123	1.698244e+04	1.432904e-01,	1.228455e-05	
124	1.737801e+04	1.432904e-01,	1.257069e-05	
125	1.778279e+04	1.432904e-01,	1.286350e-05	
126	1.819701e+04	1.432904e-01,	1.316313e-05	
127	1.862087e+04	1.432904e-01,	1.346974e-05	
128	1.905461e+04	1.432904e-01,	1.378349e-05	
129	1.949845e+04	1.432904e-01,	1.410455e-05	
130	1.995262e+04	1.432904e-01,	1.443309e-05	
131	2.041738e+04	1.432904e-01,	1.476928e-05	
132	2.089296e+04	1.432904e-01,	1.511330e-05	
133	2.137962e+04	1.432904e-01,	1.546533e-05	
134	2.187762e+04	1.432904e-01,	1.582557e-05	
135	2.238721e+04	1.432904e-01,	1.619419e-05	
136	2.290868e+04	1.432904e-01,	1.657140e-05	
137	2.344229e+04	1.432904e-01,	1.695740e-05	
138	2.398833e+04	1.432904e-01,	1.735239e-05	
139	2.454709e+04	1.432904e-01,	1.775658e-05	
140	2.511886e+04	1.432904e-01,	1.817018e-05	
141	2.570396e+04	1.432904e-01,	1.859342e-05	
142	2.630268e+04	1.432904e-01,	1.902652e-05	
143	2.691535e+04	1.432904e-01,	1.946970e-05	
144	2.754229e+04	1.432904e-01,	1.992321e-05	
145	2.818383e+04	1.432904e-01,	2.038728e-05	
146	2.884032e+04	1.432904e-01,	2.086216e-05	
147	2.951209e+04	1.432904e-01,	2.134810e-05	
148	3.019952e+04	1.432904e-01,	2.184536e-05	
149	3.090295e+04	1.432904e-01,	2.235421e-05	
150	3.162278e+04	1.432904e-01,	2.287490e-05	
151	3.235937e+04	1.432904e-01,	2.340773e-05	
152	3.311311e+04	1.432904e-01,	2.395296e-05	
153	3.388442e+04	1.432904e-01,	2.451090e-05	
154	3.467369e+04	1.432904e-01,	2.508183e-05	
155	3.548134e+04	1.432904e-01,	2.566606e-05	
156	3.630781e+04	1.432904e-01,	2.626390e-05	
157	3.715352e+04	1.432904e-01,	2.687567e-05	
158	3.801894e+04	1.432904e-01,	2.750168e-05	
159	3.890451e+04	1.432904e-01,	2.814228e-05	
160	3.981072e+04	1.432904e-01,	2.879780e-05	
161	4.073803e+04	1.432904e-01,	2.946858e-05	
162	4.168694e+04	1.432904e-01,	3.015499e-05	
163	4.265795e+04	1.432904e-01,	3.085739e-05	
164	4.365158e+04	1.432904e-01,	3.157616e-05	
165	4.466836e+04	1.432904e-01,	3.231166e-05	
166	4.570882e+04	1.432904e-01,	3.306429e-05	
167	4.677351e+04	1.432904e-01,	3.383446e-05	
168	4.786301e+04	1.432904e-01,	3.462257e-05	
169	4.897788e+04	1.432904e-01,	3.542903e-05	
170	5.011872e+04	1.432904e-01,	3.625428e-05	

Index   frequency       vop                             
--------------------------------------------------------------------------------
171	5.128614e+04	1.432904e-01,	3.709875e-05	
172	5.248075e+04	1.432904e-01,	3.796289e-05	
173	5.370318e+04	1.432904e-01,	3.884716e-05	
174	5.495409e+04	1.432904e-01,	3.975202e-05	
175	5.623413e+04	1.432904e-01,	4.067797e-05	
176	5.754399e+04	1.432904e-01,	4.162548e-05	
177	5.888437e+04	1.432904e-01,	4.259506e-05	
178	6.025596e+04	1.432904e-01,	4.358723e-05	
179	6.165950e+04	1.432904e-01,	4.460251e-05	
180	6.309573e+04	1.432904e-01,	4.564143e-05	
181	6.456542e+04	1.432904e-01,	4.670456e-05	
182	6.606934e+04	1.432904e-01,	4.779245e-05	
183	6.760830e+04	1.432904e-01,	4.890567e-05	
184	6.918310e+04	1.432904e-01,	5.004483e-05	
185	7.079458e+04	1.432904e-01,	5.121053e-05	
186	7.244360e+04	1.432904e-01,	5.240337e-05	
187	7.413102e+04	1.432904e-01,	5.362401e-05	
188	7.585776e+04	1.432904e-01,	5.487307e-05	
189	7.762471e+04	1.432904e-01,	5.615123e-05	
190	7.943282e+04	1.432904e-01,	5.745916e-05	
191	8.128305e+04	1.432904e-01,	5.879755e-05	
192	8.317638e+04	1.432904e-01,	6.016712e-05	
193	8.511380e+04	1.432904e-01,	6.156860e-05	
194	8.709636e+04	1.432904e-01,	6.300271e-05	
195	8.912509e+04	1.432904e-01,	6.447023e-05	
196	9.120108e+04	1.432904e-01,	6.597194e-05	
197	9.332543e+04	1.432904e-01,	6.750862e-05	
198	9.549926e+04	1.432904e-01,	6.908110e-05	
199	9.772372e+04	1.432904e-01,	7.069021e-05	
200	1.000000e+05	1.432904e-01,	7.233679e-05	
201	1.023293e+05	1.432904e-01,	7.402173e-05	
202	1.047129e+05	1.432904e-01,	7.574592e-05	
203	1.071519e+05	1.432904e-01,	7.751027e-05	
204	1.096478e+05	1.432904e-01,	7.931571e-05	
205	1.122018e+05	1.432904e-01,	8.116321e-05	
206	1.148154e+05	1.432904e-01,	8.305375e-05	
207	1.174898e+05	1.432904e-01,	8.498832e-05	
208	1.202264e+05	1.432904e-01,	8.696795e-05	
209	1.230269e+05	1.432904e-01,	8.899369e-05	
210	1.258925e+05	1.432904e-01,	9.106662e-05	
211	1.288250e+05	1.432904e-01,	9.318784e-05	
212	1.318257e+05	1.432904e-01,	9.535846e-05	
213	1.348963e+05	1.432904e-01,	9.757965e-05	
214	1.380384e+05	1.432904e-01,	9.985257e-05	
215	1.412538e+05	1.432904e-01,	1.021784e-04	
216	1.445440e+05	1.432904e-01,	1.045585e-04	
217	1.479108e+05	1.432904e-01,	1.069940e-04	
218	1.513561e+05	1.432904e-01,	1.094862e-04	
219	1.548817e+05	1.432904e-01,	1.120364e-04	
220	1.584893e+05	1.432904e-01,	1.146461e-04	
221	1.621810e+05	1.432904e-01,	1.173165e-04	
222	1.659587e+05	1.432904e-01,	1.200492e-04	
223	1.698244e+05	1.432904e-01,	1.228455e-04	
224	1.737801e+05	1.432904e-01,	1.257069e-04	
225	1.778279e+05	1.432904e-01,	1.286350e-04	
226	1.819701e+05	1.432904e-01,	1.316313e-04	
227	1.862087e+05	1.432904e-01,	1.346974e-04	
228	1.905461e+05	1.432904e-01,	1.378349e-04	

Index   frequency       vop                             
--------------------------------------------------------------------------------
229	1.949845e+05	1.432904e-01,	1.410455e-04	
230	1.995262e+05	1.432904e-01,	1.443309e-04	
231	2.041738e+05	1.432904e-01,	1.476928e-04	
232	2.089296e+05	1.432904e-01,	1.511330e-04	
233	2.137962e+05	1.432904e-01,	1.546533e-04	
234	2.187762e+05	1.432904e-01,	1.582556e-04	
235	2.238721e+05	1.432904e-01,	1.619419e-04	
236	2.290868e+05	1.432904e-01,	1.657140e-04	
237	2.344229e+05	1.432904e-01,	1.695740e-04	
238	2.398833e+05	1.432904e-01,	1.735239e-04	
239	2.454709e+05	1.432904e-01,	1.775657e-04	
240	2.511886e+05	1.432904e-01,	1.817018e-04	
241	2.570396e+05	1.432904e-01,	1.859342e-04	
242	2.630268e+05	1.432904e-01,	1.902651e-04	
243	2.691535e+05	1.432904e-01,	1.946970e-04	
244	2.754229e+05	1.432904e-01,	1.992320e-04	
245	2.818383e+05	1.432904e-01,	2.038727e-04	
246	2.884032e+05	1.432904e-01,	2.086215e-04	
247	2.951209e+05	1.432904e-01,	2.134810e-04	
248	3.019952e+05	1.432904e-01,	2.184536e-04	
249	3.090295e+05	1.432904e-01,	2.235420e-04	
250	3.162278e+05	1.432904e-01,	2.287490e-04	
251	3.235937e+05	1.432904e-01,	2.340772e-04	
252	3.311311e+05	1.432904e-01,	2.395296e-04	
253	3.388442e+05	1.432904e-01,	2.451089e-04	
254	3.467369e+05	1.432904e-01,	2.508182e-04	
255	3.548134e+05	1.432904e-01,	2.566605e-04	
256	3.630781e+05	1.432904e-01,	2.626389e-04	
257	3.715352e+05	1.432904e-01,	2.687566e-04	
258	3.801894e+05	1.432904e-01,	2.750167e-04	
259	3.890451e+05	1.432904e-01,	2.814227e-04	
260	3.981072e+05	1.432904e-01,	2.879778e-04	
261	4.073803e+05	1.432904e-01,	2.946857e-04	
262	4.168694e+05	1.432905e-01,	3.015498e-04	
263	4.265795e+05	1.432905e-01,	3.085738e-04	
264	4.365158e+05	1.432905e-01,	3.157614e-04	
265	4.466836e+05	1.432905e-01,	3.231164e-04	
266	4.570882e+05	1.432905e-01,	3.306427e-04	
267	4.677351e+05	1.432905e-01,	3.383444e-04	
268	4.786301e+05	1.432905e-01,	3.462254e-04	
269	4.897788e+05	1.432905e-01,	3.542900e-04	
270	5.011872e+05	1.432905e-01,	3.625425e-04	
271	5.128614e+05	1.432905e-01,	3.709872e-04	
272	5.248075e+05	1.432905e-01,	3.796286e-04	
273	5.370318e+05	1.432905e-01,	3.884712e-04	
274	5.495409e+05	1.432905e-01,	3.975199e-04	
275	5.623413e+05	1.432905e-01,	4.067793e-04	
276	5.754399e+05	1.432905e-01,	4.162544e-04	
277	5.888437e+05	1.432905e-01,	4.259502e-04	
278	6.025596e+05	1.432905e-01,	4.358718e-04	
279	6.165950e+05	1.432905e-01,	4.460246e-04	
280	6.309573e+05	1.432905e-01,	4.564138e-04	
281	6.456542e+05	1.432906e-01,	4.670450e-04	
282	6.606934e+05	1.432906e-01,	4.779238e-04	
283	6.760830e+05	1.432906e-01,	4.890561e-04	
284	6.918310e+05	1.432906e-01,	5.004476e-04	
285	7.079458e+05	1.432906e-01,	5.121045e-04	
286	7.244360e+05	1.432906e-01,	5.240329e-04	

Index   frequency       vop                             
--------------------------------------------------------------------------------
287	7.413102e+05	1.432906e-01,	5.362392e-04	
288	7.585776e+05	1.432906e-01,	5.487298e-04	
289	7.762471e+05	1.432906e-01,	5.615113e-04	
290	7.943282e+05	1.432906e-01,	5.745905e-04	
291	8.128305e+05	1.432907e-01,	5.879744e-04	
292	8.317638e+05	1.432907e-01,	6.016700e-04	
293	8.511380e+05	1.432907e-01,	6.156847e-04	
294	8.709636e+05	1.432907e-01,	6.300257e-04	
295	8.912509e+05	1.432907e-01,	6.447009e-04	
296	9.120108e+05	1.432907e-01,	6.597178e-04	
297	9.332543e+05	1.432907e-01,	6.750845e-04	
298	9.549926e+05	1.432908e-01,	6.908092e-04	
299	9.772372e+05	1.432908e-01,	7.069001e-04	
300	1.000000e+06	1.432908e-01,	7.233658e-04	
301	1.023293e+06	1.432908e-01,	7.402151e-04	
302	1.047129e+06	1.432908e-01,	7.574568e-04	
303	1.071519e+06	1.432909e-01,	7.751001e-04	
304	1.096478e+06	1.432909e-01,	7.931544e-04	
305	1.122018e+06	1.432909e-01,	8.116292e-04	
306	1.148154e+06	1.432909e-01,	8.305344e-04	
307	1.174898e+06	1.432910e-01,	8.498799e-04	
308	1.202264e+06	1.432910e-01,	8.696760e-04	
309	1.230269e+06	1.432910e-01,	8.899331e-04	
310	1.258925e+06	1.432911e-01,	9.106622e-04	
311	1.288250e+06	1.432911e-01,	9.318740e-04	
312	1.318257e+06	1.432911e-01,	9.535800e-04	
313	1.348963e+06	1.432912e-01,	9.757915e-04	
314	1.380384e+06	1.432912e-01,	9.985204e-04	
315	1.412538e+06	1.432912e-01,	1.021779e-03	
316	1.445440e+06	1.432913e-01,	1.045579e-03	
317	1.479108e+06	1.432913e-01,	1.069933e-03	
318	1.513561e+06	1.432914e-01,	1.094855e-03	
319	1.548817e+06	1.432914e-01,	1.120357e-03	
320	1.584893e+06	1.432915e-01,	1.146453e-03	
321	1.621810e+06	1.432915e-01,	1.173157e-03	
322	1.659587e+06	1.432916e-01,	1.200483e-03	
323	1.698244e+06	1.432916e-01,	1.228446e-03	
324	1.737801e+06	1.432917e-01,	1.257059e-03	
325	1.778279e+06	1.432917e-01,	1.286340e-03	
326	1.819701e+06	1.432918e-01,	1.316302e-03	
327	1.862087e+06	1.432919e-01,	1.346962e-03	
328	1.905461e+06	1.432919e-01,	1.378336e-03	
329	1.949845e+06	1.432920e-01,	1.410441e-03	
330	1.995262e+06	1.432921e-01,	1.443294e-03	
331	2.041738e+06	1.432922e-01,	1.476912e-03	
332	2.089296e+06	1.432922e-01,	1.511313e-03	
333	2.137962e+06	1.432923e-01,	1.546516e-03	
334	2.187762e+06	1.432924e-01,	1.582538e-03	
335	2.238721e+06	1.432925e-01,	1.619400e-03	
336	2.290868e+06	1.432926e-01,	1.657119e-03	
337	2.344229e+06	1.432927e-01,	1.695718e-03	
338	2.398833e+06	1.432928e-01,	1.735216e-03	
339	2.454709e+06	1.432929e-01,	1.775633e-03	
340	2.511886e+06	1.432931e-01,	1.816992e-03	
341	2.570396e+06	1.432932e-01,	1.859315e-03	
342	2.630268e+06	1.432933e-01,	1.902623e-03	
343	2.691535e+06	1.432935e-01,	1.946940e-03	
344	2.754229e+06	1.432936e-01,	1.992289e-03	

Index   frequency       vop                             
--------------------------------------------------------------------------------
345	2.818383e+06	1.432938e-01,	2.038695e-03	
346	2.884032e+06	1.432939e-01,	2.086181e-03	
347	2.951209e+06	1.432941e-01,	2.134774e-03	
348	3.019952e+06	1.432943e-01,	2.184498e-03	
349	3.090295e+06	1.432944e-01,	2.235381e-03	
350	3.162278e+06	1.432946e-01,	2.287449e-03	
351	3.235937e+06	1.432948e-01,	2.340730e-03	
352	3.311311e+06	1.432950e-01,	2.395251e-03	
353	3.388442e+06	1.432953e-01,	2.451043e-03	
354	3.467369e+06	1.432955e-01,	2.508135e-03	
355	3.548134e+06	1.432957e-01,	2.566557e-03	
356	3.630781e+06	1.432960e-01,	2.626339e-03	
357	3.715352e+06	1.432962e-01,	2.687514e-03	
358	3.801894e+06	1.432965e-01,	2.750115e-03	
359	3.890451e+06	1.432968e-01,	2.814173e-03	
360	3.981072e+06	1.432971e-01,	2.879724e-03	
361	4.073803e+06	1.432974e-01,	2.946802e-03	
362	4.168694e+06	1.432977e-01,	3.015443e-03	
363	4.265795e+06	1.432981e-01,	3.085682e-03	
364	4.365158e+06	1.432984e-01,	3.157558e-03	
365	4.466836e+06	1.432988e-01,	3.231109e-03	
366	4.570882e+06	1.432992e-01,	3.306373e-03	
367	4.677351e+06	1.432996e-01,	3.383391e-03	
368	4.786301e+06	1.433001e-01,	3.462202e-03	
369	4.897788e+06	1.433005e-01,	3.542850e-03	
370	5.011872e+06	1.433010e-01,	3.625377e-03	
371	5.128614e+06	1.433015e-01,	3.709827e-03	
372	5.248075e+06	1.433020e-01,	3.796244e-03	
373	5.370318e+06	1.433026e-01,	3.884674e-03	
374	5.495409e+06	1.433032e-01,	3.975164e-03	
375	5.623413e+06	1.433038e-01,	4.067763e-03	
376	5.754399e+06	1.433044e-01,	4.162518e-03	
377	5.888437e+06	1.433050e-01,	4.259482e-03	
378	6.025596e+06	1.433057e-01,	4.358704e-03	
379	6.165950e+06	1.433065e-01,	4.460237e-03	
380	6.309573e+06	1.433072e-01,	4.564136e-03	
381	6.456542e+06	1.433080e-01,	4.670455e-03	
382	6.606934e+06	1.433089e-01,	4.779250e-03	
383	6.760830e+06	1.433097e-01,	4.890580e-03	
384	6.918310e+06	1.433107e-01,	5.004503e-03	
385	7.079458e+06	1.433116e-01,	5.121080e-03	
386	7.244360e+06	1.433126e-01,	5.240372e-03	
387	7.413102e+06	1.433137e-01,	5.362442e-03	
388	7.585776e+06	1.433148e-01,	5.487356e-03	
389	7.762471e+06	1.433159e-01,	5.615179e-03	
390	7.943282e+06	1.433172e-01,	5.745980e-03	
391	8.128305e+06	1.433184e-01,	5.879826e-03	
392	8.317638e+06	1.433198e-01,	6.016790e-03	
393	8.511380e+06	1.433212e-01,	6.156944e-03	
394	8.709636e+06	1.433226e-01,	6.300361e-03	
395	8.912509e+06	1.433242e-01,	6.447119e-03	
396	9.120108e+06	1.433258e-01,	6.597294e-03	
397	9.332543e+06	1.433275e-01,	6.750967e-03	
398	9.549926e+06	1.433292e-01,	6.908218e-03	
399	9.772372e+06	1.433311e-01,	7.069131e-03	
400	1.000000e+07	1.433330e-01,	7.233792e-03	
401	1.023293e+07	1.433350e-01,	7.402286e-03	
402	1.047129e+07	1.433371e-01,	7.574704e-03	

Index   frequency       vop                             
--------------------------------------------------------------------------------
403	1.071519e+07	1.433394e-01,	7.751138e-03	
404	1.096478e+07	1.433417e-01,	7.931679e-03	
405	1.122018e+07	1.433441e-01,	8.116425e-03	
406	1.148154e+07	1.433467e-01,	8.305472e-03	
407	1.174898e+07	1.433494e-01,	8.498921e-03	
408	1.202264e+07	1.433522e-01,	8.696874e-03	
409	1.230269e+07	1.433551e-01,	8.899437e-03	
410	1.258925e+07	1.433582e-01,	9.106716e-03	
411	1.288250e+07	1.433614e-01,	9.318820e-03	
412	1.318257e+07	1.433647e-01,	9.535864e-03	
413	1.348963e+07	1.433683e-01,	9.757960e-03	
414	1.380384e+07	1.433720e-01,	9.985227e-03	
415	1.412538e+07	1.433758e-01,	1.021779e-02	
416	1.445440e+07	1.433799e-01,	1.045576e-02	
