  ** sch_path: /home/andylithia/openmpw/project-reisen-chip1/xschem/ctle_3.sch
  AC Analysis  Sun Oct 30 23:24:44  2022
--------------------------------------------------------------------------------
Index   frequency       vop                             
--------------------------------------------------------------------------------
0	1.000000e+03	1.241645e+00,	5.401402e-08	
1	1.023293e+03	1.241645e+00,	5.527217e-08	
2	1.047129e+03	1.241645e+00,	5.655962e-08	
3	1.071519e+03	1.241645e+00,	5.787706e-08	
4	1.096478e+03	1.241645e+00,	5.922519e-08	
5	1.122018e+03	1.241645e+00,	6.060473e-08	
6	1.148154e+03	1.241645e+00,	6.201639e-08	
7	1.174898e+03	1.241645e+00,	6.346094e-08	
8	1.202264e+03	1.241645e+00,	6.493913e-08	
9	1.230269e+03	1.241645e+00,	6.645176e-08	
10	1.258925e+03	1.241645e+00,	6.799962e-08	
11	1.288250e+03	1.241645e+00,	6.958353e-08	
12	1.318257e+03	1.241645e+00,	7.120434e-08	
13	1.348963e+03	1.241645e+00,	7.286291e-08	
14	1.380384e+03	1.241645e+00,	7.456010e-08	
15	1.412538e+03	1.241645e+00,	7.629683e-08	
16	1.445440e+03	1.241645e+00,	7.807401e-08	
17	1.479108e+03	1.241645e+00,	7.989259e-08	
18	1.513561e+03	1.241645e+00,	8.175352e-08	
19	1.548817e+03	1.241645e+00,	8.365781e-08	
20	1.584893e+03	1.241645e+00,	8.560645e-08	
21	1.621810e+03	1.241645e+00,	8.760048e-08	
22	1.659587e+03	1.241645e+00,	8.964096e-08	
23	1.698244e+03	1.241645e+00,	9.172896e-08	
24	1.737801e+03	1.241645e+00,	9.386561e-08	
25	1.778279e+03	1.241645e+00,	9.605202e-08	
26	1.819701e+03	1.241645e+00,	9.828936e-08	
27	1.862087e+03	1.241645e+00,	1.005788e-07	
28	1.905461e+03	1.241645e+00,	1.029216e-07	
29	1.949845e+03	1.241645e+00,	1.053189e-07	
30	1.995262e+03	1.241645e+00,	1.077721e-07	
31	2.041738e+03	1.241645e+00,	1.102825e-07	
32	2.089296e+03	1.241645e+00,	1.128513e-07	
33	2.137962e+03	1.241645e+00,	1.154799e-07	
34	2.187762e+03	1.241645e+00,	1.181698e-07	
35	2.238721e+03	1.241645e+00,	1.209223e-07	
36	2.290868e+03	1.241645e+00,	1.237390e-07	
37	2.344229e+03	1.241645e+00,	1.266212e-07	
38	2.398833e+03	1.241645e+00,	1.295706e-07	
39	2.454709e+03	1.241645e+00,	1.325887e-07	
40	2.511886e+03	1.241645e+00,	1.356771e-07	
41	2.570396e+03	1.241645e+00,	1.388374e-07	
42	2.630268e+03	1.241645e+00,	1.420713e-07	
43	2.691535e+03	1.241645e+00,	1.453806e-07	
44	2.754229e+03	1.241645e+00,	1.487670e-07	
45	2.818383e+03	1.241645e+00,	1.522322e-07	
46	2.884032e+03	1.241645e+00,	1.557781e-07	
47	2.951209e+03	1.241645e+00,	1.594067e-07	
48	3.019952e+03	1.241645e+00,	1.631197e-07	
49	3.090295e+03	1.241645e+00,	1.669193e-07	
50	3.162278e+03	1.241645e+00,	1.708073e-07	
51	3.235937e+03	1.241645e+00,	1.747859e-07	
52	3.311311e+03	1.241645e+00,	1.788572e-07	
53	3.388442e+03	1.241645e+00,	1.830233e-07	
54	3.467369e+03	1.241645e+00,	1.872865e-07	

Index   frequency       vop                             
--------------------------------------------------------------------------------
55	3.548134e+03	1.241645e+00,	1.916490e-07	
56	3.630781e+03	1.241645e+00,	1.961130e-07	
57	3.715352e+03	1.241645e+00,	2.006811e-07	
58	3.801894e+03	1.241645e+00,	2.053556e-07	
59	3.890451e+03	1.241645e+00,	2.101389e-07	
60	3.981072e+03	1.241645e+00,	2.150337e-07	
61	4.073803e+03	1.241645e+00,	2.200425e-07	
62	4.168694e+03	1.241645e+00,	2.251679e-07	
63	4.265795e+03	1.241645e+00,	2.304127e-07	
64	4.365158e+03	1.241645e+00,	2.357797e-07	
65	4.466836e+03	1.241645e+00,	2.412718e-07	
66	4.570882e+03	1.241645e+00,	2.468917e-07	
67	4.677351e+03	1.241645e+00,	2.526425e-07	
68	4.786301e+03	1.241645e+00,	2.585273e-07	
69	4.897788e+03	1.241645e+00,	2.645492e-07	
70	5.011872e+03	1.241645e+00,	2.707114e-07	
71	5.128614e+03	1.241645e+00,	2.770170e-07	
72	5.248075e+03	1.241645e+00,	2.834696e-07	
73	5.370318e+03	1.241645e+00,	2.900725e-07	
74	5.495409e+03	1.241645e+00,	2.968291e-07	
75	5.623413e+03	1.241645e+00,	3.037431e-07	
76	5.754399e+03	1.241645e+00,	3.108182e-07	
77	5.888437e+03	1.241645e+00,	3.180581e-07	
78	6.025596e+03	1.241645e+00,	3.254666e-07	
79	6.165950e+03	1.241645e+00,	3.330477e-07	
80	6.309573e+03	1.241645e+00,	3.408054e-07	
81	6.456542e+03	1.241645e+00,	3.487438e-07	
82	6.606934e+03	1.241645e+00,	3.568671e-07	
83	6.760830e+03	1.241645e+00,	3.651796e-07	
84	6.918310e+03	1.241645e+00,	3.736857e-07	
85	7.079458e+03	1.241645e+00,	3.823900e-07	
86	7.244360e+03	1.241645e+00,	3.912970e-07	
87	7.413102e+03	1.241645e+00,	4.004114e-07	
88	7.585776e+03	1.241645e+00,	4.097382e-07	
89	7.762471e+03	1.241645e+00,	4.192823e-07	
90	7.943282e+03	1.241645e+00,	4.290486e-07	
91	8.128305e+03	1.241645e+00,	4.390424e-07	
92	8.317638e+03	1.241645e+00,	4.492690e-07	
93	8.511380e+03	1.241645e+00,	4.597339e-07	
94	8.709636e+03	1.241645e+00,	4.704424e-07	
95	8.912509e+03	1.241645e+00,	4.814004e-07	
96	9.120108e+03	1.241645e+00,	4.926137e-07	
97	9.332543e+03	1.241645e+00,	5.040881e-07	
98	9.549926e+03	1.241645e+00,	5.158299e-07	
99	9.772372e+03	1.241645e+00,	5.278451e-07	
100	1.000000e+04	1.241645e+00,	5.401402e-07	
101	1.023293e+04	1.241645e+00,	5.527217e-07	
102	1.047129e+04	1.241645e+00,	5.655962e-07	
103	1.071519e+04	1.241645e+00,	5.787706e-07	
104	1.096478e+04	1.241645e+00,	5.922519e-07	
105	1.122018e+04	1.241645e+00,	6.060472e-07	
106	1.148154e+04	1.241645e+00,	6.201639e-07	
107	1.174898e+04	1.241645e+00,	6.346094e-07	
108	1.202264e+04	1.241645e+00,	6.493913e-07	
109	1.230269e+04	1.241645e+00,	6.645176e-07	
110	1.258925e+04	1.241645e+00,	6.799962e-07	
111	1.288250e+04	1.241645e+00,	6.958353e-07	
112	1.318257e+04	1.241645e+00,	7.120434e-07	

Index   frequency       vop                             
--------------------------------------------------------------------------------
113	1.348963e+04	1.241645e+00,	7.286291e-07	
114	1.380384e+04	1.241645e+00,	7.456010e-07	
115	1.412538e+04	1.241645e+00,	7.629683e-07	
116	1.445440e+04	1.241645e+00,	7.807401e-07	
117	1.479108e+04	1.241645e+00,	7.989259e-07	
118	1.513561e+04	1.241645e+00,	8.175352e-07	
119	1.548817e+04	1.241645e+00,	8.365781e-07	
120	1.584893e+04	1.241645e+00,	8.560645e-07	
121	1.621810e+04	1.241645e+00,	8.760048e-07	
122	1.659587e+04	1.241645e+00,	8.964096e-07	
123	1.698244e+04	1.241645e+00,	9.172896e-07	
124	1.737801e+04	1.241645e+00,	9.386560e-07	
125	1.778279e+04	1.241645e+00,	9.605202e-07	
126	1.819701e+04	1.241645e+00,	9.828935e-07	
127	1.862087e+04	1.241645e+00,	1.005788e-06	
128	1.905461e+04	1.241645e+00,	1.029216e-06	
129	1.949845e+04	1.241645e+00,	1.053189e-06	
130	1.995262e+04	1.241645e+00,	1.077721e-06	
131	2.041738e+04	1.241645e+00,	1.102825e-06	
132	2.089296e+04	1.241645e+00,	1.128513e-06	
133	2.137962e+04	1.241645e+00,	1.154799e-06	
134	2.187762e+04	1.241645e+00,	1.181698e-06	
135	2.238721e+04	1.241645e+00,	1.209223e-06	
136	2.290868e+04	1.241645e+00,	1.237390e-06	
137	2.344229e+04	1.241645e+00,	1.266212e-06	
138	2.398833e+04	1.241645e+00,	1.295706e-06	
139	2.454709e+04	1.241645e+00,	1.325887e-06	
140	2.511886e+04	1.241645e+00,	1.356771e-06	
141	2.570396e+04	1.241645e+00,	1.388374e-06	
142	2.630268e+04	1.241645e+00,	1.420713e-06	
143	2.691535e+04	1.241645e+00,	1.453806e-06	
144	2.754229e+04	1.241645e+00,	1.487670e-06	
145	2.818383e+04	1.241645e+00,	1.522322e-06	
146	2.884032e+04	1.241645e+00,	1.557781e-06	
147	2.951209e+04	1.241645e+00,	1.594067e-06	
148	3.019952e+04	1.241645e+00,	1.631197e-06	
149	3.090295e+04	1.241645e+00,	1.669193e-06	
150	3.162278e+04	1.241645e+00,	1.708073e-06	
151	3.235937e+04	1.241645e+00,	1.747859e-06	
152	3.311311e+04	1.241645e+00,	1.788572e-06	
153	3.388442e+04	1.241645e+00,	1.830233e-06	
154	3.467369e+04	1.241645e+00,	1.872865e-06	
155	3.548134e+04	1.241645e+00,	1.916490e-06	
156	3.630781e+04	1.241645e+00,	1.961130e-06	
157	3.715352e+04	1.241645e+00,	2.006811e-06	
158	3.801894e+04	1.241645e+00,	2.053556e-06	
159	3.890451e+04	1.241645e+00,	2.101389e-06	
160	3.981072e+04	1.241645e+00,	2.150337e-06	
161	4.073803e+04	1.241645e+00,	2.200425e-06	
162	4.168694e+04	1.241645e+00,	2.251679e-06	
163	4.265795e+04	1.241645e+00,	2.304127e-06	
164	4.365158e+04	1.241645e+00,	2.357797e-06	
165	4.466836e+04	1.241645e+00,	2.412717e-06	
166	4.570882e+04	1.241645e+00,	2.468917e-06	
167	4.677351e+04	1.241645e+00,	2.526425e-06	
168	4.786301e+04	1.241645e+00,	2.585273e-06	
169	4.897788e+04	1.241645e+00,	2.645492e-06	
170	5.011872e+04	1.241645e+00,	2.707114e-06	

Index   frequency       vop                             
--------------------------------------------------------------------------------
171	5.128614e+04	1.241645e+00,	2.770170e-06	
172	5.248075e+04	1.241645e+00,	2.834696e-06	
173	5.370318e+04	1.241645e+00,	2.900724e-06	
174	5.495409e+04	1.241645e+00,	2.968291e-06	
175	5.623413e+04	1.241645e+00,	3.037431e-06	
176	5.754399e+04	1.241645e+00,	3.108182e-06	
177	5.888437e+04	1.241645e+00,	3.180581e-06	
178	6.025596e+04	1.241645e+00,	3.254666e-06	
179	6.165950e+04	1.241645e+00,	3.330477e-06	
180	6.309573e+04	1.241645e+00,	3.408054e-06	
181	6.456542e+04	1.241645e+00,	3.487438e-06	
182	6.606934e+04	1.241645e+00,	3.568671e-06	
183	6.760830e+04	1.241645e+00,	3.651796e-06	
184	6.918310e+04	1.241645e+00,	3.736857e-06	
185	7.079458e+04	1.241645e+00,	3.823899e-06	
186	7.244360e+04	1.241645e+00,	3.912969e-06	
187	7.413102e+04	1.241645e+00,	4.004114e-06	
188	7.585776e+04	1.241645e+00,	4.097382e-06	
189	7.762471e+04	1.241645e+00,	4.192822e-06	
190	7.943282e+04	1.241645e+00,	4.290486e-06	
191	8.128305e+04	1.241645e+00,	4.390424e-06	
192	8.317638e+04	1.241645e+00,	4.492690e-06	
193	8.511380e+04	1.241645e+00,	4.597338e-06	
194	8.709636e+04	1.241645e+00,	4.704424e-06	
195	8.912509e+04	1.241645e+00,	4.814004e-06	
196	9.120108e+04	1.241645e+00,	4.926136e-06	
197	9.332543e+04	1.241645e+00,	5.040881e-06	
198	9.549926e+04	1.241645e+00,	5.158298e-06	
199	9.772372e+04	1.241645e+00,	5.278450e-06	
200	1.000000e+05	1.241645e+00,	5.401401e-06	
201	1.023293e+05	1.241645e+00,	5.527216e-06	
202	1.047129e+05	1.241645e+00,	5.655961e-06	
203	1.071519e+05	1.241645e+00,	5.787705e-06	
204	1.096478e+05	1.241645e+00,	5.922518e-06	
205	1.122018e+05	1.241645e+00,	6.060471e-06	
206	1.148154e+05	1.241645e+00,	6.201638e-06	
207	1.174898e+05	1.241645e+00,	6.346092e-06	
208	1.202264e+05	1.241645e+00,	6.493912e-06	
209	1.230269e+05	1.241645e+00,	6.645174e-06	
210	1.258925e+05	1.241645e+00,	6.799960e-06	
211	1.288250e+05	1.241645e+00,	6.958352e-06	
212	1.318257e+05	1.241645e+00,	7.120432e-06	
213	1.348963e+05	1.241645e+00,	7.286288e-06	
214	1.380384e+05	1.241645e+00,	7.456008e-06	
215	1.412538e+05	1.241645e+00,	7.629680e-06	
216	1.445440e+05	1.241645e+00,	7.807398e-06	
217	1.479108e+05	1.241645e+00,	7.989256e-06	
218	1.513561e+05	1.241645e+00,	8.175349e-06	
219	1.548817e+05	1.241645e+00,	8.365778e-06	
220	1.584893e+05	1.241645e+00,	8.560641e-06	
221	1.621810e+05	1.241645e+00,	8.760044e-06	
222	1.659587e+05	1.241645e+00,	8.964092e-06	
223	1.698244e+05	1.241645e+00,	9.172892e-06	
224	1.737801e+05	1.241645e+00,	9.386556e-06	
225	1.778279e+05	1.241645e+00,	9.605197e-06	
226	1.819701e+05	1.241645e+00,	9.828930e-06	
227	1.862087e+05	1.241645e+00,	1.005788e-05	
228	1.905461e+05	1.241645e+00,	1.029215e-05	

Index   frequency       vop                             
--------------------------------------------------------------------------------
229	1.949845e+05	1.241645e+00,	1.053189e-05	
230	1.995262e+05	1.241645e+00,	1.077721e-05	
231	2.041738e+05	1.241645e+00,	1.102824e-05	
232	2.089296e+05	1.241645e+00,	1.128512e-05	
233	2.137962e+05	1.241645e+00,	1.154798e-05	
234	2.187762e+05	1.241645e+00,	1.181697e-05	
235	2.238721e+05	1.241645e+00,	1.209222e-05	
236	2.290868e+05	1.241645e+00,	1.237389e-05	
237	2.344229e+05	1.241645e+00,	1.266211e-05	
238	2.398833e+05	1.241645e+00,	1.295705e-05	
239	2.454709e+05	1.241645e+00,	1.325886e-05	
240	2.511886e+05	1.241645e+00,	1.356769e-05	
241	2.570396e+05	1.241645e+00,	1.388373e-05	
242	2.630268e+05	1.241645e+00,	1.420712e-05	
243	2.691535e+05	1.241645e+00,	1.453804e-05	
244	2.754229e+05	1.241645e+00,	1.487668e-05	
245	2.818383e+05	1.241645e+00,	1.522320e-05	
246	2.884032e+05	1.241645e+00,	1.557779e-05	
247	2.951209e+05	1.241645e+00,	1.594064e-05	
248	3.019952e+05	1.241645e+00,	1.631195e-05	
249	3.090295e+05	1.241645e+00,	1.669190e-05	
250	3.162278e+05	1.241645e+00,	1.708070e-05	
251	3.235937e+05	1.241645e+00,	1.747856e-05	
252	3.311311e+05	1.241645e+00,	1.788569e-05	
253	3.388442e+05	1.241645e+00,	1.830230e-05	
254	3.467369e+05	1.241645e+00,	1.872861e-05	
255	3.548134e+05	1.241645e+00,	1.916486e-05	
256	3.630781e+05	1.241645e+00,	1.961126e-05	
257	3.715352e+05	1.241645e+00,	2.006807e-05	
258	3.801894e+05	1.241645e+00,	2.053551e-05	
259	3.890451e+05	1.241645e+00,	2.101384e-05	
260	3.981072e+05	1.241645e+00,	2.150331e-05	
261	4.073803e+05	1.241645e+00,	2.200419e-05	
262	4.168694e+05	1.241645e+00,	2.251673e-05	
263	4.265795e+05	1.241645e+00,	2.304121e-05	
264	4.365158e+05	1.241645e+00,	2.357790e-05	
265	4.466836e+05	1.241645e+00,	2.412710e-05	
266	4.570882e+05	1.241645e+00,	2.468909e-05	
267	4.677351e+05	1.241645e+00,	2.526416e-05	
268	4.786301e+05	1.241645e+00,	2.585264e-05	
269	4.897788e+05	1.241645e+00,	2.645482e-05	
270	5.011872e+05	1.241645e+00,	2.707103e-05	
271	5.128614e+05	1.241645e+00,	2.770159e-05	
272	5.248075e+05	1.241645e+00,	2.834683e-05	
273	5.370318e+05	1.241645e+00,	2.900711e-05	
274	5.495409e+05	1.241645e+00,	2.968277e-05	
275	5.623413e+05	1.241645e+00,	3.037416e-05	
276	5.754399e+05	1.241645e+00,	3.108166e-05	
277	5.888437e+05	1.241645e+00,	3.180563e-05	
278	6.025596e+05	1.241645e+00,	3.254647e-05	
279	6.165950e+05	1.241645e+00,	3.330457e-05	
280	6.309573e+05	1.241645e+00,	3.408032e-05	
281	6.456542e+05	1.241645e+00,	3.487415e-05	
282	6.606934e+05	1.241645e+00,	3.568646e-05	
283	6.760830e+05	1.241645e+00,	3.651769e-05	
284	6.918310e+05	1.241645e+00,	3.736828e-05	
285	7.079458e+05	1.241645e+00,	3.823869e-05	
286	7.244360e+05	1.241645e+00,	3.912937e-05	

Index   frequency       vop                             
--------------------------------------------------------------------------------
287	7.413102e+05	1.241645e+00,	4.004079e-05	
288	7.585776e+05	1.241645e+00,	4.097345e-05	
289	7.762471e+05	1.241645e+00,	4.192782e-05	
290	7.943282e+05	1.241645e+00,	4.290443e-05	
291	8.128305e+05	1.241645e+00,	4.390378e-05	
292	8.317638e+05	1.241645e+00,	4.492641e-05	
293	8.511380e+05	1.241645e+00,	4.597286e-05	
294	8.709636e+05	1.241645e+00,	4.704368e-05	
295	8.912509e+05	1.241645e+00,	4.813944e-05	
296	9.120108e+05	1.241645e+00,	4.926072e-05	
297	9.332543e+05	1.241645e+00,	5.040812e-05	
298	9.549926e+05	1.241645e+00,	5.158225e-05	
299	9.772372e+05	1.241645e+00,	5.278372e-05	
300	1.000000e+06	1.241645e+00,	5.401317e-05	
301	1.023293e+06	1.241645e+00,	5.527126e-05	
302	1.047129e+06	1.241645e+00,	5.655865e-05	
303	1.071519e+06	1.241645e+00,	5.787603e-05	
304	1.096478e+06	1.241645e+00,	5.922409e-05	
305	1.122018e+06	1.241645e+00,	6.060354e-05	
306	1.148154e+06	1.241645e+00,	6.201513e-05	
307	1.174898e+06	1.241645e+00,	6.345959e-05	
308	1.202264e+06	1.241645e+00,	6.493769e-05	
309	1.230269e+06	1.241645e+00,	6.645022e-05	
310	1.258925e+06	1.241645e+00,	6.799798e-05	
311	1.288250e+06	1.241645e+00,	6.958178e-05	
312	1.318257e+06	1.241645e+00,	7.120247e-05	
313	1.348963e+06	1.241645e+00,	7.286091e-05	
314	1.380384e+06	1.241645e+00,	7.455797e-05	
315	1.412538e+06	1.241645e+00,	7.629455e-05	
316	1.445440e+06	1.241645e+00,	7.807158e-05	
317	1.479108e+06	1.241645e+00,	7.989000e-05	
318	1.513561e+06	1.241645e+00,	8.175077e-05	
319	1.548817e+06	1.241645e+00,	8.365487e-05	
320	1.584893e+06	1.241645e+00,	8.560332e-05	
321	1.621810e+06	1.241645e+00,	8.759715e-05	
322	1.659587e+06	1.241645e+00,	8.963741e-05	
323	1.698244e+06	1.241645e+00,	9.172518e-05	
324	1.737801e+06	1.241645e+00,	9.386158e-05	
325	1.778279e+06	1.241645e+00,	9.604774e-05	
326	1.819701e+06	1.241645e+00,	9.828481e-05	
327	1.862087e+06	1.241645e+00,	1.005740e-04	
328	1.905461e+06	1.241645e+00,	1.029165e-04	
329	1.949845e+06	1.241645e+00,	1.053135e-04	
330	1.995262e+06	1.241645e+00,	1.077664e-04	
331	2.041738e+06	1.241645e+00,	1.102763e-04	
332	2.089296e+06	1.241645e+00,	1.128448e-04	
333	2.137962e+06	1.241645e+00,	1.154730e-04	
334	2.187762e+06	1.241645e+00,	1.181625e-04	
335	2.238721e+06	1.241645e+00,	1.209146e-04	
336	2.290868e+06	1.241645e+00,	1.237308e-04	
337	2.344229e+06	1.241645e+00,	1.266126e-04	
338	2.398833e+06	1.241646e+00,	1.295615e-04	
339	2.454709e+06	1.241646e+00,	1.325791e-04	
340	2.511886e+06	1.241646e+00,	1.356670e-04	
341	2.570396e+06	1.241646e+00,	1.388268e-04	
342	2.630268e+06	1.241646e+00,	1.420602e-04	
343	2.691535e+06	1.241646e+00,	1.453689e-04	
344	2.754229e+06	1.241646e+00,	1.487547e-04	

Index   frequency       vop                             
--------------------------------------------------------------------------------
345	2.818383e+06	1.241646e+00,	1.522193e-04	
346	2.884032e+06	1.241646e+00,	1.557647e-04	
347	2.951209e+06	1.241646e+00,	1.593927e-04	
348	3.019952e+06	1.241646e+00,	1.631051e-04	
349	3.090295e+06	1.241646e+00,	1.669041e-04	
350	3.162278e+06	1.241646e+00,	1.707916e-04	
351	3.235937e+06	1.241646e+00,	1.747696e-04	
352	3.311311e+06	1.241646e+00,	1.788404e-04	
353	3.388442e+06	1.241646e+00,	1.830060e-04	
354	3.467369e+06	1.241646e+00,	1.872687e-04	
355	3.548134e+06	1.241646e+00,	1.916307e-04	
356	3.630781e+06	1.241646e+00,	1.960944e-04	
357	3.715352e+06	1.241646e+00,	2.006622e-04	
358	3.801894e+06	1.241646e+00,	2.053364e-04	
359	3.890451e+06	1.241646e+00,	2.101196e-04	
360	3.981072e+06	1.241646e+00,	2.150143e-04	
361	4.073803e+06	1.241646e+00,	2.200231e-04	
362	4.168694e+06	1.241646e+00,	2.251487e-04	
363	4.265795e+06	1.241646e+00,	2.303938e-04	
364	4.365158e+06	1.241646e+00,	2.357612e-04	
365	4.466836e+06	1.241646e+00,	2.412538e-04	
366	4.570882e+06	1.241646e+00,	2.468745e-04	
367	4.677351e+06	1.241646e+00,	2.526263e-04	
368	4.786301e+06	1.241647e+00,	2.585122e-04	
369	4.897788e+06	1.241647e+00,	2.645354e-04	
370	5.011872e+06	1.241647e+00,	2.706991e-04	
371	5.128614e+06	1.241647e+00,	2.770066e-04	
372	5.248075e+06	1.241647e+00,	2.834611e-04	
373	5.370318e+06	1.241647e+00,	2.900663e-04	
374	5.495409e+06	1.241647e+00,	2.968254e-04	
375	5.623413e+06	1.241647e+00,	3.037422e-04	
376	5.754399e+06	1.241647e+00,	3.108203e-04	
377	5.888437e+06	1.241647e+00,	3.180634e-04	
378	6.025596e+06	1.241647e+00,	3.254755e-04	
379	6.165950e+06	1.241647e+00,	3.330603e-04	
380	6.309573e+06	1.241648e+00,	3.408220e-04	
381	6.456542e+06	1.241648e+00,	3.487646e-04	
382	6.606934e+06	1.241648e+00,	3.568924e-04	
383	6.760830e+06	1.241648e+00,	3.652096e-04	
384	6.918310e+06	1.241648e+00,	3.737206e-04	
385	7.079458e+06	1.241648e+00,	3.824299e-04	
386	7.244360e+06	1.241648e+00,	3.913422e-04	
387	7.413102e+06	1.241649e+00,	4.004621e-04	
388	7.585776e+06	1.241649e+00,	4.097944e-04	
389	7.762471e+06	1.241649e+00,	4.193441e-04	
390	7.943282e+06	1.241649e+00,	4.291163e-04	
391	8.128305e+06	1.241649e+00,	4.391160e-04	
392	8.317638e+06	1.241649e+00,	4.493486e-04	
393	8.511380e+06	1.241650e+00,	4.598195e-04	
394	8.709636e+06	1.241650e+00,	4.705342e-04	
395	8.912509e+06	1.241650e+00,	4.814984e-04	
396	9.120108e+06	1.241650e+00,	4.927178e-04	
397	9.332543e+06	1.241651e+00,	5.041984e-04	
398	9.549926e+06	1.241651e+00,	5.159462e-04	
399	9.772372e+06	1.241651e+00,	5.279676e-04	
400	1.000000e+07	1.241651e+00,	5.402687e-04	
401	1.023293e+07	1.241652e+00,	5.528561e-04	
402	1.047129e+07	1.241652e+00,	5.657365e-04	

Index   frequency       vop                             
--------------------------------------------------------------------------------
403	1.071519e+07	1.241652e+00,	5.789167e-04	
404	1.096478e+07	1.241653e+00,	5.924037e-04	
405	1.122018e+07	1.241653e+00,	6.062045e-04	
406	1.148154e+07	1.241653e+00,	6.203264e-04	
407	1.174898e+07	1.241654e+00,	6.347770e-04	
408	1.202264e+07	1.241654e+00,	6.495638e-04	
409	1.230269e+07	1.241655e+00,	6.646947e-04	
410	1.258925e+07	1.241655e+00,	6.801777e-04	
411	1.288250e+07	1.241656e+00,	6.960210e-04	
412	1.318257e+07	1.241656e+00,	7.122328e-04	
413	1.348963e+07	1.241657e+00,	7.288218e-04	
414	1.380384e+07	1.241657e+00,	7.457968e-04	
415	1.412538e+07	1.241658e+00,	7.631667e-04	
416	1.445440e+07	1.241658e+00,	7.809406e-04	
